(1543392410.052913) can0 628#01390CC4DA300018
(1543392410.053653) can0 0CFDD633#01000100FF00F0C3
(1543392410.055154) can0 0CFDD634#01000100FF00F0C3
(1543392410.060179) can0 0CFDD734#0100FFFFFFFFFFFF
(1543392410.066641) can0 0CFDD733#0100FFFFFFFFFFFF
(1543392410.074597) can0 0CFDD633#01000100FF00F0C3
(1543392410.076162) can0 0CFDD634#01000100FF00F0C3
(1543392410.080168) can0 0CFDD734#0100FFFFFFFFFFFF
(1543392410.087594) can0 0CFDD733#0100FFFFFFFFFFFF
(1543392410.092907) can0 628#013A0CC4DA1F0018
(1543392410.094559) can0 0CFDD633#01000100FF00F0C3
(1543392410.096145) can0 0CFDD634#01000100FF00F0C3
(1543392410.101168) can0 0CFDD734#0100FFFFFFFFFFFF
(1543392410.107573) can0 0CFDD733#0100FFFFFFFFFFFF
(1543392410.114517) can0 0CFDD633#01000100FF00F0C3
(1543392410.116062) can0 0CFDD634#01000100FF00F0C3
(1543392410.122062) can0 0CFDD734#0100FFFFFFFFFFFF
(1543392410.128527) can0 0CFDD733#0100FFFFFFFFFFFF
(1543392410.132938) can0 628#01380CC4DA2A0018
(1543392410.134516) can0 0CFDD633#01000100FF00F0C3
(1543392410.137039) can0 0CFDD634#01000100FF00F0C3
(1543392410.142008) can0 0CFDD734#0100FFFFFFFFFFFF
(1543392410.148489) can0 0CFDD733#0100FFFFFFFFFFFF
(1543392410.155480) can0 0CFDD633#01000100FF00F0C3
(1543392410.157021) can0 0CFDD634#01000100FF00F0C3
(1543392410.162015) can0 0CFDD734#0100FFFFFFFFFFFF
(1543392410.169550) can0 0CFDD733#0100FFFFFFFFFFFF
(1543392410.173101) can0 628#01380CC6DA3D0018
(1543392410.175451) can0 0CFDD633#01000100FF00F0C3
(1543392410.176993) can0 0CFDD634#01000100FF00F0C3
(1543392410.183013) can0 0CFDD734#0100FFFFFFFFFFFF
(1543392410.189504) can0 0CFDD733#0100FFFFFFFFFFFF
(1543392410.196478) can0 0CFDD633#01000100FF00F0C3
(1543392410.197964) can0 0CFDD634#01000100FF00F0C3
(1543392410.203005) can0 0CFDD734#0100FFFFFFFFFFFF
(1543392410.210422) can0 0CFDD733#0100FFFFFFFFFFFF
(1543392410.213026) can0 628#01380CC3DA330018
(1543392410.216451) can0 0CFDD633#01000100FF00F0C3
(1543392410.217938) can0 0CFDD634#01000100FF00F0C3
(1543392410.223980) can0 0CFDD734#0100FFFFFFFFFFFF
(1543392410.230406) can0 0CFDD733#0100FFFFFFFFFFFF
(1543392410.237399) can0 0CFDD633#01000100FF00F0C3
(1543392410.238889) can0 0CFDD634#01000100FF00F0C3
(1543392410.244928) can0 0CFDD734#0100FFFFFFFFFFFF
(1543392410.251363) can0 0CFDD733#0100FFFFFFFFFFFF
(1543392410.252989) can0 628#013B0CC3DA2A0018
(1543392410.257373) can0 0CFDD633#01000100FF00F0C3
(1543392410.258901) can0 0CFDD634#01000100FF00F0C3
(1543392410.264897) can0 0CFDD734#0100FFFFFFFFFFFF
(1543392410.271278) can0 0CFDD733#0100FFFFFFFFFFFF
(1543392410.278287) can0 0CFDD633#01000100FF00F0C3
(1543392410.279805) can0 0CFDD634#01000100FF00F0C3
(1543392410.284807) can0 0CFDD734#0100FFFFFFFFFFFF
(1543392410.292277) can0 0CFDD733#0100FFFFFFFFFFFF
(1543392410.292969) can0 628#013B0CC4DA2B0018
(1543392410.298308) can0 0CFDD633#01000100FF00F0C3
(1543392410.299795) can0 0CFDD634#01000100FF00F0C3
(1543392410.305797) can0 0CFDD734#0100FFFFFFFFFFFF
(1543392410.312275) can0 0CFDD733#0100FFFFFFFFFFFF
(1543392410.319257) can0 0CFDD633#01000100FF00F0C3
(1543392410.320733) can0 0CFDD634#01000100FF00F0C3
(1543392410.325784) can0 0CFDD734#0100FFFFFFFFFFFF
(1543392410.333048) can0 628#01370CC2DA2C0018
(1543392410.333598) can0 0CFDD733#0100FFFFFFFFFFFF
(1543392410.340240) can0 0CFDD633#01000100FF00F0C3
(1543392410.341709) can0 0CFDD634#01000100FF00F0C3
(1543392410.346725) can0 0CFDD734#0100FFFFFFFFFFFF
(1543392410.354156) can0 0CFDD733#0100FFFFFFFFFFFF
(1543392410.360162) can0 0CFDD633#01000100FF00F0C3
(1543392410.362672) can0 0CFDD634#01000100FF00F0C3
(1543392410.366673) can0 0CFDD734#0100FFFFFFFFFFFF
(1543392410.373077) can0 628#013A0CC5DA350018
(1543392410.374205) can0 0CFDD733#0100FFFFFFFFFFFF
(1543392410.380246) can0 0CFDD633#01000100FF00F0C3
(1543392410.382636) can0 0CFDD634#01000100FF00F0C3
(1543392410.387651) can0 0CFDD734#0100FFFFFFFFFFFF
(1543392410.395155) can0 0CFDD733#0100FFFFFFFFFFFF
(1543392410.401059) can0 0CFDD633#01000100FF00F0C3
(1543392410.402562) can0 0CFDD634#01000100FF00F0C3
(1543392410.407561) can0 0CFDD734#0100FFFFFFFFFFFF
(1543392410.412987) can0 628#01380CC4DA2C0018
(1543392410.415057) can0 0CFDD733#0100FFFFFFFFFFFF
(1543392410.422055) can0 0CFDD633#01000100FF00F0C3
(1543392410.423555) can0 0CFDD634#01000100FF00F0C3
(1543392410.428549) can0 0CFDD734#0100FFFFFFFFFFFF
(1543392410.435051) can0 0CFDD733#0100FFFFFFFFFFFF
(1543392410.442046) can0 0CFDD633#01000100FF00F0C3
(1543392410.443573) can0 0CFDD634#01000100FF00F0C3
(1543392410.448533) can0 0CFDD734#0100FFFFFFFFFFFF
(1543392410.453052) can0 628#01390CC4DA2F0018
(1543392410.456015) can0 0CFDD733#0100FFFFFFFFFFFF
(1543392410.463002) can0 0CFDD633#01000100FF00F0C3
(1543392410.464552) can0 0CFDD634#01000100FF00F0C3
(1543392410.469463) can0 0CFDD734#0100FFFFFFFFFFFF
(1543392410.475956) can0 0CFDD733#0100FFFFFFFFFFFF
(1543392410.482917) can0 0CFDD633#01000100FF00F0C3
(1543392410.484512) can0 0CFDD634#01000100FF00F0C3
(1543392410.489422) can0 0CFDD734#0100FFFFFFFFFFFF
(1543392410.493087) can0 628#01370CC6DA390018
(1543392410.496959) can0 0CFDD733#0100FFFFFFFFFFFF
(1543392410.502933) can0 0CFDD633#01000100FF00F0C3
(1543392410.504407) can0 0CFDD634#01000100FF00F0C3
(1543392410.510417) can0 0CFDD734#0100FFFFFFFFFFFF
(1543392410.516881) can0 0CFDD733#0100FFFFFFFFFFFF
(1543392410.523855) can0 0CFDD633#01000100FF00F0C3
(1543392410.525371) can0 0CFDD634#01000100FF00F0C3
(1543392410.530383) can0 0CFDD734#0100FFFFFFFFFFFF
(1543392410.533054) can0 628#01350CC4DA210018
(1543392410.537856) can0 0CFDD733#0100FFFFFFFFFFFF
(1543392410.543918) can0 0CFDD633#01000100FF00F0C3
(1543392410.545395) can0 0CFDD634#01000100FF00F0C3
(1543392410.551322) can0 0CFDD734#0100FFFFFFFFFFFF
(1543392410.557881) can0 0CFDD733#0100FFFFFFFFFFFF
(1543392410.564870) can0 0CFDD633#01000100FF00F0C3
(1543392410.566331) can0 0CFDD634#01000100FF00F0C3
(1543392410.571305) can0 0CFDD734#0100FFFFFFFFFFFF
(1543392410.573125) can0 628#013A0CC5DA270018
(1543392410.578819) can0 0CFDD733#0100FFFFFFFFFFFF
(1543392410.585802) can0 0CFDD633#01000100FF00F0C3
(1543392410.587283) can0 0CFDD634#01000100FF00F0C3
(1543392410.592346) can0 0CFDD734#0100FFFFFFFFFFFF
(1543392410.598807) can0 0CFDD733#0100FFFFFFFFFFFF
(1543392410.605777) can0 0CFDD633#01000100FF00F0C3
(1543392410.607292) can0 0CFDD634#01000100FF00F0C3
(1543392410.612246) can0 0CFDD734#0100FFFFFFFFFFFF
(1543392410.613201) can0 628#01370CC6DA2A0018
(1543392410.619818) can0 0CFDD733#0100FFFFFFFFFFFF
(1543392410.625764) can0 0CFDD633#01000100FF00F0C3
(1543392410.627265) can0 0CFDD634#01000100FF00F0C3
(1543392410.633268) can0 0CFDD734#0100FFFFFFFFFFFF
(1543392410.639765) can0 0CFDD733#0100FFFFFFFFFFFF
(1543392410.646738) can0 0CFDD633#01000100FF00F0C3
(1543392410.648237) can0 0CFDD634#01000100FF00F0C3
(1543392410.653237) can0 0CFDD734#0100FFFFFFFFFFFF
(1543392410.653603) can0 628#01380CC5DA240018
(1543392410.660703) can0 0CFDD733#0100FFFFFFFFFFFF
(1543392410.666617) can0 0CFDD633#01000100FF00F0C3
(1543392410.668237) can0 0CFDD634#01000100FF00F0C3
(1543392410.674237) can0 0CFDD734#0100FFFFFFFFFFFF
(1543392410.680705) can0 0CFDD733#0100FFFFFFFFFFFF
(1543392410.687619) can0 0CFDD633#01000100FF00F0C3
(1543392410.689113) can0 0CFDD634#01000100FF00F0C3
(1543392410.693154) can0 628#013A0CC4DA2D0018
(1543392410.694156) can0 0CFDD734#0100FFFFFFFFFFFF
(1543392410.701618) can0 0CFDD733#0100FFFFFFFFFFFF
(1543392410.707564) can0 0CFDD633#01000100FF00F0C3
(1543392410.709030) can0 0CFDD634#01000100FF00F0C3
(1543392410.715035) can0 0CFDD734#0100FFFFFFFFFFFF
(1543392410.721553) can0 0CFDD733#0100FFFFFFFFFFFF
(1543392410.728505) can0 0CFDD633#01000100FF00F0C3
(1543392410.730000) can0 0CFDD634#01000100FF00F0C3
(1543392410.733051) can0 628#01390CC4DA2A0018
(1543392410.734974) can0 0CFDD734#0100FFFFFFFFFFFF
(1543392410.742504) can0 0CFDD733#0100FFFFFFFFFFFF
(1543392410.748505) can0 0CFDD633#01000100FF00F0C3
(1543392410.750944) can0 0CFDD634#01000100FF00F0C3
(1543392410.755948) can0 0CFDD734#0100FFFFFFFFFFFF
(1543392410.762497) can0 0CFDD733#0100FFFFFFFFFFFF
(1543392410.769494) can0 0CFDD633#01000100FF00F0C3
(1543392410.770952) can0 0CFDD634#01000100FF00F0C3
(1543392410.773142) can0 628#01390CC4DA2B0018
(1543392410.775926) can0 0CFDD734#0100FFFFFFFFFFFF
(1543392410.783454) can0 0CFDD733#0100FFFFFFFFFFFF
(1543392410.789425) can0 0CFDD633#01000100FF00F0C3
(1543392410.790871) can0 0CFDD634#01000100FF00F0C3
(1543392410.796885) can0 0CFDD734#0100FFFFFFFFFFFF
(1543392410.803465) can0 0CFDD733#0100FFFFFFFFFFFF
(1543392410.810375) can0 0CFDD633#01000100FF00F0C3
(1543392410.811856) can0 0CFDD634#01000100FF00F0C3
(1543392410.813173) can0 628#01390CC3DA300018
(1543392410.817929) can0 0CFDD734#0100FFFFFFFFFFFF
(1543392410.824393) can0 0CFDD733#0100FFFFFFFFFFFF
(1543392410.830370) can0 0CFDD633#01000100FF00F0C3
(1543392410.832805) can0 0CFDD634#01000100FF00F0C3
(1543392410.837847) can0 0CFDD734#0100FFFFFFFFFFFF
(1543392410.844349) can0 0CFDD733#0100FFFFFFFFFFFF
(1543392410.851400) can0 0CFDD633#01000100FF00F0C3
(1543392410.852808) can0 0CFDD634#01000100FF00F0C3
(1543392410.853270) can0 628#01390CC2DA2A0018
(1543392410.857767) can0 0CFDD734#0100FFFFFFFFFFFF
(1543392410.865299) can0 0CFDD733#0100FFFFFFFFFFFF
(1543392410.872278) can0 0CFDD633#01000100FF00F0C3
(1543392410.873775) can0 0CFDD634#01000100FF00F0C3
(1543392410.878786) can0 0CFDD734#0100FFFFFFFFFFFF
(1543392410.885315) can0 0CFDD733#0100FFFFFFFFFFFF
(1543392410.892269) can0 0CFDD633#01000100FF00F0C3
(1543392410.893172) can0 628#01380CC3DA2A0018
(1543392410.893743) can0 0CFDD634#01000100FF00F0C3
(1543392410.898756) can0 0CFDD734#0100FFFFFFFFFFFF
(1543392410.906286) can0 0CFDD733#0100FFFFFFFFFFFF
(1543392410.912275) can0 0CFDD633#01000100FF00F0C3
(1543392410.914719) can0 0CFDD634#01000100FF00F0C3
(1543392410.919745) can0 0CFDD734#0100FFFFFFFFFFFF
(1543392410.926311) can0 0CFDD733#0100FFFFFFFFFFFF
(1543392410.933263) can0 0CFDD633#01000100FF00F0C3
(1543392410.933646) can0 628#01380CC4DA210018
(1543392410.934693) can0 0CFDD634#01000100FF00F0C3
(1543392410.939761) can0 0CFDD734#0100FFFFFFFFFFFF
(1543392410.947242) can0 0CFDD733#0100FFFFFFFFFFFF
(1543392410.949650) can0 18FECA34#00FF00000000FFFF
(1543392410.953185) can0 0CFDD633#01000100FF00F0C3
(1543392410.955628) can0 0CFDD634#01000100FF00F0C3
(1543392410.960665) can0 0CFDD734#0100FFFFFFFFFFFF
(1543392410.967238) can0 0CFDD733#0100FFFFFFFFFFFF
(1543392410.973172) can0 628#01380CC4DA360018
(1543392410.974164) can0 0CFDD633#01000100FF00F0C3
(1543392410.975599) can0 0CFDD634#01000100FF00F0C3
(1543392410.980649) can0 0CFDD734#0100FFFFFFFFFFFF
(1543392410.981166) can0 18FECA33#00FF00000000FFFF
(1543392410.988236) can0 0CFDD733#0100FFFFFFFFFFFF
(1543392410.995142) can0 0CFDD633#01000100FF00F0C3
(1543392410.996561) can0 0CFDD634#01000100FF00F0C3
(1543392411.001534) can0 0CFDD734#0100FFFFFFFFFFFF
(1543392411.008232) can0 0CFDD733#0100FFFFFFFFFFFF
(1543392411.013231) can0 628#013A0CC6DA260018
(1543392411.015089) can0 0CFDD633#01000100FF00F0C3
(1543392411.017570) can0 0CFDD634#01000100FF00F0C3
(1543392411.021483) can0 0CFDD734#0100FFFFFFFFFFFF
(1543392411.029145) can0 0CFDD733#0100FFFFFFFFFFFF
(1543392411.036092) can0 0CFDD633#01000100FF00F0C3
(1543392411.037543) can0 0CFDD634#01000100FF00F0C3
(1543392411.042507) can0 0CFDD734#0100FFFFFFFFFFFF
(1543392411.050045) can0 0CFDD733#0100FFFFFFFFFFFF
(1543392411.053257) can0 628#013C0CBFDA280018
(1543392411.056066) can0 0CFDD633#01000100FF00F0C3
(1543392411.057447) can0 0CFDD634#01000100FF00F0C3
(1543392411.062473) can0 0CFDD734#0100FFFFFFFFFFFF
(1543392411.070019) can0 0CFDD733#0100FFFFFFFFFFFF
(1543392411.076003) can0 0CFDD633#01000100FF00F0C3
(1543392411.078465) can0 0CFDD634#01000100FF00F0C3
(1543392411.083403) can0 0CFDD734#0100FFFFFFFFFFFF
(1543392411.089966) can0 0CFDD733#0100FFFFFFFFFFFF
(1543392411.093209) can0 628#01B30CC5DAC0FF18
(1543392411.096886) can0 0CFDD633#01000100FF00F0C3
(1543392411.098337) can0 0CFDD634#01000100FF00F0C3
(1543392411.103394) can0 0CFDD734#0100FFFFFFFFFFFF
(1543392411.110985) can0 0CFDD733#0100FFFFFFFFFFFF
(1543392411.116895) can0 0CFDD633#01000100FF00F0C3
(1543392411.118318) can0 0CFDD634#01000100FF00F0C3
(1543392411.124412) can0 0CFDD734#0100FFFFFFFFFFFF
(1543392411.130902) can0 0CFDD733#0100FFFFFFFFFFFF
(1543392411.133256) can0 628#01B00DDEDAA3FE18
(1543392411.137937) can0 0CFDD633#01000100FF00F0C3
(1543392411.139350) can0 0CFDD634#01000100FF00F0C3
(1543392411.144275) can0 0CFDD734#0100FFFFFFFFFFFF
(1543392411.151892) can0 0CFDD733#0100FFFFFFFFFFFF
(1543392411.158823) can0 0CFDD633#01000100FF00F0C3
(1543392411.160286) can0 0CFDD634#01000100FF00F0C3
(1543392411.165334) can0 0CFDD734#0100FFFFFFFFFFFF
(1543392411.171883) can0 0CFDD733#0100FFFFFFFFFFFF
(1543392411.173255) can0 628#01AC0CB5DAC9FD18
(1543392411.178822) can0 0CFDD633#01000100FF00F0C3
(1543392411.181220) can0 0CFDD634#01000100FF00F0C3
(1543392411.185282) can0 0CFDD734#0100FFFFFFFFFFFF
(1543392411.192767) can0 0CFDD733#0100FFFFFFFFFFFF
(1543392411.198797) can0 0CFDD633#01000100FF00F0C3
(1543392411.201192) can0 0CFDD634#01000100FF00F0C3
(1543392411.206260) can0 0CFDD734#0100FFFFFFFFFFFF
(1543392411.212830) can0 0CFDD733#0100FFFFFFFFFFFF
(1543392411.213218) can0 628#01600BAADAE0FD18
(1543392411.219808) can0 0CFDD633#01000100FF00F0C3
(1543392411.221165) can0 0CFDD634#01000100FF00F0C3
(1543392411.226228) can0 0CFDD734#0100FFFFFFFFFFFF
(1543392411.233804) can0 0CFDD733#0100FFFFFFFFFFFF
(1543392411.239688) can0 0CFDD633#01000100FF00F0C3
(1543392411.241147) can0 0CFDD634#01000100FF00F0C3
(1543392411.247132) can0 0CFDD734#0100FFFFFFFFFFFF
(1543392411.253182) can0 628#01F80BB0DADDFD18
(1543392411.253760) can0 0CFDD733#0100FFFFFFFFFFFF
(1543392411.260654) can0 0CFDD633#01000100FF00F0C3
(1543392411.262137) can0 0CFDD634#01000100FF00F0C3
(1543392411.267073) can0 0CFDD734#0100FFFFFFFFFFFF
(1543392411.274638) can0 0CFDD733#0100FFFFFFFFFFFF
(1543392411.280681) can0 0CFDD633#01000100FF00F0C3
(1543392411.282029) can0 0CFDD634#01000100FF00F0C3
(1543392411.288023) can0 0CFDD734#0100FFFFFFFFFFFF
(1543392411.293234) can0 628#01C50B83DAB5FD18
(1543392411.294613) can0 0CFDD733#0100FFFFFFFFFFFF
(1543392411.301607) can0 0CFDD633#01000100FF00F0C3
(1543392411.303031) can0 0CFDD634#01000100FF00F0C3
(1543392411.308013) can0 0CFDD734#0100FFFFFFFFFFFF
(1543392411.315620) can0 0CFDD733#0100FFFFFFFFFFFF
(1543392411.321527) can0 0CFDD633#01000100FF00F0C3
(1543392411.322943) can0 0CFDD634#01000100FF00F0C3
(1543392411.328987) can0 0CFDD734#0100FFFFFFFFFFFF
(1543392411.333220) can0 628#01140B94DAE0FD18
(1543392411.335574) can0 0CFDD733#0100FFFFFFFFFFFF
(1543392411.342516) can0 0CFDD633#01000100FF00F0C3
(1543392411.343920) can0 0CFDD634#01000100FF00F0C3
(1543392411.349919) can0 0CFDD734#0100FFFFFFFFFFFF
(1543392411.356499) can0 0CFDD733#0100FFFFFFFFFFFF
(1543392411.362484) can0 0CFDD633#01000100FF00F0C3
(1543392411.364906) can0 0CFDD634#01000100FF00F0C3
(1543392411.369864) can0 0CFDD734#0100FFFFFFFFFFFF
(1543392411.373294) can0 628#01810B83DAE0FD18
(1543392411.376489) can0 0CFDD733#0100FFFFFFFFFFFF
(1543392411.383467) can0 0CFDD633#01000100FF00F0C3
(1543392411.384866) can0 0CFDD634#01000100FF00F0C3
(1543392411.389837) can0 0CFDD734#0100FFFFFFFFFFFF
(1543392411.397471) can0 0CFDD733#0100FFFFFFFFFFFF
(1543392411.403446) can0 0CFDD633#01000100FF00F0C3
(1543392411.405821) can0 0CFDD634#01000100FF00F0C3
(1543392411.410832) can0 0CFDD734#0100FFFFFFFFFFFF
(1543392411.413254) can0 628#012D0B5EDAD1FD18
(1543392411.417437) can0 0CFDD733#0100FFFFFFFFFFFF
(1543392411.424389) can0 0CFDD633#01000100FF00F0C3
(1543392411.425769) can0 0CFDD634#01000100FF00F0C3
(1543392411.430801) can0 0CFDD734#0100FFFFFFFFFFFF
(1543392411.438384) can0 0CFDD733#0100FFFFFFFFFFFF
(1543392411.444351) can0 0CFDD633#01000100FF00F0C3
(1543392411.445748) can0 0CFDD634#01000100FF00F0C3
(1543392411.451772) can0 0CFDD734#0100FFFFFFFFFFFF
(1543392411.453279) can0 628#01CF0A78DAD3FD18
(1543392411.458365) can0 0CFDD733#0100FFFFFFFFFFFF
(1543392411.465375) can0 0CFDD633#01000100FF00F0C3
(1543392411.466704) can0 0CFDD634#01000100FF00F0C3
(1543392411.471717) can0 0CFDD734#0100FFFFFFFFFFFF
(1543392411.479339) can0 0CFDD733#0100FFFFFFFFFFFF
(1543392411.485313) can0 0CFDD633#01000100FF00F0C3
(1543392411.486688) can0 0CFDD634#01000100FF00F0C3
(1543392411.492664) can0 0CFDD734#0100FFFFFFFFFFFF
(1543392411.493251) can0 628#01E70A55DADDFD18
(1543392411.499271) can0 0CFDD733#0100FFFFFFFFFFFF
(1543392411.506242) can0 0CFDD633#01000100FF00F0C3
(1543392411.507633) can0 0CFDD634#01000100FF00F0C3
(1543392411.513626) can0 0CFDD734#0100FFFFFFFFFFFF
(1543392411.520273) can0 0CFDD733#0100FFFFFFFFFFFF
(1543392411.526181) can0 0CFDD633#01000100FF00F0C3
(1543392411.527591) can0 0CFDD634#01000100FF00F0C3
(1543392411.533395) can0 628#01AE0A3FDACBFD18
(1543392411.533955) can0 0CFDD734#0100FFFFFFFFFFFF
(1543392411.540213) can0 0CFDD733#0100FFFFFFFFFFFF
(1543392411.547162) can0 0CFDD633#01000100FF00F0C3
(1543392411.548569) can0 0CFDD634#01000100FF00F0C3
(1543392411.553541) can0 0CFDD734#0100FFFFFFFFFFFF
(1543392411.561156) can0 0CFDD733#0100FFFFFFFFFFFF
(1543392411.567178) can0 0CFDD633#01000100FF00F0C3
(1543392411.569569) can0 0CFDD634#01000100FF00F0C3
(1543392411.573266) can0 628#016C0A5BDADBFD18
(1543392411.574533) can0 0CFDD734#0100FFFFFFFFFFFF
(1543392411.581135) can0 0CFDD733#0100FFFFFFFFFFFF
(1543392411.588143) can0 0CFDD633#01000100FF00F0C3
(1543392411.589495) can0 0CFDD634#01000100FF00F0C3
(1543392411.595494) can0 0CFDD734#0100FFFFFFFFFFFF
(1543392411.602151) can0 0CFDD733#0100FFFFFFFFFFFF
(1543392411.609145) can0 0CFDD633#01000100FF00F0C3
(1543392411.610479) can0 0CFDD634#01000100FF00F0C3
(1543392411.613272) can0 628#01610A2CDADCFD18
(1543392411.615478) can0 0CFDD734#0100FFFFFFFFFFFF
(1543392411.623062) can0 0CFDD733#0100FFFFFFFFFFFF
(1543392411.629042) can0 0CFDD633#01000100FF00F0C3
(1543392411.630408) can0 0CFDD634#01000100FF00F0C3
(1543392411.635444) can0 0CFDD734#0100FFFFFFFFFFFF
(1543392411.643027) can0 0CFDD733#0100FFFFFFFFFFFF
(1543392411.648991) can0 0CFDD633#01000100FF00F0C3
(1543392411.650386) can0 0CFDD634#01000100FF00F0C3
(1543392411.653378) can0 628#013E0A26DACBFD18
(1543392411.656395) can0 0CFDD734#0100FFFFFFFFFFFF
(1543392411.662999) can0 0CFDD733#0100FFFFFFFFFFFF
(1543392411.669988) can0 0CFDD633#01000100FF00F0C3
(1543392411.671334) can0 0CFDD634#01000100FF00F0C3
(1543392411.676356) can0 0CFDD734#0100FFFFFFFFFFFF
(1543392411.683978) can0 0CFDD733#0100FFFFFFFFFFFF
(1543392411.690915) can0 0CFDD633#01000100FF00F0C3
(1543392411.692328) can0 0CFDD634#01000100FF00F0C3
(1543392411.693401) can0 628#01F00936DACFFD18
(1543392411.697339) can0 0CFDD734#0100FFFFFFFFFFFF
(1543392411.703995) can0 0CFDD733#0100FFFFFFFFFFFF
(1543392411.710888) can0 0CFDD633#01000100FF00F0C3
(1543392411.712280) can0 0CFDD634#01000100FF00F0C3
(1543392411.717378) can0 0CFDD734#0100FFFFFFFFFFFF
(1543392411.724894) can0 0CFDD733#0100FFFFFFFFFFFF
(1543392411.731875) can0 0CFDD633#01000100FF00F0C3
(1543392411.733240) can0 0CFDD634#01000100FF00F0C3
(1543392411.733707) can0 628#01E50909DAE3FD18
(1543392411.738263) can0 0CFDD734#0100FFFFFFFFFFFF
(1543392411.744876) can0 0CFDD733#0100FFFFFFFFFFFF
(1543392411.751828) can0 0CFDD633#01000100FF00F0C3
(1543392411.753197) can0 0CFDD634#01000100FF00F0C3
(1543392411.759225) can0 0CFDD734#0100FFFFFFFFFFFF
(1543392411.765883) can0 0CFDD733#0100FFFFFFFFFFFF
(1543392411.771802) can0 0CFDD633#01000100FF00F0C3
(1543392411.773153) can0 0CFDD634#01000100FF00F0C3
(1543392411.773627) can0 628#01CD0913DAD2FD18
(1543392411.779200) can0 0CFDD734#0100FFFFFFFFFFFF
(1543392411.785784) can0 0CFDD733#0100FFFFFFFFFFFF
(1543392411.792767) can0 0CFDD633#01000100FF00F0C3
(1543392411.794137) can0 0CFDD634#01000100FF00F0C3
(1543392411.799124) can0 0CFDD734#0100FFFFFFFFFFFF
(1543392411.806773) can0 0CFDD733#0100FFFFFFFFFFFF
(1543392411.812770) can0 0CFDD633#01000100FF00F0C3
(1543392411.813367) can0 628#0166090FDAD3FD18
(1543392411.814152) can0 0CFDD634#01000100FF00F0C3
(1543392411.820172) can0 0CFDD734#0100FFFFFFFFFFFF
(1543392411.826743) can0 0CFDD733#0100FFFFFFFFFFFF
(1543392411.833685) can0 0CFDD633#01000100FF00F0C3
(1543392411.835134) can0 0CFDD634#01000100FF00F0C3
(1543392411.840133) can0 0CFDD734#0100FFFFFFFFFFFF
(1543392411.847705) can0 0CFDD733#0100FFFFFFFFFFFF
(1543392411.853428) can0 628#017F09E9D9DFFD18
(1543392411.854672) can0 0CFDD633#01000100FF00F0C3
(1543392411.856049) can0 0CFDD634#01000100FF00F0C3
(1543392411.861021) can0 0CFDD734#0100FFFFFFFFFFFF
(1543392411.867732) can0 0CFDD733#0100FFFFFFFFFFFF
(1543392411.875632) can0 0CFDD633#01000100FF00F0C3
(1543392411.876984) can0 0CFDD634#01000100FF00F0C3
(1543392411.880984) can0 0CFDD734#0100FFFFFFFFFFFF
(1543392411.888657) can0 0CFDD733#0100FFFFFFFFFFFF
(1543392411.893343) can0 628#015409FBD9D5FD18
(1543392411.896637) can0 0CFDD633#01000100FF00F0C3
(1543392411.898018) can0 0CFDD634#01000100FF00F0C3
(1543392411.902015) can0 0CFDD734#0100FFFFFFFFFFFF
(1543392411.908602) can0 0CFDD733#0100FFFFFFFFFFFF
(1543392411.916561) can0 0CFDD633#01000100FF00F0C3
(1543392411.918905) can0 0CFDD634#01000100FF00F0C3
(1543392411.921919) can0 0CFDD734#0100FFFFFFFFFFFF
(1543392411.929573) can0 0CFDD733#0100FFFFFFFFFFFF
(1543392411.933354) can0 628#01EE08E9D9D8FD18
(1543392411.937551) can0 0CFDD633#01000100FF00F0C3
(1543392411.938883) can0 0CFDD634#01000100FF00F0C3
(1543392411.942887) can0 0CFDD734#0100FFFFFFFFFFFF
(1543392411.947908) can0 18FECA34#00FF00000000FFFF
(1543392411.949584) can0 0CFDD733#0100FFFFFFFFFFFF
(1543392411.957492) can0 0CFDD633#01000100FF00F0C3
(1543392411.959848) can0 0CFDD634#01000100FF00F0C3
(1543392411.962895) can0 0CFDD734#0100FFFFFFFFFFFF
(1543392411.970532) can0 0CFDD733#0100FFFFFFFFFFFF
(1543392411.973396) can0 628#010909D1D9E2FD18
(1543392411.978439) can0 0CFDD633#01000100FF00F0C3
(1543392411.979533) can0 18FECA33#00FF00000000FFFF
(1543392411.980145) can0 0CFDD634#01000100FF00F0C3
(1543392411.983847) can0 0CFDD734#0100FFFFFFFFFFFF
(1543392411.990463) can0 0CFDD733#0100FFFFFFFFFFFF
(1543392411.998412) can0 0CFDD633#01000100FF00F0C3
(1543392412.000756) can0 0CFDD634#01000100FF00F0C3
(1543392412.003776) can0 0CFDD734#0100FFFFFFFFFFFF
(1543392412.011416) can0 0CFDD733#0100FFFFFFFFFFFF
(1543392412.013400) can0 628#01C308E0D9CDFD18
(1543392412.019404) can0 0CFDD633#01000100FF00F0C3
(1543392412.020751) can0 0CFDD634#01000100FF00F0C3
(1543392412.024759) can0 0CFDD734#0100FFFFFFFFFFFF
(1543392412.031380) can0 0CFDD733#0100FFFFFFFFFFFF
(1543392412.039394) can0 0CFDD633#01000100FF00F0C3
(1543392412.041708) can0 0CFDD634#01000100FF00F0C3
(1543392412.044719) can0 0CFDD734#0100FFFFFFFFFFFF
(1543392412.052345) can0 0CFDD733#0100FFFFFFFFFFFF
(1543392412.053397) can0 628#018B08C7D9E9FD18
(1543392412.060303) can0 0CFDD633#01000100FF00F0C3
(1543392412.061668) can0 0CFDD634#01000100FF00F0C3
(1543392412.065681) can0 0CFDD734#0100FFFFFFFFFFFF
(1543392412.072488) can0 0CFDD733#0100FFFFFFFFFFFF
(1543392412.080296) can0 0CFDD633#01000100FF00F0C3
(1543392412.082629) can0 0CFDD634#01000100FF00F0C3
(1543392412.086631) can0 0CFDD734#0100FFFFFFFFFFFF
(1543392412.093285) can0 0CFDD733#0100FFFFFFFFFFFF
(1543392412.093766) can0 628#019608BBD9D2FD18
(1543392412.101268) can0 0CFDD633#01000100FF00F0C3
(1543392412.102599) can0 0CFDD634#01000100FF00F0C3
(1543392412.106598) can0 0CFDD734#0100FFFFFFFFFFFF
(1543392412.113264) can0 0CFDD733#0100FFFFFFFFFFFF
(1543392412.121223) can0 0CFDD633#01000100FF00F0C3
(1543392412.123547) can0 0CFDD634#01000100FF00F0C3
(1543392412.126573) can0 0CFDD734#0100FFFFFFFFFFFF
(1543392412.133447) can0 628#013308C3D9D4FD18
(1543392412.134265) can0 0CFDD733#0100FFFFFFFFFFFF
(1543392412.142180) can0 0CFDD633#01000100FF00F0C3
(1543392412.143547) can0 0CFDD634#01000100FF00F0C3
(1543392412.147549) can0 0CFDD734#0100FFFFFFFFFFFF
(1543392412.155180) can0 0CFDD733#0100FFFFFFFFFFFF
(1543392412.162155) can0 0CFDD633#01000100FF00F0C3
(1543392412.164494) can0 0CFDD634#01000100FF00F0C3
(1543392412.168490) can0 0CFDD734#0100FFFFFFFFFFFF
(1543392412.173417) can0 628#012308AFD9E3FD18
(1543392412.175158) can0 0CFDD733#0100FFFFFFFFFFFF
(1543392412.183115) can0 0CFDD633#01000100FF00F0C3
(1543392412.184463) can0 0CFDD634#01000100FF00F0C3
(1543392412.188464) can0 0CFDD734#0100FFFFFFFFFFFF
(1543392412.195131) can0 0CFDD733#0100FFFFFFFFFFFF
(1543392412.203125) can0 0CFDD633#01000100FF00F0C3
(1543392412.205416) can0 0CFDD634#01000100FF00F0C3
(1543392412.208429) can0 0CFDD734#0100FFFFFFFFFFFF
(1543392412.213438) can0 628#012508A9D9D0FD18
(1543392412.215125) can0 0CFDD733#0100FFFFFFFFFFFF
(1543392412.224043) can0 0CFDD633#01000100FF00F0C3
(1543392412.225384) can0 0CFDD634#01000100FF00F0C3
(1543392412.229390) can0 0CFDD734#0100FFFFFFFFFFFF
(1543392412.236043) can0 0CFDD733#0100FFFFFFFFFFFF
(1543392412.244017) can0 0CFDD633#01000100FF00F0C3
(1543392412.246321) can0 0CFDD634#01000100FF00F0C3
(1543392412.249347) can0 0CFDD734#0100FFFFFFFFFFFF
(1543392412.253437) can0 628#01AD07A4D9E8FD18
(1543392412.257012) can0 0CFDD733#0100FFFFFFFFFFFF
(1543392412.264986) can0 0CFDD633#01000100FF00F0C3
(1543392412.266306) can0 0CFDD634#01000100FF00F0C3
(1543392412.270307) can0 0CFDD734#0100FFFFFFFFFFFF
(1543392412.276991) can0 0CFDD733#0100FFFFFFFFFFFF
(1543392412.284939) can0 0CFDD633#01000100FF00F0C3
(1543392412.287285) can0 0CFDD634#01000100FF00F0C3
(1543392412.290280) can0 0CFDD734#0100FFFFFFFFFFFF
(1543392412.293514) can0 628#01BF0796D9DEFD18
(1543392412.297965) can0 0CFDD733#0100FFFFFFFFFFFF
(1543392412.305913) can0 0CFDD633#01000100FF00F0C3
(1543392412.307259) can0 0CFDD634#01000100FF00F0C3
(1543392412.311254) can0 0CFDD734#0100FFFFFFFFFFFF
(1543392412.318907) can0 0CFDD733#0100FFFFFFFFFFFF
(1543392412.325887) can0 0CFDD633#01000100FF00F0C3
(1543392412.327232) can0 0CFDD634#01000100FF00F0C3
(1543392412.331202) can0 0CFDD734#0100FFFFFFFFFFFF
(1543392412.333461) can0 628#0193078DD9D0FD18
(1543392412.338908) can0 0CFDD733#0100FFFFFFFFFFFF
(1543392412.346859) can0 0CFDD633#01000100FF00F0C3
(1543392412.348175) can0 0CFDD634#01000100FF00F0C3
(1543392412.352181) can0 0CFDD734#0100FFFFFFFFFFFF
(1543392412.358855) can0 0CFDD733#0100FFFFFFFFFFFF
(1543392412.366833) can0 0CFDD633#01000100FF00F0C3
(1543392412.369123) can0 0CFDD634#01000100FF00F0C3
(1543392412.372149) can0 0CFDD734#0100FFFFFFFFFFFF
(1543392412.373460) can0 628#01470790D9D6FD18
(1543392412.379803) can0 0CFDD733#0100FFFFFFFFFFFF
(1543392412.387762) can0 0CFDD633#01000100FF00F0C3
(1543392412.389122) can0 0CFDD634#01000100FF00F0C3
(1543392412.393123) can0 0CFDD734#0100FFFFFFFFFFFF
(1543392412.399777) can0 0CFDD733#0100FFFFFFFFFFFF
(1543392412.407754) can0 0CFDD633#01000100FF00F0C3
(1543392412.410108) can0 0CFDD634#01000100FF00F0C3
(1543392412.413122) can0 0CFDD734#0100FFFFFFFFFFFF
(1543392412.413551) can0 628#01430780D9D1FD18
(1543392412.420735) can0 0CFDD733#0100FFFFFFFFFFFF
(1543392412.428728) can0 0CFDD633#01000100FF00F0C3
(1543392412.430035) can0 0CFDD634#01000100FF00F0C3
(1543392412.434041) can0 0CFDD734#0100FFFFFFFFFFFF
(1543392412.440710) can0 0CFDD733#0100FFFFFFFFFFFF
(1543392412.448702) can0 0CFDD633#01000100FF00F0C3
(1543392412.450988) can0 0CFDD634#01000100FF00F0C3
(1543392412.453569) can0 628#01020778D9D5FD18
(1543392412.454148) can0 0CFDD734#0100FFFFFFFFFFFF
(1543392412.461672) can0 0CFDD733#0100FFFFFFFFFFFF
(1543392412.469649) can0 0CFDD633#01000100FF00F0C3
(1543392412.470956) can0 0CFDD634#01000100FF00F0C3
(1543392412.474943) can0 0CFDD734#0100FFFFFFFFFFFF
(1543392412.481631) can0 0CFDD733#0100FFFFFFFFFFFF
(1543392412.489618) can0 0CFDD633#01000100FF00F0C3
(1543392412.491909) can0 0CFDD634#01000100FF00F0C3
(1543392412.493511) can0 628#01E5067FD9E4FD18
(1543392412.494916) can0 0CFDD734#0100FFFFFFFFFFFF
(1543392412.502620) can0 0CFDD733#0100FFFFFFFFFFFF
(1543392412.510553) can0 0CFDD633#01000100FF00F0C3
(1543392412.511863) can0 0CFDD634#01000100FF00F0C3
(1543392412.515903) can0 0CFDD734#0100FFFFFFFFFFFF
(1543392412.522558) can0 0CFDD733#0100FFFFFFFFFFFF
(1543392412.530567) can0 0CFDD633#01000100FF00F0C3
(1543392412.532882) can0 0CFDD634#01000100FF00F0C3
(1543392412.533550) can0 628#01B50669D9D1FD18
(1543392412.535892) can0 0CFDD734#0100FFFFFFFFFFFF
(1543392412.543580) can0 0CFDD733#0100FFFFFFFFFFFF
(1543392412.551554) can0 0CFDD633#01000100FF00F0C3
(1543392412.552851) can0 0CFDD634#01000100FF00F0C3
(1543392412.556841) can0 0CFDD734#0100FFFFFFFFFFFF
(1543392412.563517) can0 0CFDD733#0100FFFFFFFFFFFF
(1543392412.571448) can0 0CFDD633#01000100FF00F0C3
(1543392412.573525) can0 628#01910665D9D1FD18
(1543392412.574116) can0 0CFDD634#01000100FF00F0C3
(1543392412.576802) can0 0CFDD734#0100FFFFFFFFFFFF
(1543392412.584470) can0 0CFDD733#0100FFFFFFFFFFFF
(1543392412.592502) can0 0CFDD633#01000100FF00F0C3
(1543392412.593781) can0 0CFDD634#01000100FF00F0C3
(1543392412.597780) can0 0CFDD734#0100FFFFFFFFFFFF
(1543392412.604474) can0 0CFDD733#0100FFFFFFFFFFFF
(1543392412.612482) can0 0CFDD633#01000100FF00F0C3
(1543392412.613611) can0 628#01650669D9DCFD18
(1543392412.614685) can0 0CFDD634#01000100FF00F0C3
(1543392412.617687) can0 0CFDD734#0100FFFFFFFFFFFF
(1543392412.625451) can0 0CFDD733#0100FFFFFFFFFFFF
(1543392412.633469) can0 0CFDD633#01000100FF00F0C3
(1543392412.634720) can0 0CFDD634#01000100FF00F0C3
(1543392412.638723) can0 0CFDD734#0100FFFFFFFFFFFF
(1543392412.645468) can0 0CFDD733#0100FFFFFFFFFFFF
(1543392412.653352) can0 0CFDD633#01000100FF00F0C3
(1543392412.653792) can0 628#013E0654D9DCFD18
(1543392412.654655) can0 0CFDD634#01000100FF00F0C3
(1543392412.658631) can0 0CFDD734#0100FFFFFFFFFFFF
(1543392412.666371) can0 0CFDD733#0100FFFFFFFFFFFF
(1543392412.674333) can0 0CFDD633#01000100FF00F0C3
(1543392412.675645) can0 0CFDD634#01000100FF00F0C3
(1543392412.679656) can0 0CFDD734#0100FFFFFFFFFFFF
(1543392412.686341) can0 0CFDD733#0100FFFFFFFFFFFF
(1543392412.693578) can0 628#011F0658D9DFFD18
(1543392412.694349) can0 0CFDD633#01000100FF00F0C3
(1543392412.696599) can0 0CFDD634#01000100FF00F0C3
(1543392412.699650) can0 0CFDD734#0100FFFFFFFFFFFF
(1543392412.707365) can0 0CFDD733#0100FFFFFFFFFFFF
(1543392412.715248) can0 0CFDD633#01000100FF00F0C3
(1543392412.716601) can0 0CFDD634#01000100FF00F0C3
(1543392412.720565) can0 0CFDD734#0100FFFFFFFFFFFF
(1543392412.727272) can0 0CFDD733#0100FFFFFFFFFFFF
(1543392412.733654) can0 628#01D5054CD9DCFD18
(1543392412.735217) can0 0CFDD633#01000100FF00F0C3
(1543392412.736540) can0 0CFDD634#01000100FF00F0C3
(1543392412.740516) can0 0CFDD734#0100FFFFFFFFFFFF
(1543392412.748234) can0 0CFDD733#0100FFFFFFFFFFFF
(1543392412.756159) can0 0CFDD633#01000100FF00F0C3
(1543392412.757442) can0 0CFDD634#01000100FF00F0C3
(1543392412.761483) can0 0CFDD734#0100FFFFFFFFFFFF
(1543392412.768249) can0 0CFDD733#0100FFFFFFFFFFFF
(1543392412.773597) can0 628#01D00540D9E1FD18
(1543392412.776186) can0 0CFDD633#01000100FF00F0C3
(1543392412.778452) can0 0CFDD634#01000100FF00F0C3
(1543392412.782475) can0 0CFDD734#0100FFFFFFFFFFFF
(1543392412.789142) can0 0CFDD733#0100FFFFFFFFFFFF
(1543392412.797132) can0 0CFDD633#01000100FF00F0C3
(1543392412.798378) can0 0CFDD634#01000100FF00F0C3
(1543392412.802384) can0 0CFDD734#0100FFFFFFFFFFFF
(1543392412.809112) can0 0CFDD733#0100FFFFFFFFFFFF
(1543392412.813608) can0 628#01AB054AD9DAFD18
(1543392412.817150) can0 0CFDD633#01000100FF00F0C3
(1543392412.819394) can0 0CFDD634#01000100FF00F0C3
(1543392412.822367) can0 0CFDD734#0100FFFFFFFFFFFF
(1543392412.830195) can0 0CFDD733#0100FFFFFFFFFFFF
(1543392412.838200) can0 0CFDD633#01000100FF00F0C3
(1543392412.839412) can0 0CFDD634#01000100FF00F0C3
(1543392412.843357) can0 0CFDD734#0100FFFFFFFFFFFF
(1543392412.850072) can0 0CFDD733#0100FFFFFFFFFFFF
(1543392412.853636) can0 628#01580539D9DFFD18
(1543392412.858081) can0 0CFDD633#01000100FF00F0C3
(1543392412.860276) can0 0CFDD634#01000100FF00F0C3
(1543392412.863345) can0 0CFDD734#0100FFFFFFFFFFFF
(1543392412.871006) can0 0CFDD733#0100FFFFFFFFFFFF
(1543392412.879002) can0 0CFDD633#01000100FF00F0C3
(1543392412.880243) can0 0CFDD634#01000100FF00F0C3
(1543392412.884232) can0 0CFDD734#0100FFFFFFFFFFFF
(1543392412.891937) can0 0CFDD733#0100FFFFFFFFFFFF
(1543392412.893615) can0 628#01630539D9D8FD18
(1543392412.899021) can0 0CFDD633#01000100FF00F0C3
(1543392412.901216) can0 0CFDD634#01000100FF00F0C3
(1543392412.904255) can0 0CFDD734#0100FFFFFFFFFFFF
(1543392412.912005) can0 0CFDD733#0100FFFFFFFFFFFF
(1543392412.919980) can0 0CFDD633#01000100FF00F0C3
(1543392412.921192) can0 0CFDD634#01000100FF00F0C3
(1543392412.925254) can0 0CFDD734#0100FFFFFFFFFFFF
(1543392412.931989) can0 0CFDD733#0100FFFFFFFFFFFF
(1543392412.933666) can0 628#01130532D9D1FD18
(1543392412.939871) can0 0CFDD633#01000100FF00F0C3
(1543392412.942104) can0 0CFDD634#01000100FF00F0C3
(1543392412.945128) can0 0CFDD734#0100FFFFFFFFFFFF
(1543392412.946127) can0 18FECA34#00FF00000000FFFF
(1543392412.952860) can0 0CFDD733#0100FFFFFFFFFFFF
(1543392412.960844) can0 0CFDD633#01000100FF00F0C3
(1543392412.962137) can0 0CFDD634#01000100FF00F0C3
(1543392412.966138) can0 0CFDD734#0100FFFFFFFFFFFF
(1543392412.972874) can0 0CFDD733#0100FFFFFFFFFFFF
(1543392412.973608) can0 628#01EE042AD9DDFD18
(1543392412.977834) can0 18FECA33#00FF00000000FFFF
(1543392412.980785) can0 0CFDD633#01000100FF00F0C3
(1543392412.983137) can0 0CFDD634#01000100FF00F0C3
(1543392412.987144) can0 0CFDD734#0100FFFFFFFFFFFF
(1543392412.993869) can0 0CFDD733#0100FFFFFFFFFFFF
(1543392413.001806) can0 0CFDD633#01000100FF00F0C3
(1543392413.003052) can0 0CFDD634#01000100FF00F0C3
(1543392413.007117) can0 0CFDD734#0100FFFFFFFFFFFF
(1543392413.013635) can0 628#01E90428D9D7FD18
(1543392413.014205) can0 0CFDD733#0100FFFFFFFFFFFF
(1543392413.021775) can0 0CFDD633#01000100FF00F0C3
(1543392413.023973) can0 0CFDD634#01000100FF00F0C3
(1543392413.026996) can0 0CFDD734#0100FFFFFFFFFFFF
(1543392413.034816) can0 0CFDD733#0100FFFFFFFFFFFF
(1543392413.042724) can0 0CFDD633#01000100FF00F0C3
(1543392413.044054) can0 0CFDD634#01000100FF00F0C3
(1543392413.048013) can0 0CFDD734#0100FFFFFFFFFFFF
(1543392413.053677) can0 628#018B0421D9E4FD18
(1543392413.054728) can0 0CFDD733#0100FFFFFFFFFFFF
(1543392413.062695) can0 0CFDD633#01000100FF00F0C3
(1543392413.064995) can0 0CFDD634#01000100FF00F0C3
(1543392413.068008) can0 0CFDD734#0100FFFFFFFFFFFF
(1543392413.075713) can0 0CFDD733#0100FFFFFFFFFFFF
(1543392413.083641) can0 0CFDD633#01000100FF00F0C3
(1543392413.084891) can0 0CFDD634#01000100FF00F0C3
(1543392413.088902) can0 0CFDD734#0100FFFFFFFFFFFF
(1543392413.093635) can0 628#01890422D9D3FD18
(1543392413.095623) can0 0CFDD733#0100FFFFFFFFFFFF
(1543392413.103612) can0 0CFDD633#01000100FF00F0C3
(1543392413.105880) can0 0CFDD634#01000100FF00F0C3
(1543392413.108848) can0 0CFDD734#0100FFFFFFFFFFFF
(1543392413.116625) can0 0CFDD733#0100FFFFFFFFFFFF
(1543392413.124637) can0 0CFDD633#01000100FF00F0C3
(1543392413.125893) can0 0CFDD634#01000100FF00F0C3
(1543392413.129889) can0 0CFDD734#0100FFFFFFFFFFFF
(1543392413.133713) can0 628#0162041CD9D8FD18
(1543392413.136601) can0 0CFDD733#0100FFFFFFFFFFFF
(1543392413.144580) can0 0CFDD633#01000100FF00F0C3
(1543392413.145844) can0 0CFDD634#01000100FF00F0C3
(1543392413.149797) can0 0CFDD734#0100FFFFFFFFFFFF
(1543392413.157546) can0 0CFDD733#0100FFFFFFFFFFFF
(1543392413.165478) can0 0CFDD633#01000100FF00F0C3
(1543392413.166772) can0 0CFDD634#01000100FF00F0C3
(1543392413.170810) can0 0CFDD734#0100FFFFFFFFFFFF
(1543392413.173687) can0 628#010E0417D9DEFD18
(1543392413.177570) can0 0CFDD733#0100FFFFFFFFFFFF
(1543392413.185516) can0 0CFDD633#01000100FF00F0C3
(1543392413.187726) can0 0CFDD634#01000100FF00F0C3
(1543392413.190752) can0 0CFDD734#0100FFFFFFFFFFFF
(1543392413.198562) can0 0CFDD733#0100FFFFFFFFFFFF
(1543392413.205472) can0 0CFDD633#01000100FF00F0C3
(1543392413.207745) can0 0CFDD634#01000100FF00F0C3
(1543392413.211685) can0 0CFDD734#0100FFFFFFFFFFFF
(1543392413.213763) can0 628#011C0415D9D5FD18
(1543392413.218470) can0 0CFDD733#0100FFFFFFFFFFFF
(1543392413.225486) can0 0CFDD633#01000100FF00F0C3
(1543392413.228628) can0 0CFDD634#01000100FF00F0C3
(1543392413.231653) can0 0CFDD734#0100FFFFFFFFFFFF
(1543392413.239466) can0 0CFDD733#0100FFFFFFFFFFFF
(1543392413.245438) can0 0CFDD633#01000100FF00F0C3
(1543392413.248675) can0 0CFDD634#01000100FF00F0C3
(1543392413.252675) can0 0CFDD734#0100FFFFFFFFFFFF
(1543392413.253717) can0 628#01CC030AD9D3FD18
(1543392413.259402) can0 0CFDD733#0100FFFFFFFFFFFF
(1543392413.266332) can0 0CFDD633#01000100FF00F0C3
(1543392413.269593) can0 0CFDD634#01000100FF00F0C3
(1543392413.272606) can0 0CFDD734#0100FFFFFFFFFFFF
(1543392413.280311) can0 0CFDD733#0100FFFFFFFFFFFF
(1543392413.287358) can0 0CFDD633#01000100FF00F0C3
(1543392413.289569) can0 0CFDD634#01000100FF00F0C3
(1543392413.293605) can0 0CFDD734#0100FFFFFFFFFFFF
(1543392413.294008) can0 628#01AF030DD9CCFD18
(1543392413.300294) can0 0CFDD733#0100FFFFFFFFFFFF
(1543392413.307285) can0 0CFDD633#01000100FF00F0C3
(1543392413.310542) can0 0CFDD634#01000100FF00F0C3
(1543392413.313531) can0 0CFDD734#0100FFFFFFFFFFFF
(1543392413.321297) can0 0CFDD733#0100FFFFFFFFFFFF
(1543392413.328319) can0 0CFDD633#01000100FF00F0C3
(1543392413.330524) can0 0CFDD634#01000100FF00F0C3
(1543392413.333788) can0 628#018F0307D9D5FD18
(1543392413.334490) can0 0CFDD734#0100FFFFFFFFFFFF
(1543392413.341210) can0 0CFDD733#0100FFFFFFFFFFFF
(1543392413.348184) can0 0CFDD633#01000100FF00F0C3
(1543392413.351409) can0 0CFDD634#01000100FF00F0C3
(1543392413.355433) can0 0CFDD734#0100FFFFFFFFFFFF
(1543392413.362206) can0 0CFDD733#0100FFFFFFFFFFFF
(1543392413.368203) can0 0CFDD633#01000100FF00F0C3
(1543392413.371395) can0 0CFDD634#01000100FF00F0C3
(1543392413.373804) can0 628#014A0301D9DFFD18
(1543392413.375412) can0 0CFDD734#0100FFFFFFFFFFFF
(1543392413.382164) can0 0CFDD733#0100FFFFFFFFFFFF
(1543392413.389126) can0 0CFDD633#01000100FF00F0C3
(1543392413.392377) can0 0CFDD634#01000100FF00F0C3
(1543392413.396401) can0 0CFDD734#0100FFFFFFFFFFFF
(1543392413.403205) can0 0CFDD733#0100FFFFFFFFFFFF
(1543392413.409142) can0 0CFDD633#01000100FF00F0C3
(1543392413.412310) can0 0CFDD634#01000100FF00F0C3
(1543392413.413728) can0 628#013303FED8FCFD18
(1543392413.417357) can0 0CFDD734#0100FFFFFFFFFFFF
(1543392413.423187) can0 0CFDD733#0100FFFFFFFFFFFF
(1543392413.430138) can0 0CFDD633#01000100FF00F0C3
(1543392413.433341) can0 0CFDD634#01000100FF00F0C3
(1543392413.437373) can0 0CFDD734#0100FFFFFFFFFFFF
(1543392413.444107) can0 0CFDD733#0100FFFFFFFFFFFF
(1543392413.450011) can0 0CFDD633#01000100FF00F0C3
(1543392413.453226) can0 0CFDD634#01000100FF00F0C3
(1543392413.453725) can0 628#01BA01F3D8E3FE18
(1543392413.457229) can0 0CFDD734#0100FFFFFFFFFFFF
(1543392413.464012) can0 0CFDD733#0100FFFFFFFFFFFF
(1543392413.470999) can0 0CFDD633#01000100FF00F0C3
(1543392413.474185) can0 0CFDD634#01000100FF00F0C3
(1543392413.477220) can0 0CFDD734#0100FFFFFFFFFFFF
(1543392413.484983) can0 0CFDD733#0100FFFFFFFFFFFF
(1543392413.490960) can0 0CFDD633#01000100FF00F0C3
(1543392413.493795) can0 628#01F301F6D8F0FF18
(1543392413.494340) can0 0CFDD634#01000100FF00F0C3
(1543392413.498197) can0 0CFDD734#0100FFFFFFFFFFFF
(1543392413.505013) can0 0CFDD733#0100FFFFFFFFFFFF
(1543392413.511988) can0 0CFDD633#01000100FF00F0C3
(1543392413.514146) can0 0CFDD634#01000100FF00F0C3
(1543392413.518161) can0 0CFDD734#0100FFFFFFFFFFFF
(1543392413.525994) can0 0CFDD733#0100FFFFFFFFFFFF
(1543392413.531972) can0 0CFDD633#01000100FF00F0C3
(1543392413.533925) can0 628#010903F9D8350018
(1543392413.534423) can0 0CFDD634#01000100FF00F0C3
(1543392413.539190) can0 0CFDD734#0100FFFFFFFFFFFF
(1543392413.545972) can0 0CFDD733#0100FFFFFFFFFFFF
(1543392413.552884) can0 0CFDD633#01000100FF00F0C3
(1543392413.554123) can0 0CFDD634#01000100FF00F0C3
(1543392413.559162) can0 0CFDD734#0100FFFFFFFFFFFF
(1543392413.566892) can0 0CFDD733#0100FFFFFFFFFFFF
(1543392413.573888) can0 0CFDD633#01000100FF00F0C3
(1543392413.574283) can0 628#01FB02F0D82F0018
(1543392413.575096) can0 0CFDD634#01000100FF00F0C3
(1543392413.580047) can0 0CFDD734#0100FFFFFFFFFFFF
(1543392413.586927) can0 0CFDD733#0100FFFFFFFFFFFF
(1543392413.593877) can0 0CFDD633#01000100FF00F0C3
(1543392413.595988) can0 0CFDD634#01000100FF00F0C3
(1543392413.599992) can0 0CFDD734#0100FFFFFFFFFFFF
(1543392413.607877) can0 0CFDD733#0100FFFFFFFFFFFF
(1543392413.613877) can0 628#01E30206D9320018
(1543392413.614782) can0 0CFDD633#01000100FF00F0C3
(1543392413.615988) can0 0CFDD634#01000100FF00F0C3
(1543392413.621006) can0 0CFDD734#0100FFFFFFFFFFFF
(1543392413.627847) can0 0CFDD733#0100FFFFFFFFFFFF
(1543392413.635821) can0 0CFDD633#01000100FF00F0C3
(1543392413.636942) can0 0CFDD634#01000100FF00F0C3
(1543392413.640956) can0 0CFDD734#0100FFFFFFFFFFFF
(1543392413.648800) can0 0CFDD733#0100FFFFFFFFFFFF
(1543392413.653929) can0 628#013503F5D82C0018
(1543392413.656798) can0 0CFDD633#01000100FF00F0C3
(1543392413.657939) can0 0CFDD634#01000100FF00F0C3
(1543392413.661915) can0 0CFDD734#0100FFFFFFFFFFFF
(1543392413.668768) can0 0CFDD733#0100FFFFFFFFFFFF
(1543392413.676767) can0 0CFDD633#01000100FF00F0C3
(1543392413.678869) can0 0CFDD634#01000100FF00F0C3
(1543392413.681900) can0 0CFDD734#0100FFFFFFFFFFFF
(1543392413.689743) can0 0CFDD733#0100FFFFFFFFFFFF
(1543392413.693901) can0 628#01A702F0D8380018
(1543392413.697717) can0 0CFDD633#01000100FF00F0C3
(1543392413.698902) can0 0CFDD634#01000100FF00F0C3
(1543392413.702902) can0 0CFDD734#0100FFFFFFFFFFFF
(1543392413.709626) can0 0CFDD733#0100FFFFFFFFFFFF
(1543392413.717619) can0 0CFDD633#01000100FF00F0C3
(1543392413.719786) can0 0CFDD634#01000100FF00F0C3
(1543392413.722818) can0 0CFDD734#0100FFFFFFFFFFFF
(1543392413.730633) can0 0CFDD733#0100FFFFFFFFFFFF
(1543392413.733858) can0 628#01040306D9380018
(1543392413.738631) can0 0CFDD633#01000100FF00F0C3
(1543392413.739781) can0 0CFDD634#01000100FF00F0C3
(1543392413.743805) can0 0CFDD734#0100FFFFFFFFFFFF
(1543392413.750546) can0 0CFDD733#0100FFFFFFFFFFFF
(1543392413.758550) can0 0CFDD633#01000100FF00F0C3
(1543392413.760728) can0 0CFDD634#01000100FF00F0C3
(1543392413.763757) can0 0CFDD734#0100FFFFFFFFFFFF
(1543392413.771610) can0 0CFDD733#0100FFFFFFFFFFFF
(1543392413.773873) can0 628#011003F3D8310018
(1543392413.779562) can0 0CFDD633#01000100FF00F0C3
(1543392413.780698) can0 0CFDD634#01000100FF00F0C3
(1543392413.784767) can0 0CFDD734#0100FFFFFFFFFFFF
(1543392413.791508) can0 0CFDD733#0100FFFFFFFFFFFF
(1543392413.799475) can0 0CFDD633#01000100FF00F0C3
(1543392413.801650) can0 0CFDD634#01000100FF00F0C3
(1543392413.805632) can0 0CFDD734#0100FFFFFFFFFFFF
(1543392413.812487) can0 0CFDD733#0100FFFFFFFFFFFF
(1543392413.813943) can0 628#01F702FBD82A0018
(1543392413.820443) can0 0CFDD633#01000100FF00F0C3
(1543392413.821639) can0 0CFDD634#01000100FF00F0C3
(1543392413.825609) can0 0CFDD734#0100FFFFFFFFFFFF
(1543392413.832468) can0 0CFDD733#0100FFFFFFFFFFFF
(1543392413.840386) can0 0CFDD633#01000100FF00F0C3
(1543392413.842583) can0 0CFDD634#01000100FF00F0C3
(1543392413.845660) can0 0CFDD734#0100FFFFFFFFFFFF
(1543392413.853481) can0 0CFDD733#0100FFFFFFFFFFFF
(1543392413.853877) can0 628#01EF0206D9300018
(1543392413.861380) can0 0CFDD633#01000100FF00F0C3
(1543392413.862583) can0 0CFDD634#01000100FF00F0C3
(1543392413.866517) can0 0CFDD734#0100FFFFFFFFFFFF
(1543392413.873428) can0 0CFDD733#0100FFFFFFFFFFFF
(1543392413.881379) can0 0CFDD633#01000100FF00F0C3
(1543392413.883581) can0 0CFDD634#01000100FF00F0C3
(1543392413.886540) can0 0CFDD734#0100FFFFFFFFFFFF
(1543392413.893947) can0 628#011003EDD83D0018
(1543392413.894492) can0 0CFDD733#0100FFFFFFFFFFFF
(1543392413.902372) can0 0CFDD633#01000100FF00F0C3
(1543392413.903519) can0 0CFDD634#01000100FF00F0C3
(1543392413.907558) can0 0CFDD734#0100FFFFFFFFFFFF
(1543392413.914288) can0 0CFDD733#0100FFFFFFFFFFFF
(1543392413.922345) can0 0CFDD633#01000100FF00F0C3
(1543392413.924528) can0 0CFDD634#01000100FF00F0C3
(1543392413.927533) can0 0CFDD734#0100FFFFFFFFFFFF
(1543392413.933978) can0 628#01F402FFD82F0018
(1543392413.935283) can0 0CFDD733#0100FFFFFFFFFFFF
(1543392413.943297) can0 0CFDD633#01000100FF00F0C3
(1543392413.944461) can0 0CFDD634#01000100FF00F0C3
(1543392413.945020) can0 18FECA34#00FF00000000FFFF
(1543392413.948387) can0 0CFDD734#0100FFFFFFFFFFFF
(1543392413.956270) can0 0CFDD733#0100FFFFFFFFFFFF
(1543392413.963230) can0 0CFDD633#01000100FF00F0C3
(1543392413.964412) can0 0CFDD634#01000100FF00F0C3
(1543392413.968449) can0 0CFDD734#0100FFFFFFFFFFFF
(1543392413.974024) can0 628#01FB0202D92D0018
(1543392413.976267) can0 0CFDD733#0100FFFFFFFFFFFF
(1543392413.976758) can0 18FECA33#00FF00000000FFFF
(1543392413.984241) can0 0CFDD633#01000100FF00F0C3
(1543392413.985385) can0 0CFDD634#01000100FF00F0C3
(1543392413.989349) can0 0CFDD734#0100FFFFFFFFFFFF
(1543392413.996204) can0 0CFDD733#0100FFFFFFFFFFFF
(1543392414.004214) can0 0CFDD633#01000100FF00F0C3
(1543392414.006370) can0 0CFDD634#01000100FF00F0C3
(1543392414.009371) can0 0CFDD734#0100FFFFFFFFFFFF
(1543392414.014001) can0 628#010803EFD83C0018
(1543392414.017208) can0 0CFDD733#0100FFFFFFFFFFFF
(1543392414.025191) can0 0CFDD633#01000100FF00F0C3
(1543392414.026345) can0 0CFDD634#01000100FF00F0C3
(1543392414.030345) can0 0CFDD734#0100FFFFFFFFFFFF
(1543392414.037206) can0 0CFDD733#0100FFFFFFFFFFFF
(1543392414.045188) can0 0CFDD633#01000100FF00F0C3
(1543392414.047293) can0 0CFDD634#01000100FF00F0C3
(1543392414.051292) can0 0CFDD734#0100FFFFFFFFFFFF
(1543392414.053971) can0 628#01F40205D9300018
(1543392414.058188) can0 0CFDD733#0100FFFFFFFFFFFF
(1543392414.066138) can0 0CFDD633#01000100FF00F0C3
(1543392414.067181) can0 0CFDD634#01000100FF00F0C3
(1543392414.071174) can0 0CFDD734#0100FFFFFFFFFFFF
(1543392414.078044) can0 0CFDD733#0100FFFFFFFFFFFF
(1543392414.086005) can0 0CFDD633#01000100FF00F0C3
(1543392414.088121) can0 0CFDD634#01000100FF00F0C3
(1543392414.091155) can0 0CFDD734#0100FFFFFFFFFFFF
(1543392414.093933) can0 628#01F602F6D8360018
(1543392414.099015) can0 0CFDD733#0100FFFFFFFFFFFF
(1543392414.106954) can0 0CFDD633#01000100FF00F0C3
(1543392414.108117) can0 0CFDD634#01000100FF00F0C3
(1543392414.112144) can0 0CFDD734#0100FFFFFFFFFFFF
(1543392414.118934) can0 0CFDD733#0100FFFFFFFFFFFF
(1543392414.126906) can0 0CFDD633#01000100FF00F0C3
(1543392414.129138) can0 0CFDD634#01000100FF00F0C3
(1543392414.132150) can0 0CFDD734#0100FFFFFFFFFFFF
(1543392414.134033) can0 628#01F302FAD83A0018
(1543392414.139906) can0 0CFDD733#0100FFFFFFFFFFFF
(1543392414.147906) can0 0CFDD633#01000100FF00F0C3
(1543392414.149095) can0 0CFDD634#01000100FF00F0C3
(1543392414.153092) can0 0CFDD734#0100FFFFFFFFFFFF
(1543392414.160878) can0 0CFDD733#0100FFFFFFFFFFFF
(1543392414.167855) can0 0CFDD633#01000100FF00F0C3
(1543392414.170035) can0 0CFDD634#01000100FF00F0C3
(1543392414.173042) can0 0CFDD734#0100FFFFFFFFFFFF
(1543392414.173953) can0 628#011E0303D9300018
(1543392414.180827) can0 0CFDD733#0100FFFFFFFFFFFF
(1543392414.188855) can0 0CFDD633#01000100FF00F0C3
(1543392414.189994) can0 0CFDD634#01000100FF00F0C3
(1543392414.194077) can0 0CFDD734#0100FFFFFFFFFFFF
(1543392414.200802) can0 0CFDD733#0100FFFFFFFFFFFF
(1543392414.208868) can0 0CFDD633#01000100FF00F0C3
(1543392414.210996) can0 0CFDD634#01000100FF00F0C3
(1543392414.214002) can0 0CFDD734#0100FFFFFFFFFFFF
(1543392414.214440) can0 628#01EF02F8D8330018
(1543392414.221828) can0 0CFDD733#0100FFFFFFFFFFFF
(1543392414.229850) can0 0CFDD633#01000100FF00F0C3
(1543392414.230916) can0 0CFDD634#01000100FF00F0C3
(1543392414.234938) can0 0CFDD734#0100FFFFFFFFFFFF
(1543392414.241802) can0 0CFDD733#0100FFFFFFFFFFFF
(1543392414.249811) can0 0CFDD633#01000100FF00F0C3
(1543392414.251920) can0 0CFDD634#01000100FF00F0C3
(1543392414.254019) can0 628#010003F8D82B0018
(1543392414.254944) can0 0CFDD734#0100FFFFFFFFFFFF
(1543392414.262791) can0 0CFDD733#0100FFFFFFFFFFFF
(1543392414.270718) can0 0CFDD633#01000100FF00F0C3
(1543392414.271916) can0 0CFDD634#01000100FF00F0C3
(1543392414.275916) can0 0CFDD734#0100FFFFFFFFFFFF
(1543392414.282715) can0 0CFDD733#0100FFFFFFFFFFFF
(1543392414.290734) can0 0CFDD633#01000100FF00F0C3
(1543392414.292863) can0 0CFDD634#01000100FF00F0C3
(1543392414.294045) can0 628#01E902FFD8370018
(1543392414.295827) can0 0CFDD734#0100FFFFFFFFFFFF
(1543392414.303738) can0 0CFDD733#0100FFFFFFFFFFFF
(1543392414.311685) can0 0CFDD633#01000100FF00F0C3
(1543392414.312800) can0 0CFDD634#01000100FF00F0C3
(1543392414.316800) can0 0CFDD734#0100FFFFFFFFFFFF
(1543392414.323621) can0 0CFDD733#0100FFFFFFFFFFFF
(1543392414.331682) can0 0CFDD633#01000100FF00F0C3
(1543392414.333784) can0 0CFDD634#01000100FF00F0C3
(1543392414.334205) can0 628#010D03F2D8390018
(1543392414.336812) can0 0CFDD734#0100FFFFFFFFFFFF
(1543392414.344615) can0 0CFDD733#0100FFFFFFFFFFFF
(1543392414.352585) can0 0CFDD633#01000100FF00F0C3
(1543392414.353737) can0 0CFDD634#01000100FF00F0C3
(1543392414.357722) can0 0CFDD734#0100FFFFFFFFFFFF
(1543392414.364592) can0 0CFDD733#0100FFFFFFFFFFFF
(1543392414.372602) can0 0CFDD633#01000100FF00F0C3
(1543392414.373709) can0 0CFDD634#01000100FF00F0C3
(1543392414.374177) can0 628#01F402FDD8360018
(1543392414.377732) can0 0CFDD734#0100FFFFFFFFFFFF
(1543392414.385599) can0 0CFDD733#0100FFFFFFFFFFFF
(1543392414.393551) can0 0CFDD633#01000100FF00F0C3
(1543392414.394669) can0 0CFDD634#01000100FF00F0C3
(1543392414.398591) can0 0CFDD734#0100FFFFFFFFFFFF
(1543392414.405577) can0 0CFDD733#0100FFFFFFFFFFFF
(1543392414.413524) can0 0CFDD633#01000100FF00F0C3
(1543392414.414055) can0 628#01EA02FED8520018
(1543392414.415613) can0 0CFDD634#01000100FF00F0C3
(1543392414.418651) can0 0CFDD734#0100FFFFFFFFFFFF
(1543392414.426438) can0 0CFDD733#0100FFFFFFFFFFFF
(1543392414.434494) can0 0CFDD633#01000100FF00F0C3
(1543392414.435556) can0 0CFDD634#01000100FF00F0C3
(1543392414.439537) can0 0CFDD734#0100FFFFFFFFFFFF
(1543392414.446445) can0 0CFDD733#0100FFFFFFFFFFFF
(1543392414.454043) can0 628#017C01DDD87C0118
(1543392414.454596) can0 0CFDD633#01000100FF00F0C3
(1543392414.455546) can0 0CFDD634#01000100FF00F0C3
(1543392414.459487) can0 0CFDD734#0100FFFFFFFFFFFF
(1543392414.467355) can0 0CFDD733#0100FFFFFFFFFFFF
(1543392414.474379) can0 0CFDD633#01000100FF00F0C3
(1543392414.476509) can0 0CFDD634#01000100FF00F0C3
(1543392414.480504) can0 0CFDD734#0100FFFFFFFFFFFF
(1543392414.487326) can0 0CFDD733#0100FFFFFFFFFFFF
(1543392414.494095) can0 628#0177FFF5D83A0418
(1543392414.494625) can0 0CFDD633#01000100FF00F0C3
(1543392414.497519) can0 0CFDD634#01000100FF00F0C3
(1543392414.500475) can0 0CFDD734#0100FFFFFFFFFFFF
(1543392414.508394) can0 0CFDD733#0100FFFFFFFFFFFF
(1543392414.514366) can0 0CFDD633#01000100FF00F0C3
(1543392414.517467) can0 0CFDD634#01000100FF00F0C3
(1543392414.521456) can0 0CFDD734#0100FFFFFFFFFFFF
(1543392414.528282) can0 0CFDD733#0100FFFFFFFFFFFF
(1543392414.534098) can0 628#017E0217D9140618
(1543392414.535277) can0 0CFDD633#01000100FF00F0C3
(1543392414.538414) can0 0CFDD634#01000100FF00F0C3
(1543392414.541404) can0 0CFDD734#0100FFFFFFFFFFFF
(1543392414.549275) can0 0CFDD733#0100FFFFFFFFFFFF
(1543392414.556205) can0 0CFDD633#01000100FF00F0C3
(1543392414.558341) can0 0CFDD634#01000100FF00F0C3
(1543392414.562356) can0 0CFDD734#0100FFFFFFFFFFFF
(1543392414.569248) can0 0CFDD733#0100FFFFFFFFFFFF
(1543392414.574143) can0 628#01830404D90E0618
(1543392414.576258) can0 0CFDD633#01000100FF00F0C3
(1543392414.579362) can0 0CFDD634#01000100FF00F0C3
(1543392414.582302) can0 0CFDD734#0100FFFFFFFFFFFF
(1543392414.590203) can0 0CFDD733#0100FFFFFFFFFFFF
(1543392414.596197) can0 0CFDD633#01000100FF00F0C3
(1543392414.599346) can0 0CFDD634#01000100FF00F0C3
(1543392414.603366) can0 0CFDD734#0100FFFFFFFFFFFF
(1543392414.610169) can0 0CFDD733#0100FFFFFFFFFFFF
(1543392414.614184) can0 628#01E0032AD9160618
(1543392414.617169) can0 0CFDD633#01000100FF00F0C3
(1543392414.620225) can0 0CFDD634#01000100FF00F0C3
(1543392414.624313) can0 0CFDD734#0100FFFFFFFFFFFF
(1543392414.631181) can0 0CFDD733#0100FFFFFFFFFFFF
(1543392414.637179) can0 0CFDD633#01000100FF00F0C3
(1543392414.640179) can0 0CFDD634#01000100FF00F0C3
(1543392414.644226) can0 0CFDD734#0100FFFFFFFFFFFF
(1543392414.651181) can0 0CFDD733#0100FFFFFFFFFFFF
(1543392414.654179) can0 628#01A60447D9240618
(1543392414.658179) can0 0CFDD633#01000100FF00F0C3
(1543392414.661151) can0 0CFDD634#01000100FF00F0C3
(1543392414.664235) can0 0CFDD734#0100FFFFFFFFFFFF
(1543392414.672178) can0 0CFDD733#0100FFFFFFFFFFFF
(1543392414.678091) can0 0CFDD633#01000100FF00F0C3
(1543392414.681134) can0 0CFDD634#01000100FF00F0C3
(1543392414.685205) can0 0CFDD734#0100FFFFFFFFFFFF
(1543392414.692092) can0 0CFDD733#0100FFFFFFFFFFFF
(1543392414.694179) can0 628#016C0524D9030618
(1543392414.699070) can0 0CFDD633#01000100FF00F0C3
(1543392414.702125) can0 0CFDD634#01000100FF00F0C3
(1543392414.705183) can0 0CFDD734#0100FFFFFFFFFFFF
(1543392414.713070) can0 0CFDD733#0100FFFFFFFFFFFF
(1543392414.718961) can0 0CFDD633#01000100FF00F0C3
(1543392414.722124) can0 0CFDD634#01000100FF00F0C3
(1543392414.726182) can0 0CFDD734#0100FFFFFFFFFFFF
(1543392414.733013) can0 0CFDD733#0100FFFFFFFFFFFF
(1543392414.734204) can0 628#01130555D9210618
(1543392414.739898) can0 0CFDD633#01000100FF00F0C3
(1543392414.743095) can0 0CFDD634#01000100FF00F0C3
(1543392414.746091) can0 0CFDD734#0100FFFFFFFFFFFF
(1543392414.753955) can0 0CFDD733#0100FFFFFFFFFFFF
(1543392414.760869) can0 0CFDD633#01000100FF00F0C3
(1543392414.763069) can0 0CFDD634#01000100FF00F0C3
(1543392414.767043) can0 0CFDD734#0100FFFFFFFFFFFF
(1543392414.773917) can0 0CFDD733#0100FFFFFFFFFFFF
(1543392414.774325) can0 628#011B066CD91C0618
(1543392414.780817) can0 0CFDD633#01000100FF00F0C3
(1543392414.784012) can0 0CFDD634#01000100FF00F0C3
(1543392414.786950) can0 0CFDD734#0100FFFFFFFFFFFF
(1543392414.794857) can0 0CFDD733#0100FFFFFFFFFFFF
(1543392414.800786) can0 0CFDD633#01000100FF00F0C3
(1543392414.803864) can0 0CFDD634#01000100FF00F0C3
(1543392414.807917) can0 0CFDD734#0100FFFFFFFFFFFF
(1543392414.814167) can0 628#01470646D9230618
(1543392414.814857) can0 0CFDD733#0100FFFFFFFFFFFF
(1543392414.821788) can0 0CFDD633#01000100FF00F0C3
(1543392414.824930) can0 0CFDD634#01000100FF00F0C3
(1543392414.827960) can0 0CFDD734#0100FFFFFFFFFFFF
(1543392414.835819) can0 0CFDD733#0100FFFFFFFFFFFF
(1543392414.842770) can0 0CFDD633#01000100FF00F0C3
(1543392414.844870) can0 0CFDD634#01000100FF00F0C3
(1543392414.848872) can0 0CFDD734#0100FFFFFFFFFFFF
(1543392414.854110) can0 628#01820689D9250618
(1543392414.856743) can0 0CFDD733#0100FFFFFFFFFFFF
(1543392414.862782) can0 0CFDD633#01000100FF00F0C3
(1543392414.865855) can0 0CFDD634#01000100FF00F0C3
(1543392414.868882) can0 0CFDD734#0100FFFFFFFFFFFF
(1543392414.876735) can0 0CFDD733#0100FFFFFFFFFFFF
(1543392414.883750) can0 0CFDD633#01000100FF00F0C3
(1543392414.885828) can0 0CFDD634#01000100FF00F0C3
(1543392414.889792) can0 0CFDD734#0100FFFFFFFFFFFF
(1543392414.894254) can0 628#01470792D9130618
(1543392414.896714) can0 0CFDD733#0100FFFFFFFFFFFF
(1543392414.903729) can0 0CFDD633#01000100FF00F0C3
(1543392414.906804) can0 0CFDD634#01000100FF00F0C3
(1543392414.909802) can0 0CFDD734#0100FFFFFFFFFFFF
(1543392414.917725) can0 0CFDD733#0100FFFFFFFFFFFF
(1543392414.923676) can0 0CFDD633#01000100FF00F0C3
(1543392414.926750) can0 0CFDD634#01000100FF00F0C3
(1543392414.930781) can0 0CFDD734#0100FFFFFFFFFFFF
(1543392414.934175) can0 628#0165077ED90F0618
(1543392414.937699) can0 0CFDD733#0100FFFFFFFFFFFF
(1543392414.942781) can0 18FECA34#00FF00000000FFFF
(1543392414.943673) can0 0CFDD633#01000100FF00F0C3
(1543392414.947658) can0 0CFDD634#01000100FF00F0C3
(1543392414.950645) can0 0CFDD734#0100FFFFFFFFFFFF
(1543392414.958560) can0 0CFDD733#0100FFFFFFFFFFFF
(1543392414.964649) can0 0CFDD633#01000100FF00F0C3
(1543392414.967614) can0 0CFDD634#01000100FF00F0C3
(1543392414.971703) can0 0CFDD734#0100FFFFFFFFFFFF
(1543392414.974201) can0 628#01EE07CED9180618
(1543392414.974789) can0 18FECA33#00FF00000000FFFF
(1543392414.978617) can0 0CFDD733#0100FFFFFFFFFFFF
(1543392414.984553) can0 0CFDD633#01000100FF00F0C3
(1543392414.988597) can0 0CFDD634#01000100FF00F0C3
(1543392414.991672) can0 0CFDD734#0100FFFFFFFFFFFF
(1543392414.999530) can0 0CFDD733#0100FFFFFFFFFFFF
(1543392415.004568) can0 0CFDD633#01000100FF00F0C3
(1543392415.008620) can0 0CFDD634#01000100FF00F0C3
(1543392415.012610) can0 0CFDD734#0100FFFFFFFFFFFF
(1543392415.014200) can0 628#014808BAD9100618
(1543392415.019455) can0 0CFDD733#0100FFFFFFFFFFFF
(1543392415.025516) can0 0CFDD633#01000100FF00F0C3
(1543392415.029567) can0 0CFDD634#01000100FF00F0C3
(1543392415.033590) can0 0CFDD734#0100FFFFFFFFFFFF
(1543392415.040466) can0 0CFDD733#0100FFFFFFFFFFFF
(1543392415.045491) can0 0CFDD633#01000100FF00F0C3
(1543392415.049538) can0 0CFDD634#01000100FF00F0C3
(1543392415.053542) can0 0CFDD734#0100FFFFFFFFFFFF
(1543392415.054266) can0 628#01A408CBD9130618
(1543392415.060440) can0 0CFDD733#0100FFFFFFFFFFFF
(1543392415.066357) can0 0CFDD633#01000100FF00F0C3
(1543392415.070435) can0 0CFDD634#01000100FF00F0C3
(1543392415.073499) can0 0CFDD734#0100FFFFFFFFFFFF
(1543392415.081394) can0 0CFDD733#0100FFFFFFFFFFFF
(1543392415.086343) can0 0CFDD633#01000100FF00F0C3
(1543392415.090391) can0 0CFDD634#01000100FF00F0C3
(1543392415.094138) can0 628#01150915DA1D0618
(1543392415.094707) can0 0CFDD734#0100FFFFFFFFFFFF
(1543392415.101339) can0 0CFDD733#0100FFFFFFFFFFFF
(1543392415.107299) can0 0CFDD633#01000100FF00F0C3
(1543392415.111426) can0 0CFDD634#01000100FF00F0C3
(1543392415.114453) can0 0CFDD734#0100FFFFFFFFFFFF
(1543392415.122334) can0 0CFDD733#0100FFFFFFFFFFFF
(1543392415.127266) can0 0CFDD633#01000100FF00F0C3
(1543392415.131346) can0 0CFDD634#01000100FF00F0C3
(1543392415.134203) can0 628#016209F5D91E0618
(1543392415.135313) can0 0CFDD734#0100FFFFFFFFFFFF
(1543392415.142329) can0 0CFDD733#0100FFFFFFFFFFFF
(1543392415.148266) can0 0CFDD633#01000100FF00F0C3
(1543392415.152285) can0 0CFDD634#01000100FF00F0C3
(1543392415.156335) can0 0CFDD734#0100FFFFFFFFFFFF
(1543392415.163245) can0 0CFDD733#0100FFFFFFFFFFFF
(1543392415.168252) can0 0CFDD633#01000100FF00F0C3
(1543392415.172270) can0 0CFDD634#01000100FF00F0C3
(1543392415.174226) can0 628#01F40928DA140618
(1543392415.176304) can0 0CFDD734#0100FFFFFFFFFFFF
(1543392415.183239) can0 0CFDD733#0100FFFFFFFFFFFF
(1543392415.189209) can0 0CFDD633#01000100FF00F0C3
(1543392415.193297) can0 0CFDD634#01000100FF00F0C3
(1543392415.196264) can0 0CFDD734#0100FFFFFFFFFFFF
(1543392415.204253) can0 0CFDD733#0100FFFFFFFFFFFF
(1543392415.209163) can0 0CFDD633#01000100FF00F0C3
(1543392415.213249) can0 0CFDD634#01000100FF00F0C3
(1543392415.214212) can0 628#011D0A4FDA180618
(1543392415.217276) can0 0CFDD734#0100FFFFFFFFFFFF
(1543392415.224227) can0 0CFDD733#0100FFFFFFFFFFFF
(1543392415.230115) can0 0CFDD633#01000100FF00F0C3
(1543392415.233228) can0 0CFDD634#01000100FF00F0C3
(1543392415.237146) can0 0CFDD734#0100FFFFFFFFFFFF
(1543392415.245170) can0 0CFDD733#0100FFFFFFFFFFFF
(1543392415.250125) can0 0CFDD633#01000100FF00F0C3
(1543392415.254200) can0 0CFDD634#01000100FF00F0C3
(1543392415.254561) can0 628#01A70A43DA1F0618
(1543392415.258197) can0 0CFDD734#0100FFFFFFFFFFFF
(1543392415.265171) can0 0CFDD733#0100FFFFFFFFFFFF
(1543392415.271170) can0 0CFDD633#01000100FF00F0C3
(1543392415.275123) can0 0CFDD634#01000100FF00F0C3
(1543392415.278171) can0 0CFDD734#0100FFFFFFFFFFFF
(1543392415.286171) can0 0CFDD733#0100FFFFFFFFFFFF
(1543392415.291084) can0 0CFDD633#01000100FF00F0C3
(1543392415.294300) can0 628#011E0B7EDA1F0618
(1543392415.295124) can0 0CFDD634#01000100FF00F0C3
(1543392415.299173) can0 0CFDD734#0100FFFFFFFFFFFF
(1543392415.306061) can0 0CFDD733#0100FFFFFFFFFFFF
(1543392415.312056) can0 0CFDD633#01000100FF00F0C3
(1543392415.315971) can0 0CFDD634#01000100FF00F0C3
(1543392415.320046) can0 0CFDD734#0100FFFFFFFFFFFF
(1543392415.327035) can0 0CFDD733#0100FFFFFFFFFFFF
(1543392415.332008) can0 0CFDD633#01000100FF00F0C3
(1543392415.334273) can0 628#01450B9BDA160618
(1543392415.336033) can0 0CFDD634#01000100FF00F0C3
(1543392415.339997) can0 0CFDD734#0100FFFFFFFFFFFF
(1543392415.347005) can0 0CFDD733#0100FFFFFFFFFFFF
(1543392415.352929) can0 0CFDD633#01000100FF00F0C3
(1543392415.356938) can0 0CFDD634#01000100FF00F0C3
(1543392415.359947) can0 0CFDD734#0100FFFFFFFFFFFF
(1543392415.367978) can0 0CFDD733#0100FFFFFFFFFFFF
(1543392415.372938) can0 0CFDD633#01000100FF00F0C3
(1543392415.374261) can0 628#01E70BA6DA190618
(1543392415.376918) can0 0CFDD634#01000100FF00F0C3
(1543392415.380930) can0 0CFDD734#0100FFFFFFFFFFFF
(1543392415.387956) can0 0CFDD733#0100FFFFFFFFFFFF
(1543392415.393926) can0 0CFDD633#01000100FF00F0C3
(1543392415.397925) can0 0CFDD634#01000100FF00F0C3
(1543392415.400865) can0 0CFDD734#0100FFFFFFFFFFFF
(1543392415.408905) can0 0CFDD733#0100FFFFFFFFFFFF
(1543392415.413838) can0 0CFDD633#01000100FF00F0C3
(1543392415.414306) can0 628#01420CDBDAFD0518
(1543392415.417863) can0 0CFDD634#01000100FF00F0C3
(1543392415.421881) can0 0CFDD734#0100FFFFFFFFFFFF
(1543392415.429880) can0 0CFDD733#0100FFFFFFFFFFFF
(1543392415.434797) can0 0CFDD633#01000100FF00F0C3
(1543392415.438852) can0 0CFDD634#01000100FF00F0C3
(1543392415.441851) can0 0CFDD734#0100FFFFFFFFFFFF
(1543392415.449847) can0 0CFDD733#0100FFFFFFFFFFFF
(1543392415.454293) can0 628#01680CEDDA190618
(1543392415.454828) can0 0CFDD633#01000100FF00F0C3
(1543392415.458800) can0 0CFDD634#01000100FF00F0C3
(1543392415.462797) can0 0CFDD734#0100FFFFFFFFFFFF
(1543392415.469795) can0 0CFDD733#0100FFFFFFFFFFFF
(1543392415.475731) can0 0CFDD633#01000100FF00F0C3
(1543392415.478757) can0 0CFDD634#01000100FF00F0C3
(1543392415.482757) can0 0CFDD734#0100FFFFFFFFFFFF
(1543392415.490731) can0 0CFDD733#0100FFFFFFFFFFFF
(1543392415.494400) can0 628#011F0D08DB130618
(1543392415.495742) can0 0CFDD633#01000100FF00F0C3
(1543392415.498771) can0 0CFDD634#01000100FF00F0C3
(1543392415.503771) can0 0CFDD734#0100FFFFFFFFFFFF
(1543392415.510741) can0 0CFDD733#0100FFFFFFFFFFFF
(1543392415.516716) can0 0CFDD633#01000100FF00F0C3
(1543392415.518704) can0 0CFDD634#01000100FF00F0C3
(1543392415.523742) can0 0CFDD734#0100FFFFFFFFFFFF
(1543392415.531695) can0 0CFDD733#0100FFFFFFFFFFFF
(1543392415.534232) can0 628#014F0D3EDB080618
(1543392415.536608) can0 0CFDD633#01000100FF00F0C3
(1543392415.539609) can0 0CFDD634#01000100FF00F0C3
(1543392415.544689) can0 0CFDD734#0100FFFFFFFFFFFF
(1543392415.551621) can0 0CFDD733#0100FFFFFFFFFFFF
(1543392415.556564) can0 0CFDD633#01000100FF00F0C3
(1543392415.559539) can0 0CFDD634#01000100FF00F0C3
(1543392415.564663) can0 0CFDD734#0100FFFFFFFFFFFF
(1543392415.572638) can0 0CFDD733#0100FFFFFFFFFFFF
(1543392415.574348) can0 628#018E0D4FDB2E0618
(1543392415.576576) can0 0CFDD633#01000100FF00F0C3
(1543392415.580545) can0 0CFDD634#01000100FF00F0C3
(1543392415.585546) can0 0CFDD734#0100FFFFFFFFFFFF
(1543392415.592519) can0 0CFDD733#0100FFFFFFFFFFFF
(1543392415.596537) can0 0CFDD633#01000100FF00F0C3
(1543392415.600536) can0 0CFDD634#01000100FF00F0C3
(1543392415.605582) can0 0CFDD734#0100FFFFFFFFFFFF
(1543392415.613549) can0 0CFDD733#0100FFFFFFFFFFFF
(1543392415.614311) can0 628#01540E85DB060618
(1543392415.617555) can0 0CFDD633#01000100FF00F0C3
(1543392415.621518) can0 0CFDD634#01000100FF00F0C3
(1543392415.626556) can0 0CFDD734#0100FFFFFFFFFFFF
(1543392415.634533) can0 0CFDD733#0100FFFFFFFFFFFF
(1543392415.637502) can0 0CFDD633#01000100FF00F0C3
(1543392415.641528) can0 0CFDD634#01000100FF00F0C3
(1543392415.646503) can0 0CFDD734#0100FFFFFFFFFFFF
(1543392415.654507) can0 0CFDD733#0100FFFFFFFFFFFF
(1543392415.654895) can0 628#015A0EA3DB0C0618
(1543392415.658440) can0 0CFDD633#01000100FF00F0C3
(1543392415.661457) can0 0CFDD634#01000100FF00F0C3
(1543392415.667389) can0 0CFDD734#0100FFFFFFFFFFFF
(1543392415.674440) can0 0CFDD733#0100FFFFFFFFFFFF
(1543392415.678450) can0 0CFDD633#01000100FF00F0C3
(1543392415.681404) can0 0CFDD634#01000100FF00F0C3
(1543392415.687451) can0 0CFDD734#0100FFFFFFFFFFFF
(1543392415.694372) can0 628#01DC0ECFDB170618
(1543392415.695370) can0 0CFDD733#0100FFFFFFFFFFFF
(1543392415.699313) can0 0CFDD633#01000100FF00F0C3
(1543392415.702361) can0 0CFDD634#01000100FF00F0C3
(1543392415.708402) can0 0CFDD734#0100FFFFFFFFFFFF
(1543392415.716361) can0 0CFDD733#0100FFFFFFFFFFFF
(1543392415.719287) can0 0CFDD633#01000100FF00F0C3
(1543392415.722337) can0 0CFDD634#01000100FF00F0C3
(1543392415.728376) can0 0CFDD734#0100FFFFFFFFFFFF
(1543392415.734401) can0 628#01600FF4DB050618
(1543392415.736335) can0 0CFDD733#0100FFFFFFFFFFFF
(1543392415.740308) can0 0CFDD633#01000100FF00F0C3
(1543392415.742308) can0 0CFDD634#01000100FF00F0C3
(1543392415.749258) can0 0CFDD734#0100FFFFFFFFFFFF
(1543392415.756251) can0 0CFDD733#0100FFFFFFFFFFFF
(1543392415.760248) can0 0CFDD633#01000100FF00F0C3
(1543392415.763256) can0 0CFDD634#01000100FF00F0C3
(1543392415.769234) can0 0CFDD734#0100FFFFFFFFFFFF
(1543392415.774401) can0 628#016A0F14DC070618
(1543392415.777209) can0 0CFDD733#0100FFFFFFFFFFFF
(1543392415.781222) can0 0CFDD633#01000100FF00F0C3
(1543392415.784223) can0 0CFDD634#01000100FF00F0C3
(1543392415.790204) can0 0CFDD734#0100FFFFFFFFFFFF
(1543392415.797175) can0 0CFDD733#0100FFFFFFFFFFFF
(1543392415.802154) can0 0CFDD633#01000100FF00F0C3
(1543392415.804191) can0 0CFDD634#01000100FF00F0C3
(1543392415.810193) can0 0CFDD734#0100FFFFFFFFFFFF
(1543392415.814489) can0 628#010C1051DC120618
(1543392415.818204) can0 0CFDD733#0100FFFFFFFFFFFF
(1543392415.822128) can0 0CFDD633#01000100FF00F0C3
(1543392415.824119) can0 0CFDD634#01000100FF00F0C3
(1543392415.831214) can0 0CFDD734#0100FFFFFFFFFFFF
(1543392415.838190) can0 0CFDD733#0100FFFFFFFFFFFF
(1543392415.842112) can0 0CFDD633#01000100FF00F0C3
(1543392415.845079) can0 0CFDD634#01000100FF00F0C3
(1543392415.852167) can0 0CFDD734#0100FFFFFFFFFFFF
(1543392415.854393) can0 628#01591066DC050618
(1543392415.859075) can0 0CFDD733#0100FFFFFFFFFFFF
(1543392415.863123) can0 0CFDD633#01000100FF00F0C3
(1543392415.865075) can0 0CFDD634#01000100FF00F0C3
(1543392415.872162) can0 0CFDD734#0100FFFFFFFFFFFF
(1543392415.879091) can0 0CFDD733#0100FFFFFFFFFFFF
(1543392415.884125) can0 0CFDD633#01000100FF00F0C3
(1543392415.885162) can0 0CFDD634#01000100FF00F0C3
(1543392415.893075) can0 0CFDD734#0100FFFFFFFFFFFF
(1543392415.894385) can0 628#019B109ADC170618
(1543392415.900083) can0 0CFDD733#0100FFFFFFFFFFFF
(1543392415.904005) can0 0CFDD633#01000100FF00F0C3
(1543392415.905009) can0 0CFDD634#01000100FF00F0C3
(1543392415.912978) can0 0CFDD734#0100FFFFFFFFFFFF
(1543392415.920040) can0 0CFDD733#0100FFFFFFFFFFFF
(1543392415.925048) can0 0CFDD633#01000100FF00F0C3
(1543392415.926026) can0 0CFDD634#01000100FF00F0C3
(1543392415.933026) can0 0CFDD734#0100FFFFFFFFFFFF
(1543392415.934410) can0 628#012211CDDC180618
(1543392415.940978) can0 18FECA34#00FF00000000FFFF
(1543392415.941548) can0 0CFDD733#0100FFFFFFFFFFFF
(1543392415.945004) can0 0CFDD633#01000100FF00F0C3
(1543392415.945929) can0 0CFDD634#01000100FF00F0C3
(1543392415.953954) can0 0CFDD734#0100FFFFFFFFFFFF
(1543392415.960948) can0 0CFDD733#0100FFFFFFFFFFFF
(1543392415.964921) can0 0CFDD633#01000100FF00F0C3
(1543392415.965896) can0 0CFDD634#01000100FF00F0C3
(1543392415.973000) can0 18FECA33#00FF00000000FFFF
(1543392415.973944) can0 0CFDD734#0100FFFFFFFFFFFF
(1543392415.974445) can0 628#016411EEDC120618
(1543392415.981926) can0 0CFDD733#0100FFFFFFFFFFFF
(1543392415.985942) can0 0CFDD633#01000100FF00F0C3
(1543392415.986923) can0 0CFDD634#01000100FF00F0C3
(1543392415.994845) can0 0CFDD734#0100FFFFFFFFFFFF
(1543392416.001880) can0 0CFDD733#0100FFFFFFFFFFFF
(1543392416.005890) can0 0CFDD633#01000100FF00F0C3
(1543392416.006892) can0 0CFDD634#01000100FF00F0C3
(1543392416.014449) can0 628#01C61134DD170618
(1543392416.014942) can0 0CFDD734#0100FFFFFFFFFFFF
(1543392416.022922) can0 0CFDD733#0100FFFFFFFFFFFF
(1543392416.026869) can0 0CFDD633#01000100FF00F0C3
(1543392416.027838) can0 0CFDD634#01000100FF00F0C3
(1543392416.035838) can0 0CFDD734#0100FFFFFFFFFFFF
(1543392416.042869) can0 0CFDD733#0100FFFFFFFFFFFF
(1543392416.046842) can0 0CFDD633#01000100FF00F0C3
(1543392416.047761) can0 0CFDD634#01000100FF00F0C3
(1543392416.054449) can0 628#01311252DD140618
(1543392416.055776) can0 0CFDD734#0100FFFFFFFFFFFF
(1543392416.063811) can0 0CFDD733#0100FFFFFFFFFFFF
(1543392416.067748) can0 0CFDD633#01000100FF00F0C3
(1543392416.068738) can0 0CFDD634#01000100FF00F0C3
(1543392416.076724) can0 0CFDD734#0100FFFFFFFFFFFF
(1543392416.083749) can0 0CFDD733#0100FFFFFFFFFFFF
(1543392416.087697) can0 0CFDD633#01000100FF00F0C3
(1543392416.088653) can0 0CFDD634#01000100FF00F0C3
(1543392416.094405) can0 628#018A1280DD170618
(1543392416.096649) can0 0CFDD734#0100FFFFFFFFFFFF
(1543392416.104696) can0 0CFDD733#0100FFFFFFFFFFFF
(1543392416.108651) can0 0CFDD633#01000100FF00F0C3
(1543392416.109653) can0 0CFDD634#01000100FF00F0C3
(1543392416.117666) can0 0CFDD734#0100FFFFFFFFFFFF
(1543392416.125704) can0 0CFDD733#0100FFFFFFFFFFFF
(1543392416.128681) can0 0CFDD633#01000100FF00F0C3
(1543392416.129644) can0 0CFDD634#01000100FF00F0C3
(1543392416.134469) can0 628#01D712B8DD110618
(1543392416.137632) can0 0CFDD734#0100FFFFFFFFFFFF
(1543392416.145712) can0 0CFDD733#0100FFFFFFFFFFFF
(1543392416.149587) can0 0CFDD633#01000100FF00F0C3
(1543392416.150562) can0 0CFDD634#01000100FF00F0C3
(1543392416.158532) can0 0CFDD734#0100FFFFFFFFFFFF
(1543392416.165655) can0 0CFDD733#0100FFFFFFFFFFFF
(1543392416.169552) can0 0CFDD633#01000100FF00F0C3
(1543392416.170555) can0 0CFDD634#01000100FF00F0C3
(1543392416.174470) can0 628#013913E9DD0A0618
(1543392416.178599) can0 0CFDD734#0100FFFFFFFFFFFF
(1543392416.186588) can0 0CFDD733#0100FFFFFFFFFFFF
(1543392416.190556) can0 0CFDD633#01000100FF00F0C3
(1543392416.191573) can0 0CFDD634#01000100FF00F0C3
(1543392416.199500) can0 0CFDD734#0100FFFFFFFFFFFF
(1543392416.206557) can0 0CFDD733#0100FFFFFFFFFFFF
(1543392416.210526) can0 0CFDD633#01000100FF00F0C3
(1543392416.211520) can0 0CFDD634#01000100FF00F0C3
(1543392416.214494) can0 628#0193131ADE140618
(1543392416.219468) can0 0CFDD734#0100FFFFFFFFFFFF
(1543392416.227548) can0 0CFDD733#0100FFFFFFFFFFFF
(1543392416.231524) can0 0CFDD633#01000100FF00F0C3
(1543392416.232494) can0 0CFDD634#01000100FF00F0C3
(1543392416.240458) can0 0CFDD734#0100FFFFFFFFFFFF
(1543392416.247525) can0 0CFDD733#0100FFFFFFFFFFFF
(1543392416.251403) can0 0CFDD633#01000100FF00F0C3
(1543392416.252394) can0 0CFDD634#01000100FF00F0C3
(1543392416.254510) can0 628#01E21356DE090618
(1543392416.260384) can0 0CFDD734#0100FFFFFFFFFFFF
(1543392416.268402) can0 0CFDD733#0100FFFFFFFFFFFF
(1543392416.272398) can0 0CFDD633#01000100FF00F0C3
(1543392416.273336) can0 0CFDD634#01000100FF00F0C3
(1543392416.281364) can0 0CFDD734#0100FFFFFFFFFFFF
(1543392416.288467) can0 0CFDD733#0100FFFFFFFFFFFF
(1543392416.293411) can0 0CFDD633#01000100FF00F0C3
(1543392416.294342) can0 0CFDD634#01000100FF00F0C3
(1543392416.294747) can0 628#013C1488DE120618
(1543392416.301327) can0 0CFDD734#0100FFFFFFFFFFFF
(1543392416.309378) can0 0CFDD733#0100FFFFFFFFFFFF
(1543392416.313393) can0 0CFDD633#01000100FF00F0C3
(1543392416.314300) can0 0CFDD634#01000100FF00F0C3
(1543392416.322260) can0 0CFDD734#0100FFFFFFFFFFFF
(1543392416.329389) can0 0CFDD733#0100FFFFFFFFFFFF
(1543392416.333362) can0 0CFDD633#01000100FF00F0C3
(1543392416.334273) can0 0CFDD634#01000100FF00F0C3
(1543392416.334668) can0 628#01B114BADE0F0618
(1543392416.342310) can0 0CFDD734#0100FFFFFFFFFFFF
(1543392416.350293) can0 0CFDD733#0100FFFFFFFFFFFF
(1543392416.354216) can0 0CFDD633#01000100FF00F0C3
(1543392416.355186) can0 0CFDD634#01000100FF00F0C3
(1543392416.363248) can0 0CFDD734#0100FFFFFFFFFFFF
(1543392416.370311) can0 0CFDD733#0100FFFFFFFFFFFF
(1543392416.374252) can0 0CFDD633#01000100FF00F0C3
(1543392416.374708) can0 628#01EA14F8DE1D0618
(1543392416.375211) can0 0CFDD634#01000100FF00F0C3
(1543392416.383236) can0 0CFDD734#0100FFFFFFFFFFFF
(1543392416.391285) can0 0CFDD733#0100FFFFFFFFFFFF
(1543392416.395174) can0 0CFDD633#01000100FF00F0C3
(1543392416.396169) can0 0CFDD634#01000100FF00F0C3
(1543392416.404210) can0 0CFDD734#0100FFFFFFFFFFFF
(1543392416.411261) can0 0CFDD733#0100FFFFFFFFFFFF
(1543392416.414623) can0 628#014D1530DF160618
(1543392416.415174) can0 0CFDD633#01000100FF00F0C3
(1543392416.416142) can0 0CFDD634#01000100FF00F0C3
(1543392416.424158) can0 0CFDD734#0100FFFFFFFFFFFF
(1543392416.432236) can0 0CFDD733#0100FFFFFFFFFFFF
(1543392416.436168) can0 0CFDD633#01000100FF00F0C3
(1543392416.437109) can0 0CFDD634#01000100FF00F0C3
(1543392416.445153) can0 0CFDD734#0100FFFFFFFFFFFF
(1543392416.452205) can0 0CFDD733#0100FFFFFFFFFFFF
(1543392416.454474) can0 628#01B91564DF0B0618
(1543392416.456116) can0 0CFDD633#01000100FF00F0C3
(1543392416.458116) can0 0CFDD634#01000100FF00F0C3
(1543392416.465153) can0 0CFDD734#0100FFFFFFFFFFFF
(1543392416.473152) can0 0CFDD733#0100FFFFFFFFFFFF
(1543392416.477109) can0 0CFDD633#01000100FF00F0C3
(1543392416.478033) can0 0CFDD634#01000100FF00F0C3
(1543392416.486041) can0 0CFDD734#0100FFFFFFFFFFFF
(1543392416.493154) can0 0CFDD733#0100FFFFFFFFFFFF
(1543392416.494531) can0 628#01E3159ADF120618
(1543392416.498115) can0 0CFDD633#01000100FF00F0C3
(1543392416.498936) can0 0CFDD634#01000100FF00F0C3
(1543392416.506011) can0 0CFDD734#0100FFFFFFFFFFFF
(1543392416.514067) can0 0CFDD733#0100FFFFFFFFFFFF
(1543392416.518038) can0 0CFDD633#01000100FF00F0C3
(1543392416.518915) can0 0CFDD634#01000100FF00F0C3
(1543392416.526988) can0 0CFDD734#0100FFFFFFFFFFFF
(1543392416.534043) can0 0CFDD733#0100FFFFFFFFFFFF
(1543392416.534530) can0 628#015916DEDF0C0618
(1543392416.538012) can0 0CFDD633#01000100FF00F0C3
(1543392416.538898) can0 0CFDD634#01000100FF00F0C3
(1543392416.546902) can0 0CFDD734#0100FFFFFFFFFFFF
(1543392416.554919) can0 0CFDD733#0100FFFFFFFFFFFF
(1543392416.558892) can0 0CFDD633#01000100FF00F0C3
(1543392416.559851) can0 0CFDD634#01000100FF00F0C3
(1543392416.567914) can0 0CFDD734#0100FFFFFFFFFFFF
(1543392416.574674) can0 628#01AE1613E0FE0518
(1543392416.575173) can0 0CFDD733#0100FFFFFFFFFFFF
(1543392416.578898) can0 0CFDD633#01000100FF00F0C3
(1543392416.579847) can0 0CFDD634#01000100FF00F0C3
(1543392416.588886) can0 0CFDD734#0100FFFFFFFFFFFF
(1543392416.595934) can0 0CFDD733#0100FFFFFFFFFFFF
(1543392416.599871) can0 0CFDD633#01000100FF00F0C3
(1543392416.600769) can0 0CFDD634#01000100FF00F0C3
(1543392416.608860) can0 0CFDD734#0100FFFFFFFFFFFF
(1543392416.614597) can0 628#01DC164CE0150618
(1543392416.615871) can0 0CFDD733#0100FFFFFFFFFFFF
(1543392416.620812) can0 0CFDD633#01000100FF00F0C3
(1543392416.621715) can0 0CFDD634#01000100FF00F0C3
(1543392416.628707) can0 0CFDD734#0100FFFFFFFFFFFF
(1543392416.636781) can0 0CFDD733#0100FFFFFFFFFFFF
(1543392416.640788) can0 0CFDD633#01000100FF00F0C3
(1543392416.641716) can0 0CFDD634#01000100FF00F0C3
(1543392416.649771) can0 0CFDD734#0100FFFFFFFFFFFF
(1543392416.654591) can0 628#0153179AE01A0618
(1543392416.656764) can0 0CFDD733#0100FFFFFFFFFFFF
(1543392416.660782) can0 0CFDD633#01000100FF00F0C3
(1543392416.661674) can0 0CFDD634#01000100FF00F0C3
(1543392416.669709) can0 0CFDD734#0100FFFFFFFFFFFF
(1543392416.677767) can0 0CFDD733#0100FFFFFFFFFFFF
(1543392416.681766) can0 0CFDD633#01000100FF00F0C3
(1543392416.682651) can0 0CFDD634#01000100FF00F0C3
(1543392416.690699) can0 0CFDD734#0100FFFFFFFFFFFF
(1543392416.694617) can0 628#019D17C3E0220618
(1543392416.698716) can0 0CFDD733#0100FFFFFFFFFFFF
(1543392416.702708) can0 0CFDD633#01000100FF00F0C3
(1543392416.703672) can0 0CFDD634#01000100FF00F0C3
(1543392416.710672) can0 0CFDD734#0100FFFFFFFFFFFF
(1543392416.718663) can0 0CFDD733#0100FFFFFFFFFFFF
(1543392416.722723) can0 0CFDD633#01000100FF00F0C3
(1543392416.724616) can0 0CFDD634#01000100FF00F0C3
(1543392416.731619) can0 0CFDD734#0100FFFFFFFFFFFF
(1543392416.734724) can0 628#01F3171BE11E0618
(1543392416.738638) can0 0CFDD733#0100FFFFFFFFFFFF
(1543392416.742660) can0 0CFDD633#01000100FF00F0C3
(1543392416.745591) can0 0CFDD634#01000100FF00F0C3
(1543392416.751518) can0 0CFDD734#0100FFFFFFFFFFFF
(1543392416.759578) can0 0CFDD733#0100FFFFFFFFFFFF
(1543392416.763612) can0 0CFDD633#01000100FF00F0C3
(1543392416.765539) can0 0CFDD634#01000100FF00F0C3
(1543392416.772569) can0 0CFDD734#0100FFFFFFFFFFFF
(1543392416.774608) can0 628#01451848E1130618
(1543392416.779590) can0 0CFDD733#0100FFFFFFFFFFFF
(1543392416.783620) can0 0CFDD633#01000100FF00F0C3
(1543392416.786435) can0 0CFDD634#01000100FF00F0C3
(1543392416.792425) can0 0CFDD734#0100FFFFFFFFFFFF
(1543392416.800534) can0 0CFDD733#0100FFFFFFFFFFFF
(1543392416.804511) can0 0CFDD633#01000100FF00F0C3
(1543392416.806411) can0 0CFDD634#01000100FF00F0C3
(1543392416.813432) can0 0CFDD734#0100FFFFFFFFFFFF
(1543392416.814586) can0 628#0196188BE10F0618
(1543392416.820544) can0 0CFDD733#0100FFFFFFFFFFFF
(1543392416.824528) can0 0CFDD633#01000100FF00F0C3
(1543392416.827424) can0 0CFDD634#01000100FF00F0C3
(1543392416.833435) can0 0CFDD734#0100FFFFFFFFFFFF
(1543392416.841564) can0 0CFDD733#0100FFFFFFFFFFFF
(1543392416.845511) can0 0CFDD633#01000100FF00F0C3
(1543392416.847411) can0 0CFDD634#01000100FF00F0C3
(1543392416.854367) can0 0CFDD734#0100FFFFFFFFFFFF
(1543392416.854798) can0 628#01E318DFE1140618
(1543392416.861474) can0 0CFDD733#0100FFFFFFFFFFFF
(1543392416.865448) can0 0CFDD633#01000100FF00F0C3
(1543392416.868380) can0 0CFDD634#01000100FF00F0C3
(1543392416.874320) can0 0CFDD734#0100FFFFFFFFFFFF
(1543392416.882412) can0 0CFDD733#0100FFFFFFFFFFFF
(1543392416.886459) can0 0CFDD633#01000100FF00F0C3
(1543392416.888293) can0 0CFDD634#01000100FF00F0C3
(1543392416.894669) can0 628#0130190AE2190618
(1543392416.895318) can0 0CFDD734#0100FFFFFFFFFFFF
(1543392416.902433) can0 0CFDD733#0100FFFFFFFFFFFF
(1543392416.906408) can0 0CFDD633#01000100FF00F0C3
(1543392416.909329) can0 0CFDD634#01000100FF00F0C3
(1543392416.916266) can0 0CFDD734#0100FFFFFFFFFFFF
(1543392416.923413) can0 0CFDD733#0100FFFFFFFFFFFF
(1543392416.927379) can0 0CFDD633#01000100FF00F0C3
(1543392416.930240) can0 0CFDD634#01000100FF00F0C3
(1543392416.934668) can0 628#01951959E2150618
(1543392416.936239) can0 0CFDD734#0100FFFFFFFFFFFF
(1543392416.939178) can0 18FECA34#00FF00000000FFFF
(1543392416.943279) can0 0CFDD733#0100FFFFFFFFFFFF
(1543392416.947250) can0 0CFDD633#01000100FF00F0C3
(1543392416.950152) can0 0CFDD634#01000100FF00F0C3
(1543392416.957149) can0 0CFDD734#0100FFFFFFFFFFFF
(1543392416.964239) can0 0CFDD733#0100FFFFFFFFFFFF
(1543392416.968297) can0 0CFDD633#01000100FF00F0C3
(1543392416.970146) can0 0CFDD634#01000100FF00F0C3
(1543392416.971353) can0 18FECA33#00FF00000000FFFF
(1543392416.974694) can0 628#01C319A2E20E0618
(1543392416.977160) can0 0CFDD734#0100FFFFFFFFFFFF
(1543392416.984264) can0 0CFDD733#0100FFFFFFFFFFFF
(1543392416.988187) can0 0CFDD633#01000100FF00F0C3
(1543392416.991052) can0 0CFDD634#01000100FF00F0C3
(1543392416.997110) can0 0CFDD734#0100FFFFFFFFFFFF
(1543392417.005205) can0 0CFDD733#0100FFFFFFFFFFFF
(1543392417.009228) can0 0CFDD633#01000100FF00F0C3
(1543392417.011124) can0 0CFDD634#01000100FF00F0C3
(1543392417.014700) can0 628#01171AD6E2170618
(1543392417.018086) can0 0CFDD734#0100FFFFFFFFFFFF
(1543392417.025176) can0 0CFDD733#0100FFFFFFFFFFFF
(1543392417.029211) can0 0CFDD633#01000100FF00F0C3
(1543392417.032134) can0 0CFDD634#01000100FF00F0C3
(1543392417.038071) can0 0CFDD734#0100FFFFFFFFFFFF
(1543392417.046133) can0 0CFDD733#0100FFFFFFFFFFFF
(1543392417.050102) can0 0CFDD633#01000100FF00F0C3
(1543392417.053004) can0 0CFDD634#01000100FF00F0C3
(1543392417.054639) can0 628#018A1A2EE3160618
(1543392417.059081) can0 0CFDD734#0100FFFFFFFFFFFF
(1543392417.066157) can0 0CFDD733#0100FFFFFFFFFFFF
(1543392417.071099) can0 0CFDD633#01000100FF00F0C3
(1543392417.072991) can0 0CFDD634#01000100FF00F0C3
(1543392417.079960) can0 0CFDD734#0100FFFFFFFFFFFF
(1543392417.087072) can0 0CFDD733#0100FFFFFFFFFFFF
(1543392417.091055) can0 0CFDD633#01000100FF00F0C3
(1543392417.092912) can0 0CFDD634#01000100FF00F0C3
(1543392417.094634) can0 628#01A41A6BE3220618
(1543392417.099880) can0 0CFDD734#0100FFFFFFFFFFFF
(1543392417.107076) can0 0CFDD733#0100FFFFFFFFFFFF
(1543392417.112123) can0 0CFDD633#01000100FF00F0C3
(1543392417.112906) can0 0CFDD634#01000100FF00F0C3
(1543392417.119904) can0 0CFDD734#0100FFFFFFFFFFFF
(1543392417.128045) can0 0CFDD733#0100FFFFFFFFFFFF
(1543392417.132018) can0 0CFDD633#01000100FF00F0C3
(1543392417.132856) can0 0CFDD634#01000100FF00F0C3
(1543392417.134659) can0 628#01021BB3E31B0618
(1543392417.140816) can0 0CFDD734#0100FFFFFFFFFFFF
(1543392417.147940) can0 0CFDD733#0100FFFFFFFFFFFF
(1543392417.151907) can0 0CFDD633#01000100FF00F0C3
(1543392417.152822) can0 0CFDD634#01000100FF00F0C3
(1543392417.161838) can0 0CFDD734#0100FFFFFFFFFFFF
(1543392417.168967) can0 0CFDD733#0100FFFFFFFFFFFF
(1543392417.172941) can0 0CFDD633#01000100FF00F0C3
(1543392417.173805) can0 0CFDD634#01000100FF00F0C3
(1543392417.174777) can0 628#01681B01E4130618
(1543392417.181811) can0 0CFDD734#0100FFFFFFFFFFFF
(1543392417.188942) can0 0CFDD733#0100FFFFFFFFFFFF
(1543392417.193925) can0 0CFDD633#01000100FF00F0C3
(1543392417.194782) can0 0CFDD634#01000100FF00F0C3
(1543392417.201821) can0 0CFDD734#0100FFFFFFFFFFFF
(1543392417.209877) can0 0CFDD733#0100FFFFFFFFFFFF
(1543392417.213903) can0 0CFDD633#01000100FF00F0C3
(1543392417.214722) can0 0CFDD634#01000100FF00F0C3
(1543392417.215147) can0 628#018C1B49E40F0618
(1543392417.222732) can0 0CFDD734#0100FFFFFFFFFFFF
(1543392417.229898) can0 0CFDD733#0100FFFFFFFFFFFF
(1543392417.233873) can0 0CFDD633#01000100FF00F0C3
(1543392417.234695) can0 0CFDD634#01000100FF00F0C3
(1543392417.242701) can0 0CFDD734#0100FFFFFFFFFFFF
(1543392417.250826) can0 0CFDD733#0100FFFFFFFFFFFF
(1543392417.254846) can0 0CFDD633#01000100FF00F0C3
(1543392417.255230) can0 628#01E01B83E4130618
(1543392417.255840) can0 0CFDD634#01000100FF00F0C3
(1543392417.263647) can0 0CFDD734#0100FFFFFFFFFFFF
(1543392417.270810) can0 0CFDD733#0100FFFFFFFFFFFF
(1543392417.274751) can0 0CFDD633#01000100FF00F0C3
(1543392417.275664) can0 0CFDD634#01000100FF00F0C3
(1543392417.283665) can0 0CFDD734#0100FFFFFFFFFFFF
(1543392417.291794) can0 0CFDD733#0100FFFFFFFFFFFF
(1543392417.294772) can0 628#01401CE6E4080618
(1543392417.295730) can0 0CFDD633#01000100FF00F0C3
(1543392417.296601) can0 0CFDD634#01000100FF00F0C3
(1543392417.304643) can0 0CFDD734#0100FFFFFFFFFFFF
(1543392417.311771) can0 0CFDD733#0100FFFFFFFFFFFF
(1543392417.316705) can0 0CFDD633#01000100FF00F0C3
(1543392417.317536) can0 0CFDD634#01000100FF00F0C3
(1543392417.324608) can0 0CFDD734#0100FFFFFFFFFFFF
(1543392417.332720) can0 0CFDD733#0100FFFFFFFFFFFF
(1543392417.334847) can0 628#01591C21E51E0618
(1543392417.336689) can0 0CFDD633#01000100FF00F0C3
(1543392417.337522) can0 0CFDD634#01000100FF00F0C3
(1543392417.345561) can0 0CFDD734#0100FFFFFFFFFFFF
(1543392417.352618) can0 0CFDD733#0100FFFFFFFFFFFF
(1543392417.356574) can0 0CFDD633#01000100FF00F0C3
(1543392417.357434) can0 0CFDD634#01000100FF00F0C3
(1543392417.365433) can0 0CFDD734#0100FFFFFFFFFFFF
(1543392417.373621) can0 0CFDD733#0100FFFFFFFFFFFF
(1543392417.374724) can0 628#01B01C6BE5270618
(1543392417.377589) can0 0CFDD633#01000100FF00F0C3
(1543392417.378410) can0 0CFDD634#01000100FF00F0C3
(1543392417.386478) can0 0CFDD734#0100FFFFFFFFFFFF
(1543392417.394600) can0 0CFDD733#0100FFFFFFFFFFFF
(1543392417.397571) can0 0CFDD633#01000100FF00F0C3
(1543392417.398386) can0 0CFDD634#01000100FF00F0C3
(1543392417.406391) can0 0CFDD734#0100FFFFFFFFFFFF
(1543392417.414612) can0 0CFDD733#0100FFFFFFFFFFFF
(1543392417.414964) can0 628#011F1DC2E5190618
(1543392417.418504) can0 0CFDD633#01000100FF00F0C3
(1543392417.419388) can0 0CFDD634#01000100FF00F0C3
(1543392417.427338) can0 0CFDD734#0100FFFFFFFFFFFF
(1543392417.434552) can0 0CFDD733#0100FFFFFFFFFFFF
(1543392417.438436) can0 0CFDD633#01000100FF00F0C3
(1543392417.439362) can0 0CFDD634#01000100FF00F0C3
(1543392417.447372) can0 0CFDD734#0100FFFFFFFFFFFF
(1543392417.454804) can0 628#013C1D09E6230618
(1543392417.455464) can0 0CFDD733#0100FFFFFFFFFFFF
(1543392417.459466) can0 0CFDD633#01000100FF00F0C3
(1543392417.460299) can0 0CFDD634#01000100FF00F0C3
(1543392417.468373) can0 0CFDD734#0100FFFFFFFFFFFF
(1543392417.476409) can0 0CFDD733#0100FFFFFFFFFFFF
(1543392417.479383) can0 0CFDD633#01000100FF00F0C3
(1543392417.480269) can0 0CFDD634#01000100FF00F0C3
(1543392417.488323) can0 0CFDD734#0100FFFFFFFFFFFF
(1543392417.494848) can0 628#01831D51E6160618
(1543392417.496505) can0 0CFDD733#0100FFFFFFFFFFFF
(1543392417.500450) can0 0CFDD633#01000100FF00F0C3
(1543392417.501294) can0 0CFDD634#01000100FF00F0C3
(1543392417.509231) can0 0CFDD734#0100FFFFFFFFFFFF
(1543392417.517424) can0 0CFDD733#0100FFFFFFFFFFFF
(1543392417.521354) can0 0CFDD633#01000100FF00F0C3
(1543392417.522206) can0 0CFDD634#01000100FF00F0C3
(1543392417.529241) can0 0CFDD734#0100FFFFFFFFFFFF
(1543392417.534846) can0 628#01DF1DACE6170618
(1543392417.537397) can0 0CFDD733#0100FFFFFFFFFFFF
(1543392417.541334) can0 0CFDD633#01000100FF00F0C3
(1543392417.543188) can0 0CFDD634#01000100FF00F0C3
(1543392417.550128) can0 0CFDD734#0100FFFFFFFFFFFF
(1543392417.557299) can0 0CFDD733#0100FFFFFFFFFFFF
(1543392417.561269) can0 0CFDD633#01000100FF00F0C3
(1543392417.564126) can0 0CFDD634#01000100FF00F0C3
(1543392417.571164) can0 0CFDD734#0100FFFFFFFFFFFF
(1543392417.574792) can0 628#010B1E01E71D0618
(1543392417.578259) can0 0CFDD733#0100FFFFFFFFFFFF
(1543392417.582225) can0 0CFDD633#01000100FF00F0C3
(1543392417.584092) can0 0CFDD634#01000100FF00F0C3
(1543392417.591138) can0 0CFDD734#0100FFFFFFFFFFFF
(1543392417.598295) can0 0CFDD733#0100FFFFFFFFFFFF
(1543392417.602267) can0 0CFDD633#01000100FF00F0C3
(1543392417.605105) can0 0CFDD634#01000100FF00F0C3
(1543392417.611138) can0 0CFDD734#0100FFFFFFFFFFFF
(1543392417.614871) can0 628#01451E35E71E0618
(1543392417.619203) can0 0CFDD733#0100FFFFFFFFFFFF
(1543392417.623165) can0 0CFDD633#01000100FF00F0C3
(1543392417.626012) can0 0CFDD634#01000100FF00F0C3
(1543392417.632053) can0 0CFDD734#0100FFFFFFFFFFFF
(1543392417.639203) can0 0CFDD733#0100FFFFFFFFFFFF
(1543392417.643187) can0 0CFDD633#01000100FF00F0C3
(1543392417.646022) can0 0CFDD634#01000100FF00F0C3
(1543392417.652023) can0 0CFDD734#0100FFFFFFFFFFFF
(1543392417.654844) can0 628#01AE1EADE70E0618
(1543392417.660167) can0 0CFDD733#0100FFFFFFFFFFFF
(1543392417.664161) can0 0CFDD633#01000100FF00F0C3
(1543392417.665913) can0 0CFDD634#01000100FF00F0C3
(1543392417.672997) can0 0CFDD734#0100FFFFFFFFFFFF
(1543392417.680118) can0 0CFDD733#0100FFFFFFFFFFFF
(1543392417.684076) can0 0CFDD633#01000100FF00F0C3
(1543392417.686884) can0 0CFDD634#01000100FF00F0C3
(1543392417.692946) can0 0CFDD734#0100FFFFFFFFFFFF
(1543392417.694818) can0 628#01D91EF0E70B0618
(1543392417.701141) can0 0CFDD733#0100FFFFFFFFFFFF
(1543392417.705134) can0 0CFDD633#01000100FF00F0C3
(1543392417.706857) can0 0CFDD634#01000100FF00F0C3
(1543392417.713917) can0 0CFDD734#0100FFFFFFFFFFFF
(1543392417.721073) can0 0CFDD733#0100FFFFFFFFFFFF
(1543392417.726043) can0 0CFDD633#01000100FF00F0C3
(1543392417.726798) can0 0CFDD634#01000100FF00F0C3
(1543392417.733891) can0 0CFDD734#0100FFFFFFFFFFFF
(1543392417.734800) can0 628#01F71E1BE8170618
(1543392417.741999) can0 0CFDD733#0100FFFFFFFFFFFF
(1543392417.746022) can0 0CFDD633#01000100FF00F0C3
(1543392417.747800) can0 0CFDD634#01000100FF00F0C3
(1543392417.754759) can0 0CFDD734#0100FFFFFFFFFFFF
(1543392417.761989) can0 0CFDD733#0100FFFFFFFFFFFF
(1543392417.766905) can0 0CFDD633#01000100FF00F0C3
(1543392417.767839) can0 0CFDD634#01000100FF00F0C3
(1543392417.774730) can0 0CFDD734#0100FFFFFFFFFFFF
(1543392417.775170) can0 628#01751FB1E8200618
(1543392417.782947) can0 0CFDD733#0100FFFFFFFFFFFF
(1543392417.786897) can0 0CFDD633#01000100FF00F0C3
(1543392417.787724) can0 0CFDD634#01000100FF00F0C3
(1543392417.795677) can0 0CFDD734#0100FFFFFFFFFFFF
(1543392417.802895) can0 0CFDD733#0100FFFFFFFFFFFF
(1543392417.806848) can0 0CFDD633#01000100FF00F0C3
(1543392417.807715) can0 0CFDD634#01000100FF00F0C3
(1543392417.814819) can0 628#01841FDDE81E0618
(1543392417.815706) can0 0CFDD734#0100FFFFFFFFFFFF
(1543392417.823940) can0 0CFDD733#0100FFFFFFFFFFFF
(1543392417.827853) can0 0CFDD633#01000100FF00F0C3
(1543392417.828697) can0 0CFDD634#01000100FF00F0C3
(1543392417.836671) can0 0CFDD734#0100FFFFFFFFFFFF
(1543392417.843858) can0 0CFDD733#0100FFFFFFFFFFFF
(1543392417.847776) can0 0CFDD633#01000100FF00F0C3
(1543392417.849619) can0 0CFDD634#01000100FF00F0C3
(1543392417.854882) can0 628#01E11F11E9FB0518
(1543392417.857683) can0 0CFDD734#0100FFFFFFFFFFFF
(1543392417.864828) can0 0CFDD733#0100FFFFFFFFFFFF
(1543392417.868810) can0 0CFDD633#01000100FF00F0C3
(1543392417.869618) can0 0CFDD634#01000100FF00F0C3
(1543392417.878542) can0 0CFDD734#0100FFFFFFFFFFFF
(1543392417.884764) can0 0CFDD733#0100FFFFFFFFFFFF
(1543392417.889774) can0 0CFDD633#01000100FF00F0C3
(1543392417.890630) can0 0CFDD634#01000100FF00F0C3
(1543392417.894882) can0 628#01E22194E9910418
(1543392417.898537) can0 0CFDD734#0100FFFFFFFFFFFF
(1543392417.905788) can0 0CFDD733#0100FFFFFFFFFFFF
(1543392417.909789) can0 0CFDD633#01000100FF00F0C3
(1543392417.911548) can0 0CFDD634#01000100FF00F0C3
(1543392417.919537) can0 0CFDD734#0100FFFFFFFFFFFF
(1543392417.925759) can0 0CFDD733#0100FFFFFFFFFFFF
(1543392417.930732) can0 0CFDD633#01000100FF00F0C3
(1543392417.931547) can0 0CFDD634#01000100FF00F0C3
(1543392417.934910) can0 628#014D2344EAFB0118
(1543392417.937547) can0 18FECA34#00FF00000000FFFF
(1543392417.939459) can0 0CFDD734#0100FFFFFFFFFFFF
(1543392417.946670) can0 0CFDD733#0100FFFFFFFFFFFF
(1543392417.950619) can0 0CFDD633#01000100FF00F0C3
(1543392417.952430) can0 0CFDD634#01000100FF00F0C3
(1543392417.959451) can0 0CFDD734#0100FFFFFFFFFFFF
(1543392417.967685) can0 0CFDD733#0100FFFFFFFFFFFF
(1543392417.969706) can0 18FECA33#00FF00000000FFFF
(1543392417.970607) can0 0CFDD633#01000100FF00F0C3
(1543392417.973406) can0 0CFDD634#01000100FF00F0C3
(1543392417.974844) can0 628#017021B8E92D0018
(1543392417.979422) can0 0CFDD734#0100FFFFFFFFFFFF
(1543392417.987617) can0 0CFDD733#0100FFFFFFFFFFFF
(1543392417.991632) can0 0CFDD633#01000100FF00F0C3
(1543392417.993416) can0 0CFDD634#01000100FF00F0C3
(1543392418.000381) can0 0CFDD734#0100FFFFFFFFFFFF
(1543392418.007631) can0 0CFDD733#0100FFFFFFFFFFFF
(1543392418.011560) can0 0CFDD633#01000100FF00F0C3
(1543392418.014390) can0 0CFDD634#01000100FF00F0C3
(1543392418.014857) can0 628#01A11F60E9380018
(1543392418.020327) can0 0CFDD734#0100FFFFFFFFFFFF
(1543392418.028602) can0 0CFDD733#0100FFFFFFFFFFFF
(1543392418.032577) can0 0CFDD633#01000100FF00F0C3
(1543392418.034338) can0 0CFDD634#01000100FF00F0C3
(1543392418.041301) can0 0CFDD734#0100FFFFFFFFFFFF
(1543392418.048546) can0 0CFDD733#0100FFFFFFFFFFFF
(1543392418.052519) can0 0CFDD633#01000100FF00F0C3
(1543392418.054905) can0 628#015620E0E9600018
(1543392418.055474) can0 0CFDD634#01000100FF00F0C3
(1543392418.061312) can0 0CFDD734#0100FFFFFFFFFFFF
(1543392418.069519) can0 0CFDD733#0100FFFFFFFFFFFF
(1543392418.073427) can0 0CFDD633#01000100FF00F0C3
(1543392418.075175) can0 0CFDD634#01000100FF00F0C3
(1543392418.082190) can0 0CFDD734#0100FFFFFFFFFFFF
(1543392418.089411) can0 0CFDD733#0100FFFFFFFFFFFF
(1543392418.093391) can0 0CFDD633#01000100FF00F0C3
(1543392418.094917) can0 628#016F20E1E93C0018
(1543392418.096164) can0 0CFDD634#01000100FF00F0C3
(1543392418.102187) can0 0CFDD734#0100FFFFFFFFFFFF
(1543392418.110391) can0 0CFDD733#0100FFFFFFFFFFFF
(1543392418.114409) can0 0CFDD633#01000100FF00F0C3
(1543392418.117167) can0 0CFDD634#01000100FF00F0C3
(1543392418.123137) can0 0CFDD734#0100FFFFFFFFFFFF
(1543392418.130416) can0 0CFDD733#0100FFFFFFFFFFFF
(1543392418.134967) can0 628#01B51F88E9840018
(1543392418.135488) can0 0CFDD633#01000100FF00F0C3
(1543392418.137134) can0 0CFDD634#01000100FF00F0C3
(1543392418.143159) can0 0CFDD734#0100FFFFFFFFFFFF
(1543392418.151315) can0 0CFDD733#0100FFFFFFFFFFFF
(1543392418.155267) can0 0CFDD633#01000100FF00F0C3
(1543392418.158067) can0 0CFDD634#01000100FF00F0C3
(1543392418.164086) can0 0CFDD734#0100FFFFFFFFFFFF
(1543392418.171319) can0 0CFDD733#0100FFFFFFFFFFFF
(1543392418.174994) can0 628#017C20EEE9890018
(1543392418.175494) can0 0CFDD633#01000100FF00F0C3
(1543392418.178049) can0 0CFDD634#01000100FF00F0C3
(1543392418.184145) can0 0CFDD734#0100FFFFFFFFFFFF
(1543392418.192315) can0 0CFDD733#0100FFFFFFFFFFFF
(1543392418.196283) can0 0CFDD633#01000100FF00F0C3
(1543392418.199007) can0 0CFDD634#01000100FF00F0C3
(1543392418.205047) can0 0CFDD734#0100FFFFFFFFFFFF
(1543392418.212238) can0 0CFDD733#0100FFFFFFFFFFFF
(1543392418.215019) can0 628#018020CEE9650018
(1543392418.216258) can0 0CFDD633#01000100FF00F0C3
(1543392418.218961) can0 0CFDD634#01000100FF00F0C3
(1543392418.225015) can0 0CFDD734#0100FFFFFFFFFFFF
(1543392418.233258) can0 0CFDD733#0100FFFFFFFFFFFF
(1543392418.237231) can0 0CFDD633#01000100FF00F0C3
(1543392418.238943) can0 0CFDD634#01000100FF00F0C3
(1543392418.245989) can0 0CFDD734#0100FFFFFFFFFFFF
(1543392418.253206) can0 0CFDD733#0100FFFFFFFFFFFF
(1543392418.255079) can0 628#01E51FB8E9770018
(1543392418.257179) can0 0CFDD633#01000100FF00F0C3
(1543392418.259930) can0 0CFDD634#01000100FF00F0C3
(1543392418.265967) can0 0CFDD734#0100FFFFFFFFFFFF
(1543392418.274096) can0 0CFDD733#0100FFFFFFFFFFFF
(1543392418.278092) can0 0CFDD633#01000100FF00F0C3
(1543392418.279823) can0 0CFDD634#01000100FF00F0C3
(1543392418.286940) can0 0CFDD734#0100FFFFFFFFFFFF
(1543392418.294119) can0 0CFDD733#0100FFFFFFFFFFFF
(1543392418.295027) can0 628#016B20DBE9720018
(1543392418.299034) can0 0CFDD633#01000100FF00F0C3
(1543392418.299816) can0 0CFDD634#01000100FF00F0C3
(1543392418.307876) can0 0CFDD734#0100FFFFFFFFFFFF
(1543392418.315102) can0 0CFDD733#0100FFFFFFFFFFFF
(1543392418.319080) can0 0CFDD633#01000100FF00F0C3
(1543392418.320808) can0 0CFDD634#01000100FF00F0C3
(1543392418.327863) can0 0CFDD734#0100FFFFFFFFFFFF
(1543392418.335038) can0 0CFDD733#0100FFFFFFFFFFFF
(1543392418.335453) can0 628#018220F4E9700018
(1543392418.339988) can0 0CFDD633#01000100FF00F0C3
(1543392418.340775) can0 0CFDD634#01000100FF00F0C3
(1543392418.347794) can0 0CFDD734#0100FFFFFFFFFFFF
(1543392418.355988) can0 0CFDD733#0100FFFFFFFFFFFF
(1543392418.359977) can0 0CFDD633#01000100FF00F0C3
(1543392418.361728) can0 0CFDD634#01000100FF00F0C3
(1543392418.368779) can0 0CFDD734#0100FFFFFFFFFFFF
(1543392418.375110) can0 628#01FF1FC5E9760018
(1543392418.375986) can0 0CFDD733#0100FFFFFFFFFFFF
(1543392418.379949) can0 0CFDD633#01000100FF00F0C3
(1543392418.382725) can0 0CFDD634#01000100FF00F0C3
(1543392418.388638) can0 0CFDD734#0100FFFFFFFFFFFF
(1543392418.396877) can0 0CFDD733#0100FFFFFFFFFFFF
(1543392418.400900) can0 0CFDD633#01000100FF00F0C3
(1543392418.402663) can0 0CFDD634#01000100FF00F0C3
(1543392418.409699) can0 0CFDD734#0100FFFFFFFFFFFF
(1543392418.415112) can0 628#016620E1E9890018
(1543392418.416850) can0 0CFDD733#0100FFFFFFFFFFFF
(1543392418.420848) can0 0CFDD633#01000100FF00F0C3
(1543392418.423629) can0 0CFDD634#01000100FF00F0C3
(1543392418.430674) can0 0CFDD734#0100FFFFFFFFFFFF
(1543392418.437836) can0 0CFDD733#0100FFFFFFFFFFFF
(1543392418.441844) can0 0CFDD633#01000100FF00F0C3
(1543392418.443622) can0 0CFDD634#01000100FF00F0C3
(1543392418.450537) can0 0CFDD734#0100FFFFFFFFFFFF
(1543392418.455042) can0 628#018B200CEA7C0018
(1543392418.457781) can0 0CFDD733#0100FFFFFFFFFFFF
(1543392418.462772) can0 0CFDD633#01000100FF00F0C3
(1543392418.463562) can0 0CFDD634#01000100FF00F0C3
(1543392418.470540) can0 0CFDD734#0100FFFFFFFFFFFF
(1543392418.478789) can0 0CFDD733#0100FFFFFFFFFFFF
(1543392418.482756) can0 0CFDD633#01000100FF00F0C3
(1543392418.484559) can0 0CFDD634#01000100FF00F0C3
(1543392418.491565) can0 0CFDD734#0100FFFFFFFFFFFF
(1543392418.495045) can0 628#010A20C2E96C0018
(1543392418.498765) can0 0CFDD733#0100FFFFFFFFFFFF
(1543392418.502793) can0 0CFDD633#01000100FF00F0C3
(1543392418.505476) can0 0CFDD634#01000100FF00F0C3
(1543392418.511476) can0 0CFDD734#0100FFFFFFFFFFFF
(1543392418.519720) can0 0CFDD733#0100FFFFFFFFFFFF
(1543392418.523754) can0 0CFDD633#01000100FF00F0C3
(1543392418.525422) can0 0CFDD634#01000100FF00F0C3
(1543392418.532491) can0 0CFDD734#0100FFFFFFFFFFFF
(1543392418.535039) can0 628#016D20FFE9830018
(1543392418.539698) can0 0CFDD733#0100FFFFFFFFFFFF
(1543392418.543728) can0 0CFDD633#01000100FF00F0C3
(1543392418.546460) can0 0CFDD634#01000100FF00F0C3
(1543392418.552373) can0 0CFDD734#0100FFFFFFFFFFFF
(1543392418.560653) can0 0CFDD733#0100FFFFFFFFFFFF
(1543392418.564625) can0 0CFDD633#01000100FF00F0C3
(1543392418.567413) can0 0CFDD634#01000100FF00F0C3
(1543392418.573435) can0 0CFDD734#0100FFFFFFFFFFFF
(1543392418.575030) can0 628#01962008EA6A0018
(1543392418.580626) can0 0CFDD733#0100FFFFFFFFFFFF
(1543392418.584645) can0 0CFDD633#01000100FF00F0C3
(1543392418.587349) can0 0CFDD634#01000100FF00F0C3
(1543392418.593384) can0 0CFDD734#0100FFFFFFFFFFFF
(1543392418.601608) can0 0CFDD733#0100FFFFFFFFFFFF
(1543392418.605623) can0 0CFDD633#01000100FF00F0C3
(1543392418.607320) can0 0CFDD634#01000100FF00F0C3
(1543392418.614356) can0 0CFDD734#0100FFFFFFFFFFFF
(1543392418.615112) can0 628#011820CBE9760018
(1543392418.621553) can0 0CFDD733#0100FFFFFFFFFFFF
(1543392418.625561) can0 0CFDD633#01000100FF00F0C3
(1543392418.628244) can0 0CFDD634#01000100FF00F0C3
(1543392418.634308) can0 0CFDD734#0100FFFFFFFFFFFF
(1543392418.642527) can0 0CFDD733#0100FFFFFFFFFFFF
(1543392418.646537) can0 0CFDD633#01000100FF00F0C3
(1543392418.648240) can0 0CFDD634#01000100FF00F0C3
(1543392418.655114) can0 628#01802012EA7F0018
(1543392418.655655) can0 0CFDD734#0100FFFFFFFFFFFF
(1543392418.663538) can0 0CFDD733#0100FFFFFFFFFFFF
(1543392418.666478) can0 0CFDD633#01000100FF00F0C3
(1543392418.669224) can0 0CFDD634#01000100FF00F0C3
(1543392418.675164) can0 0CFDD734#0100FFFFFFFFFFFF
(1543392418.683466) can0 0CFDD733#0100FFFFFFFFFFFF
(1543392418.687474) can0 0CFDD633#01000100FF00F0C3
(1543392418.689162) can0 0CFDD634#01000100FF00F0C3
(1543392418.695087) can0 628#018A2006EA700018
(1543392418.696188) can0 0CFDD734#0100FFFFFFFFFFFF
(1543392418.703485) can0 0CFDD733#0100FFFFFFFFFFFF
(1543392418.707463) can0 0CFDD633#01000100FF00F0C3
(1543392418.710127) can0 0CFDD634#01000100FF00F0C3
(1543392418.717128) can0 0CFDD734#0100FFFFFFFFFFFF
(1543392418.724387) can0 0CFDD733#0100FFFFFFFFFFFF
(1543392418.728436) can0 0CFDD633#01000100FF00F0C3
(1543392418.730030) can0 0CFDD634#01000100FF00F0C3
(1543392418.735113) can0 628#012F20EFE97A0018
(1543392418.737070) can0 0CFDD734#0100FFFFFFFFFFFF
(1543392418.744406) can0 0CFDD733#0100FFFFFFFFFFFF
(1543392418.749290) can0 0CFDD633#01000100FF00F0C3
(1543392418.750025) can0 0CFDD634#01000100FF00F0C3
(1543392418.757024) can0 0CFDD734#0100FFFFFFFFFFFF
(1543392418.765358) can0 0CFDD733#0100FFFFFFFFFFFF
(1543392418.769327) can0 0CFDD633#01000100FF00F0C3
(1543392418.771124) can0 0CFDD634#01000100FF00F0C3
(1543392418.775115) can0 628#01892014EA6F0018
(1543392418.778056) can0 0CFDD734#0100FFFFFFFFFFFF
(1543392418.785246) can0 0CFDD733#0100FFFFFFFFFFFF
(1543392418.789210) can0 0CFDD633#01000100FF00F0C3
(1543392418.790919) can0 0CFDD634#01000100FF00F0C3
(1543392418.797941) can0 0CFDD734#0100FFFFFFFFFFFF
(1543392418.806205) can0 0CFDD733#0100FFFFFFFFFFFF
(1543392418.810215) can0 0CFDD633#01000100FF00F0C3
(1543392418.810946) can0 0CFDD634#01000100FF00F0C3
(1543392418.815102) can0 628#0184200DEA640018
(1543392418.818887) can0 0CFDD734#0100FFFFFFFFFFFF
(1543392418.826231) can0 0CFDD733#0100FFFFFFFFFFFF
(1543392418.830205) can0 0CFDD633#01000100FF00F0C3
(1543392418.830928) can0 0CFDD634#01000100FF00F0C3
(1543392418.838906) can0 0CFDD734#0100FFFFFFFFFFFF
(1543392418.847246) can0 0CFDD733#0100FFFFFFFFFFFF
(1543392418.851189) can0 0CFDD633#01000100FF00F0C3
(1543392418.851894) can0 0CFDD634#01000100FF00F0C3
(1543392418.855141) can0 628#01482000EA7D0018
(1543392418.859860) can0 0CFDD734#0100FFFFFFFFFFFF
(1543392418.867133) can0 0CFDD733#0100FFFFFFFFFFFF
(1543392418.871081) can0 0CFDD633#01000100FF00F0C3
(1543392418.871810) can0 0CFDD634#01000100FF00F0C3
(1543392418.879792) can0 0CFDD734#0100FFFFFFFFFFFF
(1543392418.888149) can0 0CFDD733#0100FFFFFFFFFFFF
(1543392418.892130) can0 0CFDD633#01000100FF00F0C3
(1543392418.892871) can0 0CFDD634#01000100FF00F0C3
(1543392418.895079) can0 628#018B2017EA6E0018
(1543392418.900812) can0 0CFDD734#0100FFFFFFFFFFFF
(1543392418.908133) can0 0CFDD733#0100FFFFFFFFFFFF
(1543392418.912114) can0 0CFDD633#01000100FF00F0C3
(1543392418.913755) can0 0CFDD634#01000100FF00F0C3
(1543392418.920757) can0 0CFDD734#0100FFFFFFFFFFFF
(1543392418.929121) can0 0CFDD733#0100FFFFFFFFFFFF
(1543392418.933116) can0 0CFDD633#01000100FF00F0C3
(1543392418.933801) can0 0CFDD634#01000100FF00F0C3
(1543392418.935087) can0 628#01892027EA660018
(1543392418.935781) can0 18FECA34#00FF00000000FFFF
(1543392418.941734) can0 0CFDD734#0100FFFFFFFFFFFF
(1543392418.949122) can0 0CFDD733#0100FFFFFFFFFFFF
(1543392418.952982) can0 0CFDD633#01000100FF00F0C3
(1543392418.953774) can0 0CFDD634#01000100FF00F0C3
