(1542702295.261586) can0 628#0149FFA8FF1B081D
(1542702295.301584) can0 628#010D00060037011D
(1542702295.341699) can0 628#0133FDFFFF7CFD1D
(1542702295.381590) can0 628#016FFD6BFF26011D
(1542702295.421663) can0 628#0167FD83FFB4001D
(1542702295.461717) can0 628#01DBFC6AFFF1FD1D
(1542702295.501688) can0 628#0129FD920036FF1D
(1542702295.541728) can0 628#01CCF871FF84021D
(1542702295.581726) can0 628#015BF9E80003021D
(1542702295.621804) can0 628#01C4FCFA02F1FE1D
(1542702295.661756) can0 628#015DFE52042EFC1D
(1542702295.701751) can0 628#016EFFD70245FB1D
(1542702295.741757) can0 628#01DAFFBC010BFE1D
(1542702295.781885) can0 628#011101F50114FC1D
(1542702295.821729) can0 628#011B004B0227FB1D
(1542702295.861780) can0 628#017AFFAF028BFE1D
(1542702295.901801) can0 628#018AFFB90421FF1D
(1542702295.941723) can0 628#012B017905C1021D
(1542702295.981755) can0 628#015400690797071D
(1542702296.021748) can0 628#01CB019207D8041D
(1542702296.061863) can0 628#01B0026E094EFE1D
(1542702296.101804) can0 628#0155FFF80B1B001D
(1542702296.141850) can0 628#018300520B90011D
(1542702296.181877) can0 628#0184FF3A12DAFD1D
(1542702296.221976) can0 628#01F4009813F1FB1D
(1542702296.261876) can0 628#018702E81914F91D
(1542702296.301901) can0 628#0175041B1B7DF51D
(1542702296.341806) can0 628#018401091D52F61D
(1542702296.381828) can0 628#01BB01811FC8051D
(1542702296.421917) can0 628#01B402CF2045011D
(1542702296.461862) can0 628#014D02BE2217071D
(1542702296.501990) can0 628#010D02D025FB091D
(1542702296.541875) can0 628#01AA03F423CE071D
(1542702296.581879) can0 628#01D402C82BBD001D
(1542702296.621948) can0 628#018F03012746031D
(1542702296.661908) can0 628#016D040B2A6AF61D
(1542702296.701929) can0 628#010FFFD523AA001D
(1542702296.741983) can0 628#017500262522081D
(1542702296.782077) can0 628#018803D72396031D
(1542702296.821978) can0 628#013B02A124D0FE1D
(1542702296.862003) can0 628#016C0054260F031D
(1542702296.901970) can0 628#016C0377251D001D
(1542702296.942087) can0 628#0167029626A7FC1D
(1542702296.982065) can0 628#01C3018E25F9FB1D
(1542702297.021988) can0 628#01860143277FFE1D
(1542702297.062057) can0 628#01E002A62664FE1D
(1542702297.102018) can0 628#017C03BE256FF91D
(1542702297.142082) can0 628#01E601B92616FA1D
(1542702297.182041) can0 628#01F703A223FEF81D
(1542702297.222108) can0 628#012B022D26FFFB1D
(1542702297.262081) can0 628#011D04E12646FE1D
(1542702297.302151) can0 628#01C803E8250D001D
(1542702297.342155) can0 628#019703782569021D
(1542702297.382238) can0 628#01B604C220E7FF1D
(1542702297.422100) can0 628#01C804D921D2F81D
(1542702297.462165) can0 628#01A000381E11FE1D
(1542702297.502191) can0 628#014C02821E19071D
(1542702297.542207) can0 628#016204B51AC1011D
(1542702297.582228) can0 628#012601391790041D
(1542702297.622232) can0 628#0142FF9313A90D1D
(1542702297.662331) can0 628#017E013E11D60A1D
(1542702297.702252) can0 628#012B010208B2181D
(1542702297.742276) can0 628#01CE043E023E0E1D
(1542702297.782307) can0 628#015A022000B80A1D
(1542702297.822223) can0 628#018104480075071D
(1542702297.862302) can0 628#018B027203CCFE1D
(1542702297.902301) can0 628#019EFFEE027B011D
(1542702297.942379) can0 628#0142002A029E041D
(1542702297.982326) can0 628#01C40094031DFE1D
(1542702298.022357) can0 628#012BFF60032DFF1D
(1542702298.062352) can0 628#016CFE690405021D
(1542702298.102456) can0 628#010900FC0337021D
(1542702298.142380) can0 628#0102FFEE0332051D
(1542702298.182334) can0 628#018B015204C3041D
(1542702298.222407) can0 628#01F40112017BFF1D
(1542702298.262402) can0 628#01EC00000143011D
(1542702298.302402) can0 628#01C60034FEAEFE1D
(1542702298.342432) can0 628#014400FF00FAFF1D
(1542702298.382508) can0 628#014BFEC0003E031D
(1542702298.422456) can0 628#015B0014003D011D
(1542702298.462451) can0 628#01B9003BFF04FD1D
(1542702298.502451) can0 628#014DFFF6FC13FB1D
(1542702298.542559) can0 628#01A8FEECFDACFF1D
(1542702298.582481) can0 628#01F10167F8DEFF1D
(1542702298.622505) can0 628#01EFFDD9F6DD001D
(1542702298.662477) can0 628#0179001EF617F91D
(1542702298.702501) can0 628#013AFEFFF0F4FC1D
(1542702298.742531) can0 628#0169FFCAED72FD1D
(1542702298.782500) can0 628#011BFEA6EAE3071D
(1542702298.822638) can0 628#01CBFEB5E649081D
(1542702298.862550) can0 628#01E1FFB7E442061D
(1542702298.902550) can0 628#010EFE64E4F5031D
(1542702298.942642) can0 628#01B8FDD0E198061D
(1542702298.982636) can0 628#0184FC5DDDCD001D
(1542702299.022640) can0 628#014DFCEDDC04FF1D
(1542702299.062639) can0 628#013DFCB4DC02001D
(1542702299.102660) can0 628#0121FBF9D4A6091D
(1542702299.142638) can0 628#0170FFEFD888071D
(1542702299.182633) can0 628#0106FFBAD99F081D
(1542702299.222638) can0 628#019EFF8BDA18041D
(1542702299.262716) can0 628#0116FEC1DB37001D
(1542702299.302637) can0 628#0175FEBCDBEE001D
(1542702299.342664) can0 628#010DFF9BDC76FF1D
(1542702299.382688) can0 628#010BFFE7DA8E021D
(1542702299.422687) can0 628#01B9FF6ADA09021D
(1542702299.462713) can0 628#0157FF38DA08001D
(1542702299.502709) can0 628#0124FFE3D858001D
(1542702299.542790) can0 628#011FFFE2D931FE1D
(1542702299.582709) can0 628#0184FFF9DB68F91D
(1542702299.622734) can0 628#0135FE67DA2EFA1D
(1542702299.662737) can0 628#01D6FDC0DAF7F71D
(1542702299.702837) can0 628#01ECFD4DDA40F91D
(1542702299.742761) can0 628#017CFD2AD922F81D
(1542702299.782786) can0 628#01DCFCC7DB13F61D
(1542702299.822764) can0 628#01ECFB1CDE01F81D
(1542702299.862788) can0 628#017EFB99DF2BF81D
(1542702299.902796) can0 628#01E0FA88E47AF81D
(1542702299.942805) can0 628#01DCFAE8E873FB1D
(1542702299.982912) can0 628#01B2F968EBCEFE1D
(1542702300.022832) can0 628#0195FC25F20A061D
(1542702300.062837) can0 628#010601A5F54F071D
(1542702300.102811) can0 628#01C1FD07F663F41D
(1542702300.142802) can0 628#012FFC53F851F91D
(1542702300.182861) can0 628#0172FF6BFAEA011D
(1542702300.222887) can0 628#01B2FE6DF656FD1D
(1542702300.262964) can0 628#011FFF1FF831001D
(1542702300.302907) can0 628#0116FEC0F668011D
(1542702300.342907) can0 628#010EFC76F659091D
(1542702300.382937) can0 628#01E1FE4FF714011D
(1542702300.423037) can0 628#01CEFDDEF8D7FE1D
(1542702300.462931) can0 628#0191028FF9E5F01D
(1542702300.502931) can0 628#016CFFB9FB69E61D
(1542702300.542961) can0 628#014BFA20008B091D
(1542702300.582987) can0 628#013207F401A10A1D
(1542702300.622981) can0 628#01250449FFCDFA1D
(1542702300.662971) can0 628#01B9035B04E5051D
(1542702300.703074) can0 628#01E304FF0791F71D
(1542702300.742999) can0 628#016F06750BC5F51D
(1542702300.783037) can0 628#01C30304100FEE1D
(1542702300.822991) can0 628#01FF03E2175C011D
(1542702300.863139) can0 628#01FE04D213F5FC1D
(1542702300.903057) can0 628#01EC05E3168EFD1D
(1542702300.943035) can0 628#0126042A1ADF0A1D
(1542702300.983037) can0 628#01B807AD20410A1D
(1542702301.023036) can0 628#018D06D42379041D
(1542702301.063071) can0 628#016707D82463111D
(1542702301.103080) can0 628#01B508E92762031D
(1542702301.143142) can0 628#0181067F29230A1D
(1542702301.183108) can0 628#01B9083129C6121D
(1542702301.223134) can0 628#018F09BC27F5FF1D
(1542702301.263166) can0 628#0111026124B10F1D
(1542702301.303139) can0 628#01A5060A2438101D
(1542702301.343146) can0 628#0107037421CE101D
(1542702301.383065) can0 628#01C601171D4D0F1D
(1542702301.423143) can0 628#01EE015519E5111D
(1542702301.463177) can0 628#0149023D1A030D1D
(1542702301.503205) can0 628#017A02AE1353001D
(1542702301.543214) can0 628#01EE02490EA6EF1D
(1542702301.583317) can0 628#016E027A0523DC1D
(1542702301.623238) can0 628#01A8F9F4FD87F01D
(1542702301.663234) can0 628#015FFF1DFCCD071D
(1542702301.703163) can0 628#0185016BFB360E1D
(1542702301.743251) can0 628#018F046BF8450D1D
(1542702301.783251) can0 628#011E07BEF3560C1D
(1542702301.823261) can0 628#01B20463EE91191D
(1542702301.863391) can0 628#01FC0800EAA8161D
(1542702301.903282) can0 628#01840B75E789061D
(1542702301.943312) can0 628#01DD08FEE313F91D
(1542702301.983311) can0 628#01330358E440FF1D
(1542702302.023389) can0 628#01AC087AE5FFFE1D
(1542702302.063320) can0 628#017A09FEE047FC1D
(1542702302.103347) can0 628#01EA01C2E02D0F1D
(1542702302.143302) can0 628#01000B32E1770B1D
(1542702302.183371) can0 628#01690DC7E065FC1D
(1542702302.223348) can0 628#01640688DE8DF91D
(1542702302.263320) can0 628#01E201C6E28CFA1D
(1542702302.303474) can0 628#010D01ACE419F71D
(1542702302.343405) can0 628#012EFAD3E6F0171D
(1542702302.383410) can0 628#01690D90E408051D
(1542702302.423413) can0 628#01430528EB16E91D
(1542702302.463436) can0 628#01DCFC2AED86FB1D
(1542702302.503458) can0 628#01CC0018EE03FD1D
(1542702302.543456) can0 628#01EF0026F7E9F41D
(1542702302.583600) can0 628#0192FC94F6CEF91D
(1542702302.623486) can0 628#0117FE40FA29011D
(1542702302.663508) can0 628#010D00DCFC5DFA1D
(1542702302.703508) can0 628#01E3FB1AFD26FC1D
(1542702302.743619) can0 628#0131FE9DFEFBFD1D
(1542702302.783506) can0 628#0195FC41FE68FD1D
(1542702302.823596) can0 628#0196FDE600CFFD1D
(1542702302.863596) can0 628#011AFDB20033FD1D
(1542702302.903591) can0 628#016AFC40026EFF1D
(1542702302.943591) can0 628#0123FD2103E5FF1D
(1542702302.983590) can0 628#0117FD62014F031D
(1542702303.023673) can0 628#0166FD4E0012081D
(1542702303.063590) can0 628#0154F86EFC4D1A1D
(1542702303.103588) can0 628#0168FB64FB5F321D
(1542702303.143575) can0 628#01510985FDF21E1D
(1542702303.183692) can0 628#01210D1BF2DB051D
(1542702303.223614) can0 628#01050D04E664F61D
(1542702303.263614) can0 628#01970D32E5D1EE1D
(1542702303.303629) can0 628#01390879E510F51D
(1542702303.343654) can0 628#0103076DE2D5F81D
(1542702303.383630) can0 628#017308E4E376F71D
(1542702303.423663) can0 628#0154093CE375F61D
(1542702303.463772) can0 628#01370B26E20FF71D
(1542702303.503688) can0 628#01280CE2E1F8F41D
(1542702303.543718) can0 628#01510857E1CFF31D
(1542702303.583740) can0 628#011D0CD9E250F41D
(1542702303.623713) can0 628#01F60326EAD4F21D
(1542702303.663739) can0 628#014AFFDAEDBCF61D
(1542702303.703738) can0 628#01A00108F29FF11D
(1542702303.743848) can0 628#01D200F9F27FEB1D
(1542702303.783767) can0 628#019B0254F461E11D
(1542702303.823715) can0 628#013C0039F83EDD1D
(1542702303.863793) can0 628#01540050FEEBDC1D
(1542702303.903891) can0 628#01E400CD0597DB1D
(1542702303.943816) can0 628#016DFEE00993E21D
(1542702303.983819) can0 628#01E5FE560D9BEB1D
(1542702304.023844) can0 628#0146035415C3ED1D
(1542702304.063843) can0 628#0170011E1D04F51D
(1542702304.103839) can0 628#019E02481EA0F91D
(1542702304.143863) can0 628#01DF045F28C3F71D
(1542702304.183940) can0 628#017B06A02B6FFC1D
(1542702304.223888) can0 628#013A082B29E9F41D
(1542702304.263887) can0 628#01AD068D2C8CF71D
(1542702304.303888) can0 628#010908882C09FD1D
(1542702304.343980) can0 628#01F7042328B5031D
(1542702304.383909) can0 628#011F0B5929D4FC1D
(1542702304.423916) can0 628#015309A22519EC1D
(1542702304.463942) can0 628#013B035E23D4F71D
(1542702304.503943) can0 628#01E40731218AFD1D
(1542702304.543945) can0 628#010305621EA5FE1D
(1542702304.583952) can0 628#010F07561CDB051D
(1542702304.624059) can0 628#01C2083D1C21F51D
(1542702304.663923) can0 628#017606E81528FC1D
(1542702304.704008) can0 628#01B607DD1334041D
(1542702304.744036) can0 628#0126039D0CB7F51D
(1542702304.784017) can0 628#0185FE8D0746081D
(1542702304.824042) can0 628#016BFE6301260C1D
(1542702304.864054) can0 628#01AAFDDCFE69171D
(1542702304.904105) can0 628#016901A002AE101D
(1542702304.944070) can0 628#01ECFC1506AB051D
(1542702304.984069) can0 628#016BFA5004EE071D
(1542702305.024095) can0 628#01D1FA54015E0C1D
(1542702305.064070) can0 628#019DFD13FE5C061D
(1542702305.104014) can0 628#011AFF82FC6A031D
(1542702305.144015) can0 628#0148FF85FC04041D
(1542702305.184037) can0 628#017DFDE7FB08061D
(1542702305.224036) can0 628#0172FD03FDE9011D
(1542702305.264036) can0 628#01E5FEE4FB8CFF1D
(1542702305.304042) can0 628#0125FEAEFCB5FE1D
(1542702305.344114) can0 628#0196FD34FC6AFF1D
(1542702305.384061) can0 628#0146FD4AFD0CFF1D
(1542702305.424086) can0 628#018EFC13FEDB011D
(1542702305.464112) can0 628#01E0FDF8FCDBFD1D
(1542702305.504189) can0 628#0166FDFAFCA2FF1D
(1542702305.544112) can0 628#013EFEBEFC8B001D
