(1542708346.365953) can0 0CFDD634#01000100FF00F0C3
(1542708346.368958) can0 0CFDD633#01000100FF00F0C3
(1542708346.369969) can0 0CFDD734#0100FFFFFFFFFFFF
(1542708346.370989) can0 0CFDD733#0100FFFFFFFFFFFF
(1542708346.372353) can0 628#015201ECD837001B
(1542708346.385911) can0 0CFDD634#01000100FF00F0C3
(1542708346.388952) can0 0CFDD633#01000100FF00F0C3
(1542708346.389961) can0 0CFDD734#0100FFFFFFFFFFFF
(1542708346.390960) can0 0CFDD733#0100FFFFFFFFFFFF
(1542708346.406888) can0 0CFDD634#01000100FF00F0C3
(1542708346.409917) can0 0CFDD633#01000100FF00F0C3
(1542708346.410938) can0 0CFDD734#0100FFFFFFFFFFFF
(1542708346.411914) can0 0CFDD733#0100FFFFFFFFFFFF
(1542708346.412390) can0 628#014C01E6D82D001B
(1542708346.427899) can0 0CFDD634#01000100FF00F0C3
(1542708346.430944) can0 0CFDD633#01000100FF00F0C3
(1542708346.431945) can0 0CFDD734#0100FFFFFFFFFFFF
(1542708346.432970) can0 0CFDD733#0100FFFFFFFFFFFF
(1542708346.447838) can0 0CFDD634#01000100FF00F0C3
(1542708346.450899) can0 0CFDD633#01000100FF00F0C3
(1542708346.451926) can0 0CFDD734#0100FFFFFFFFFFFF
(1542708346.452445) can0 628#013B01ECD830001B
(1542708346.453914) can0 0CFDD733#0100FFFFFFFFFFFF
(1542708346.468791) can0 0CFDD634#01000100FF00F0C3
(1542708346.470778) can0 0CFDD633#01000100FF00F0C3
(1542708346.471804) can0 0CFDD734#0100FFFFFFFFFFFF
(1542708346.474835) can0 0CFDD733#0100FFFFFFFFFFFF
(1542708346.488740) can0 0CFDD634#01000100FF00F0C3
(1542708346.491786) can0 0CFDD633#01000100FF00F0C3
(1542708346.492418) can0 628#014D01EAD82C001B
(1542708346.493014) can0 0CFDD734#0100FFFFFFFFFFFF
(1542708346.494815) can0 0CFDD733#0100FFFFFFFFFFFF
(1542708346.508747) can0 0CFDD634#01000100FF00F0C3
(1542708346.511773) can0 0CFDD633#01000100FF00F0C3
(1542708346.512764) can0 0CFDD734#0100FFFFFFFFFFFF
(1542708346.514773) can0 0CFDD733#0100FFFFFFFFFFFF
(1542708346.529680) can0 0CFDD634#01000100FF00F0C3
(1542708346.532451) can0 628#014F01E7D82B001B
(1542708346.532967) can0 0CFDD633#01000100FF00F0C3
(1542708346.533784) can0 0CFDD734#0100FFFFFFFFFFFF
(1542708346.534794) can0 0CFDD733#0100FFFFFFFFFFFF
(1542708346.549683) can0 0CFDD634#01000100FF00F0C3
(1542708346.552768) can0 0CFDD633#01000100FF00F0C3
(1542708346.554769) can0 0CFDD734#0100FFFFFFFFFFFF
(1542708346.555732) can0 0CFDD733#0100FFFFFFFFFFFF
(1542708346.570676) can0 0CFDD634#01000100FF00F0C3
(1542708346.572407) can0 628#014001EAD82D001B
(1542708346.573670) can0 0CFDD633#01000100FF00F0C3
(1542708346.574670) can0 0CFDD734#0100FFFFFFFFFFFF
(1542708346.576678) can0 0CFDD733#0100FFFFFFFFFFFF
(1542708346.590597) can0 0CFDD634#01000100FF00F0C3
(1542708346.594604) can0 0CFDD633#01000100FF00F0C3
(1542708346.595599) can0 0CFDD734#0100FFFFFFFFFFFF
(1542708346.596701) can0 0CFDD733#0100FFFFFFFFFFFF
(1542708346.611559) can0 0CFDD634#01000100FF00F0C3
(1542708346.612439) can0 628#014A01E8D83E001B
(1542708346.614622) can0 0CFDD633#01000100FF00F0C3
(1542708346.615604) can0 0CFDD734#0100FFFFFFFFFFFF
(1542708346.617650) can0 0CFDD733#0100FFFFFFFFFFFF
(1542708346.631579) can0 0CFDD634#01000100FF00F0C3
(1542708346.634607) can0 0CFDD633#01000100FF00F0C3
(1542708346.635603) can0 0CFDD734#0100FFFFFFFFFFFF
(1542708346.637592) can0 0CFDD733#0100FFFFFFFFFFFF
(1542708346.652466) can0 0CFDD634#01000100FF00F0C3
(1542708346.652934) can0 628#014E01E4D835001B
(1542708346.654489) can0 0CFDD633#01000100FF00F0C3
(1542708346.656465) can0 0CFDD734#0100FFFFFFFFFFFF
(1542708346.657511) can0 0CFDD733#0100FFFFFFFFFFFF
(1542708346.672434) can0 0CFDD634#01000100FF00F0C3
(1542708346.675469) can0 0CFDD633#01000100FF00F0C3
(1542708346.676476) can0 0CFDD734#0100FFFFFFFFFFFF
(1542708346.677500) can0 0CFDD733#0100FFFFFFFFFFFF
(1542708346.692479) can0 628#014201EAD836001B
(1542708346.693478) can0 0CFDD634#01000100FF00F0C3
(1542708346.696444) can0 0CFDD633#01000100FF00F0C3
(1542708346.697505) can0 0CFDD734#0100FFFFFFFFFFFF
(1542708346.698023) can0 18FECA34#00FF00000000FFFF
(1542708346.698608) can0 0CFDD733#0100FFFFFFFFFFFF
(1542708346.714433) can0 0CFDD634#01000100FF00F0C3
(1542708346.716419) can0 0CFDD633#01000100FF00F0C3
(1542708346.717460) can0 0CFDD734#0100FFFFFFFFFFFF
(1542708346.718486) can0 0CFDD733#0100FFFFFFFFFFFF
(1542708346.732545) can0 628#014901EAD836001B
(1542708346.733492) can0 18FECA33#00FF00000000FFFF
(1542708346.734414) can0 0CFDD634#01000100FF00F0C3
(1542708346.737440) can0 0CFDD633#01000100FF00F0C3
(1542708346.738368) can0 0CFDD734#0100FFFFFFFFFFFF
(1542708346.739403) can0 0CFDD733#0100FFFFFFFFFFFF
(1542708346.755326) can0 0CFDD634#01000100FF00F0C3
(1542708346.757327) can0 0CFDD633#01000100FF00F0C3
(1542708346.758328) can0 0CFDD734#0100FFFFFFFFFFFF
(1542708346.760352) can0 0CFDD733#0100FFFFFFFFFFFF
(1542708346.772422) can0 628#015201E8D82E001B
(1542708346.775231) can0 0CFDD634#01000100FF00F0C3
(1542708346.778301) can0 0CFDD633#01000100FF00F0C3
(1542708346.779297) can0 0CFDD734#0100FFFFFFFFFFFF
(1542708346.780327) can0 0CFDD733#0100FFFFFFFFFFFF
(1542708346.795195) can0 0CFDD634#01000100FF00F0C3
(1542708346.798329) can0 0CFDD633#01000100FF00F0C3
(1542708346.799256) can0 0CFDD734#0100FFFFFFFFFFFF
(1542708346.800318) can0 0CFDD733#0100FFFFFFFFFFFF
(1542708346.812486) can0 628#014301EAD839001B
(1542708346.816262) can0 0CFDD634#01000100FF00F0C3
(1542708346.819284) can0 0CFDD633#01000100FF00F0C3
(1542708346.820251) can0 0CFDD734#0100FFFFFFFFFFFF
(1542708346.821263) can0 0CFDD733#0100FFFFFFFFFFFF
(1542708346.836203) can0 0CFDD634#01000100FF00F0C3
(1542708346.839227) can0 0CFDD633#01000100FF00F0C3
(1542708346.840186) can0 0CFDD734#0100FFFFFFFFFFFF
(1542708346.841241) can0 0CFDD733#0100FFFFFFFFFFFF
(1542708346.852524) can0 628#014801EAD833001B
(1542708346.857175) can0 0CFDD634#01000100FF00F0C3
(1542708346.860175) can0 0CFDD633#01000100FF00F0C3
(1542708346.861149) can0 0CFDD734#0100FFFFFFFFFFFF
(1542708346.862265) can0 0CFDD733#0100FFFFFFFFFFFF
(1542708346.878157) can0 0CFDD634#01000100FF00F0C3
(1542708346.880213) can0 0CFDD633#01000100FF00F0C3
(1542708346.881184) can0 0CFDD734#0100FFFFFFFFFFFF
(1542708346.882172) can0 0CFDD733#0100FFFFFFFFFFFF
(1542708346.892629) can0 628#014F01E5D829001B
(1542708346.898136) can0 0CFDD634#01000100FF00F0C3
(1542708346.901158) can0 0CFDD633#01000100FF00F0C3
(1542708346.902092) can0 0CFDD734#0100FFFFFFFFFFFF
(1542708346.903172) can0 0CFDD733#0100FFFFFFFFFFFF
(1542708346.919078) can0 0CFDD634#01000100FF00F0C3
(1542708346.921135) can0 0CFDD633#01000100FF00F0C3
(1542708346.922105) can0 0CFDD734#0100FFFFFFFFFFFF
(1542708346.923146) can0 0CFDD733#0100FFFFFFFFFFFF
(1542708346.932550) can0 628#014001EBD830001B
(1542708346.939017) can0 0CFDD634#01000100FF00F0C3
(1542708346.942068) can0 0CFDD633#01000100FF00F0C3
(1542708346.943007) can0 0CFDD734#0100FFFFFFFFFFFF
(1542708346.944047) can0 0CFDD733#0100FFFFFFFFFFFF
(1542708346.959000) can0 0CFDD634#01000100FF00F0C3
(1542708346.962078) can0 0CFDD633#01000100FF00F0C3
(1542708346.962991) can0 0CFDD734#0100FFFFFFFFFFFF
(1542708346.964041) can0 0CFDD733#0100FFFFFFFFFFFF
(1542708346.972549) can0 628#014401ECD82A001B
(1542708346.979979) can0 0CFDD634#01000100FF00F0C3
(1542708346.983052) can0 0CFDD633#01000100FF00F0C3
(1542708346.983948) can0 0CFDD734#0100FFFFFFFFFFFF
(1542708346.984962) can0 0CFDD733#0100FFFFFFFFFFFF
(1542708347.000925) can0 0CFDD634#01000100FF00F0C3
(1542708347.003918) can0 0CFDD633#01000100FF00F0C3
(1542708347.004885) can0 0CFDD734#0100FFFFFFFFFFFF
(1542708347.005990) can0 0CFDD733#0100FFFFFFFFFFFF
(1542708347.012580) can0 628#014F01E7D834001B
(1542708347.020805) can0 0CFDD634#01000100FF00F0C3
(1542708347.023889) can0 0CFDD633#01000100FF00F0C3
(1542708347.024834) can0 0CFDD734#0100FFFFFFFFFFFF
(1542708347.026881) can0 0CFDD733#0100FFFFFFFFFFFF
(1542708347.040791) can0 0CFDD634#01000100FF00F0C3
(1542708347.043824) can0 0CFDD633#01000100FF00F0C3
(1542708347.044812) can0 0CFDD734#0100FFFFFFFFFFFF
(1542708347.046873) can0 0CFDD733#0100FFFFFFFFFFFF
(1542708347.052477) can0 628#014601E9D83E001B
(1542708347.061757) can0 0CFDD634#01000100FF00F0C3
(1542708347.064809) can0 0CFDD633#01000100FF00F0C3
(1542708347.065748) can0 0CFDD734#0100FFFFFFFFFFFF
(1542708347.066823) can0 0CFDD733#0100FFFFFFFFFFFF
(1542708347.081702) can0 0CFDD634#01000100FF00F0C3
(1542708347.084777) can0 0CFDD633#01000100FF00F0C3
(1542708347.085745) can0 0CFDD734#0100FFFFFFFFFFFF
(1542708347.086803) can0 0CFDD733#0100FFFFFFFFFFFF
(1542708347.092540) can0 628#014301ECD82E001B
(1542708347.102706) can0 0CFDD634#01000100FF00F0C3
(1542708347.105770) can0 0CFDD633#01000100FF00F0C3
(1542708347.106719) can0 0CFDD734#0100FFFFFFFFFFFF
(1542708347.107758) can0 0CFDD733#0100FFFFFFFFFFFF
(1542708347.122710) can0 0CFDD634#01000100FF00F0C3
(1542708347.125747) can0 0CFDD633#01000100FF00F0C3
(1542708347.126677) can0 0CFDD734#0100FFFFFFFFFFFF
(1542708347.127722) can0 0CFDD733#0100FFFFFFFFFFFF
(1542708347.132515) can0 628#015201E8D829001B
(1542708347.143585) can0 0CFDD634#01000100FF00F0C3
(1542708347.146671) can0 0CFDD633#01000100FF00F0C3
(1542708347.147684) can0 0CFDD734#0100FFFFFFFFFFFF
(1542708347.148698) can0 0CFDD733#0100FFFFFFFFFFFF
(1542708347.163558) can0 0CFDD634#01000100FF00F0C3
(1542708347.166666) can0 0CFDD633#01000100FF00F0C3
(1542708347.167593) can0 0CFDD734#0100FFFFFFFFFFFF
(1542708347.168668) can0 0CFDD733#0100FFFFFFFFFFFF
(1542708347.172595) can0 628#014601E9D82C001B
(1542708347.184548) can0 0CFDD634#01000100FF00F0C3
(1542708347.187613) can0 0CFDD633#01000100FF00F0C3
(1542708347.188571) can0 0CFDD734#0100FFFFFFFFFFFF
(1542708347.189686) can0 0CFDD733#0100FFFFFFFFFFFF
(1542708347.204525) can0 0CFDD634#01000100FF00F0C3
(1542708347.207597) can0 0CFDD633#01000100FF00F0C3
(1542708347.208551) can0 0CFDD734#0100FFFFFFFFFFFF
(1542708347.209614) can0 0CFDD733#0100FFFFFFFFFFFF
(1542708347.212537) can0 628#014301EAD831001B
(1542708347.225483) can0 0CFDD634#01000100FF00F0C3
(1542708347.228561) can0 0CFDD633#01000100FF00F0C3
(1542708347.229488) can0 0CFDD734#0100FFFFFFFFFFFF
(1542708347.230583) can0 0CFDD733#0100FFFFFFFFFFFF
(1542708347.245431) can0 0CFDD634#01000100FF00F0C3
(1542708347.248525) can0 0CFDD633#01000100FF00F0C3
(1542708347.249445) can0 0CFDD734#0100FFFFFFFFFFFF
(1542708347.250554) can0 0CFDD733#0100FFFFFFFFFFFF
(1542708347.252578) can0 628#014E01E6D83E001B
(1542708347.266449) can0 0CFDD634#01000100FF00F0C3
(1542708347.269529) can0 0CFDD633#01000100FF00F0C3
(1542708347.270451) can0 0CFDD734#0100FFFFFFFFFFFF
(1542708347.271529) can0 0CFDD733#0100FFFFFFFFFFFF
(1542708347.287385) can0 0CFDD634#01000100FF00F0C3
(1542708347.289458) can0 0CFDD633#01000100FF00F0C3
(1542708347.290421) can0 0CFDD734#0100FFFFFFFFFFFF
(1542708347.291481) can0 0CFDD733#0100FFFFFFFFFFFF
(1542708347.292652) can0 628#014801E9D823001B
(1542708347.307418) can0 0CFDD634#01000100FF00F0C3
(1542708347.310411) can0 0CFDD633#01000100FF00F0C3
(1542708347.311330) can0 0CFDD734#0100FFFFFFFFFFFF
(1542708347.312489) can0 0CFDD733#0100FFFFFFFFFFFF
(1542708347.327319) can0 0CFDD634#01000100FF00F0C3
(1542708347.330410) can0 0CFDD633#01000100FF00F0C3
(1542708347.331357) can0 0CFDD734#0100FFFFFFFFFFFF
(1542708347.332497) can0 0CFDD733#0100FFFFFFFFFFFF
(1542708347.332890) can0 628#014401EBD839001B
(1542708347.348277) can0 0CFDD634#01000100FF00F0C3
(1542708347.351380) can0 0CFDD633#01000100FF00F0C3
(1542708347.352367) can0 0CFDD734#0100FFFFFFFFFFFF
(1542708347.353407) can0 0CFDD733#0100FFFFFFFFFFFF
(1542708347.368255) can0 0CFDD634#01000100FF00F0C3
(1542708347.371356) can0 0CFDD633#01000100FF00F0C3
(1542708347.372281) can0 0CFDD734#0100FFFFFFFFFFFF
(1542708347.372723) can0 628#013E01F3D812001B
(1542708347.373378) can0 0CFDD733#0100FFFFFFFFFFFF
(1542708347.389267) can0 0CFDD634#01000100FF00F0C3
(1542708347.392310) can0 0CFDD633#01000100FF00F0C3
(1542708347.393252) can0 0CFDD734#0100FFFFFFFFFFFF
(1542708347.394367) can0 0CFDD733#0100FFFFFFFFFFFF
(1542708347.409239) can0 0CFDD634#01000100FF00F0C3
(1542708347.412655) can0 628#0151030AD90CFE1B
(1542708347.413344) can0 0CFDD633#01000100FF00F0C3
(1542708347.414225) can0 0CFDD734#0100FFFFFFFFFFFF
(1542708347.415293) can0 0CFDD733#0100FFFFFFFFFFFF
(1542708347.430180) can0 0CFDD634#01000100FF00F0C3
(1542708347.434288) can0 0CFDD633#01000100FF00F0C3
(1542708347.435207) can0 0CFDD734#0100FFFFFFFFFFFF
(1542708347.436318) can0 0CFDD733#0100FFFFFFFFFFFF
(1542708347.451155) can0 0CFDD634#01000100FF00F0C3
(1542708347.452682) can0 628#0181061DD93CFA1B
(1542708347.454261) can0 0CFDD633#01000100FF00F0C3
(1542708347.456095) can0 0CFDD734#0100FFFFFFFFFFFF
(1542708347.457194) can0 0CFDD733#0100FFFFFFFFFFFF
(1542708347.471057) can0 0CFDD634#01000100FF00F0C3
(1542708347.475159) can0 0CFDD633#01000100FF00F0C3
(1542708347.476064) can0 0CFDD734#0100FFFFFFFFFFFF
(1542708347.478165) can0 0CFDD733#0100FFFFFFFFFFFF
(1542708347.491076) can0 0CFDD634#01000100FF00F0C3
(1542708347.492790) can0 628#01C502D6D8BEF71B
(1542708347.496116) can0 0CFDD633#01000100FF00F0C3
(1542708347.497105) can0 0CFDD734#0100FFFFFFFFFFFF
(1542708347.498206) can0 0CFDD733#0100FFFFFFFFFFFF
(1542708347.512010) can0 0CFDD634#01000100FF00F0C3
(1542708347.516071) can0 0CFDD633#01000100FF00F0C3
(1542708347.517041) can0 0CFDD734#0100FFFFFFFFFFFF
(1542708347.519118) can0 0CFDD733#0100FFFFFFFFFFFF
(1542708347.532715) can0 628#0130FD5AD92FF81B
(1542708347.533272) can0 0CFDD634#01000100FF00F0C3
(1542708347.537106) can0 0CFDD633#01000100FF00F0C3
(1542708347.538051) can0 0CFDD734#0100FFFFFFFFFFFF
(1542708347.539118) can0 0CFDD733#0100FFFFFFFFFFFF
(1542708347.552875) can0 0CFDD634#01000100FF00F0C3
(1542708347.557008) can0 0CFDD633#01000100FF00F0C3
(1542708347.557916) can0 0CFDD734#0100FFFFFFFFFFFF
(1542708347.560007) can0 0CFDD733#0100FFFFFFFFFFFF
(1542708347.572666) can0 628#0180FE1CD9F3F81B
(1542708347.573889) can0 0CFDD634#01000100FF00F0C3
(1542708347.577989) can0 0CFDD633#01000100FF00F0C3
(1542708347.578872) can0 0CFDD734#0100FFFFFFFFFFFF
(1542708347.579987) can0 0CFDD733#0100FFFFFFFFFFFF
(1542708347.594848) can0 0CFDD634#01000100FF00F0C3
(1542708347.597962) can0 0CFDD633#01000100FF00F0C3
(1542708347.598868) can0 0CFDD734#0100FFFFFFFFFFFF
(1542708347.600951) can0 0CFDD733#0100FFFFFFFFFFFF
(1542708347.612696) can0 628#018401AED83AF81B
(1542708347.615788) can0 0CFDD634#01000100FF00F0C3
(1542708347.618927) can0 0CFDD633#01000100FF00F0C3
(1542708347.619845) can0 0CFDD734#0100FFFFFFFFFFFF
(1542708347.620951) can0 0CFDD733#0100FFFFFFFFFFFF
(1542708347.635776) can0 0CFDD634#01000100FF00F0C3
(1542708347.638900) can0 0CFDD633#01000100FF00F0C3
(1542708347.639793) can0 0CFDD734#0100FFFFFFFFFFFF
(1542708347.641932) can0 0CFDD733#0100FFFFFFFFFFFF
(1542708347.652753) can0 628#0128FEF9D8D3F71B
(1542708347.656779) can0 0CFDD634#01000100FF00F0C3
(1542708347.659847) can0 0CFDD633#01000100FF00F0C3
(1542708347.660776) can0 0CFDD734#0100FFFFFFFFFFFF
(1542708347.661863) can0 0CFDD733#0100FFFFFFFFFFFF
(1542708347.676753) can0 0CFDD634#01000100FF00F0C3
(1542708347.679801) can0 0CFDD633#01000100FF00F0C3
(1542708347.680696) can0 0CFDD734#0100FFFFFFFFFFFF
(1542708347.681847) can0 0CFDD733#0100FFFFFFFFFFFF
(1542708347.692701) can0 628#01A9FB99D99DF81B
(1542708347.695677) can0 18FECA34#00FF00000000FFFF
(1542708347.697679) can0 0CFDD634#01000100FF00F0C3
(1542708347.700750) can0 0CFDD633#01000100FF00F0C3
(1542708347.701718) can0 0CFDD734#0100FFFFFFFFFFFF
(1542708347.702794) can0 0CFDD733#0100FFFFFFFFFFFF
(1542708347.717669) can0 0CFDD634#01000100FF00F0C3
(1542708347.720714) can0 0CFDD633#01000100FF00F0C3
(1542708347.721713) can0 0CFDD734#0100FFFFFFFFFFFF
(1542708347.723742) can0 0CFDD733#0100FFFFFFFFFFFF
(1542708347.731757) can0 18FECA33#00FF00000000FFFF
(1542708347.732672) can0 628#0109FEF7D89FF81B
(1542708347.738571) can0 0CFDD634#01000100FF00F0C3
(1542708347.741690) can0 0CFDD633#01000100FF00F0C3
(1542708347.742606) can0 0CFDD734#0100FFFFFFFFFFFF
(1542708347.743693) can0 0CFDD733#0100FFFFFFFFFFFF
(1542708347.758576) can0 0CFDD634#01000100FF00F0C3
(1542708347.761701) can0 0CFDD633#01000100FF00F0C3
(1542708347.762537) can0 0CFDD734#0100FFFFFFFFFFFF
(1542708347.764681) can0 0CFDD733#0100FFFFFFFFFFFF
(1542708347.772728) can0 628#0164FED2D8FBF71B
(1542708347.778489) can0 0CFDD634#01000100FF00F0C3
(1542708347.782683) can0 0CFDD633#01000100FF00F0C3
(1542708347.783516) can0 0CFDD734#0100FFFFFFFFFFFF
(1542708347.784667) can0 0CFDD733#0100FFFFFFFFFFFF
(1542708347.798468) can0 0CFDD634#01000100FF00F0C3
(1542708347.802613) can0 0CFDD633#01000100FF00F0C3
(1542708347.803550) can0 0CFDD734#0100FFFFFFFFFFFF
(1542708347.805633) can0 0CFDD733#0100FFFFFFFFFFFF
(1542708347.812686) can0 628#01FBFA8CD927F81B
(1542708347.818424) can0 0CFDD634#01000100FF00F0C3
(1542708347.823554) can0 0CFDD633#01000100FF00F0C3
(1542708347.824472) can0 0CFDD734#0100FFFFFFFFFFFF
(1542708347.825607) can0 0CFDD733#0100FFFFFFFFFFFF
(1542708347.839389) can0 0CFDD634#01000100FF00F0C3
(1542708347.843554) can0 0CFDD633#01000100FF00F0C3
(1542708347.844417) can0 0CFDD734#0100FFFFFFFFFFFF
(1542708347.846510) can0 0CFDD733#0100FFFFFFFFFFFF
(1542708347.852712) can0 628#01AEFA7DD9B4F81B
(1542708347.860341) can0 0CFDD634#01000100FF00F0C3
(1542708347.864494) can0 0CFDD633#01000100FF00F0C3
(1542708347.865383) can0 0CFDD734#0100FFFFFFFFFFFF
(1542708347.866520) can0 0CFDD733#0100FFFFFFFFFFFF
(1542708347.880324) can0 0CFDD634#01000100FF00F0C3
(1542708347.884450) can0 0CFDD633#01000100FF00F0C3
(1542708347.886327) can0 0CFDD734#0100FFFFFFFFFFFF
(1542708347.887504) can0 0CFDD733#0100FFFFFFFFFFFF
(1542708347.892741) can0 628#017AFC00D96CF81B
(1542708347.900285) can0 0CFDD634#01000100FF00F0C3
(1542708347.905414) can0 0CFDD633#01000100FF00F0C3
(1542708347.906308) can0 0CFDD734#0100FFFFFFFFFFFF
(1542708347.907477) can0 0CFDD733#0100FFFFFFFFFFFF
(1542708347.921295) can0 0CFDD634#01000100FF00F0C3
(1542708347.925423) can0 0CFDD633#01000100FF00F0C3
(1542708347.926275) can0 0CFDD734#0100FFFFFFFFFFFF
(1542708347.928420) can0 0CFDD733#0100FFFFFFFFFFFF
(1542708347.932804) can0 628#01DDFA70D916F81B
(1542708347.941233) can0 0CFDD634#01000100FF00F0C3
(1542708347.946348) can0 0CFDD633#01000100FF00F0C3
(1542708347.947223) can0 0CFDD734#0100FFFFFFFFFFFF
(1542708347.948386) can0 0CFDD733#0100FFFFFFFFFFFF
(1542708347.962184) can0 0CFDD634#01000100FF00F0C3
(1542708347.966324) can0 0CFDD633#01000100FF00F0C3
(1542708347.967186) can0 0CFDD734#0100FFFFFFFFFFFF
(1542708347.969348) can0 0CFDD733#0100FFFFFFFFFFFF
(1542708347.972772) can0 628#01D3F8D9D973F81B
(1542708347.982156) can0 0CFDD634#01000100FF00F0C3
(1542708347.987300) can0 0CFDD633#01000100FF00F0C3
(1542708347.988169) can0 0CFDD734#0100FFFFFFFFFFFF
(1542708347.989333) can0 0CFDD733#0100FFFFFFFFFFFF
(1542708348.003128) can0 0CFDD634#01000100FF00F0C3
(1542708348.007283) can0 0CFDD633#01000100FF00F0C3
(1542708348.008136) can0 0CFDD734#0100FFFFFFFFFFFF
(1542708348.010280) can0 0CFDD733#0100FFFFFFFFFFFF
(1542708348.012723) can0 628#01C5F976D98FF81B
(1542708348.023110) can0 0CFDD634#01000100FF00F0C3
(1542708348.028230) can0 0CFDD633#01000100FF00F0C3
(1542708348.029086) can0 0CFDD734#0100FFFFFFFFFFFF
(1542708348.030249) can0 0CFDD733#0100FFFFFFFFFFFF
(1542708348.044034) can0 0CFDD634#01000100FF00F0C3
(1542708348.048192) can0 0CFDD633#01000100FF00F0C3
(1542708348.049055) can0 0CFDD734#0100FFFFFFFFFFFF
(1542708348.051233) can0 0CFDD733#0100FFFFFFFFFFFF
(1542708348.052790) can0 628#0106FA85D91CF81B
(1542708348.063983) can0 0CFDD634#01000100FF00F0C3
(1542708348.069195) can0 0CFDD633#01000100FF00F0C3
(1542708348.070048) can0 0CFDD734#0100FFFFFFFFFFFF
(1542708348.071191) can0 0CFDD733#0100FFFFFFFFFFFF
(1542708348.084955) can0 0CFDD634#01000100FF00F0C3
(1542708348.089156) can0 0CFDD633#01000100FF00F0C3
(1542708348.090037) can0 0CFDD734#0100FFFFFFFFFFFF
(1542708348.091214) can0 0CFDD733#0100FFFFFFFFFFFF
(1542708348.092772) can0 628#01D3F709DA39F81B
(1542708348.105918) can0 0CFDD634#01000100FF00F0C3
(1542708348.110138) can0 0CFDD633#01000100FF00F0C3
(1542708348.110929) can0 0CFDD734#0100FFFFFFFFFFFF
(1542708348.112095) can0 0CFDD733#0100FFFFFFFFFFFF
(1542708348.125961) can0 0CFDD634#01000100FF00F0C3
(1542708348.130056) can0 0CFDD633#01000100FF00F0C3
(1542708348.130906) can0 0CFDD734#0100FFFFFFFFFFFF
(1542708348.132773) can0 628#0152F705DA8AF81B
(1542708348.133331) can0 0CFDD733#0100FFFFFFFFFFFF
(1542708348.146852) can0 0CFDD634#01000100FF00F0C3
(1542708348.151022) can0 0CFDD633#01000100FF00F0C3
(1542708348.151883) can0 0CFDD734#0100FFFFFFFFFFFF
(1542708348.153115) can0 0CFDD733#0100FFFFFFFFFFFF
(1542708348.166797) can0 0CFDD634#01000100FF00F0C3
(1542708348.171026) can0 0CFDD633#01000100FF00F0C3
(1542708348.171888) can0 0CFDD734#0100FFFFFFFFFFFF
(1542708348.172820) can0 628#012DF8E0D959F81B
(1542708348.174043) can0 0CFDD733#0100FFFFFFFFFFFF
(1542708348.187780) can0 0CFDD634#01000100FF00F0C3
(1542708348.191926) can0 0CFDD633#01000100FF00F0C3
(1542708348.192790) can0 0CFDD734#0100FFFFFFFFFFFF
(1542708348.193973) can0 0CFDD733#0100FFFFFFFFFFFF
(1542708348.207746) can0 0CFDD634#01000100FF00F0C3
(1542708348.211916) can0 0CFDD633#01000100FF00F0C3
(1542708348.212773) can0 0CFDD734#0100FFFFFFFFFFFF
(1542708348.213254) can0 628#01F4F636DA30F81B
(1542708348.213957) can0 0CFDD733#0100FFFFFFFFFFFF
(1542708348.227715) can0 0CFDD634#01000100FF00F0C3
(1542708348.232872) can0 0CFDD633#01000100FF00F0C3
(1542708348.233737) can0 0CFDD734#0100FFFFFFFFFFFF
(1542708348.234915) can0 0CFDD733#0100FFFFFFFFFFFF
(1542708348.248673) can0 0CFDD634#01000100FF00F0C3
(1542708348.252872) can0 0CFDD633#01000100FF00F0C3
(1542708348.253340) can0 628#0194F57EDA72F81B
(1542708348.253951) can0 0CFDD734#0100FFFFFFFFFFFF
(1542708348.254916) can0 0CFDD733#0100FFFFFFFFFFFF
(1542708348.269672) can0 0CFDD634#01000100FF00F0C3
(1542708348.273807) can0 0CFDD633#01000100FF00F0C3
(1542708348.274747) can0 0CFDD734#0100FFFFFFFFFFFF
(1542708348.275853) can0 0CFDD733#0100FFFFFFFFFFFF
(1542708348.289690) can0 0CFDD634#01000100FF00F0C3
(1542708348.292881) can0 628#0105F66FDA73F81B
(1542708348.293817) can0 0CFDD633#01000100FF00F0C3
(1542708348.294693) can0 0CFDD734#0100FFFFFFFFFFFF
(1542708348.296774) can0 0CFDD733#0100FFFFFFFFFFFF
(1542708348.309605) can0 0CFDD634#01000100FF00F0C3
(1542708348.314763) can0 0CFDD633#01000100FF00F0C3
(1542708348.315601) can0 0CFDD734#0100FFFFFFFFFFFF
(1542708348.316774) can0 0CFDD733#0100FFFFFFFFFFFF
(1542708348.330538) can0 0CFDD634#01000100FF00F0C3
(1542708348.332822) can0 628#01D3F578DA3DF81B
(1542708348.334706) can0 0CFDD633#01000100FF00F0C3
(1542708348.335561) can0 0CFDD734#0100FFFFFFFFFFFF
(1542708348.337752) can0 0CFDD733#0100FFFFFFFFFFFF
(1542708348.350481) can0 0CFDD634#01000100FF00F0C3
(1542708348.355696) can0 0CFDD633#01000100FF00F0C3
(1542708348.356559) can0 0CFDD734#0100FFFFFFFFFFFF
(1542708348.357726) can0 0CFDD733#0100FFFFFFFFFFFF
(1542708348.371497) can0 0CFDD634#01000100FF00F0C3
(1542708348.372985) can0 628#013BF4DDDA49F81B
(1542708348.375752) can0 0CFDD633#01000100FF00F0C3
(1542708348.376521) can0 0CFDD734#0100FFFFFFFFFFFF
(1542708348.378671) can0 0CFDD733#0100FFFFFFFFFFFF
(1542708348.391481) can0 0CFDD634#01000100FF00F0C3
(1542708348.396762) can0 0CFDD633#01000100FF00F0C3
(1542708348.397554) can0 0CFDD734#0100FFFFFFFFFFFF
(1542708348.398761) can0 0CFDD733#0100FFFFFFFFFFFF
(1542708348.412431) can0 0CFDD634#01000100FF00F0C3
(1542708348.412875) can0 628#01E9F310DB96F81B
(1542708348.416641) can0 0CFDD633#01000100FF00F0C3
(1542708348.417463) can0 0CFDD734#0100FFFFFFFFFFFF
(1542708348.419637) can0 0CFDD733#0100FFFFFFFFFFFF
(1542708348.432445) can0 0CFDD634#01000100FF00F0C3
(1542708348.437625) can0 0CFDD633#01000100FF00F0C3
(1542708348.438467) can0 0CFDD734#0100FFFFFFFFFFFF
(1542708348.439611) can0 0CFDD733#0100FFFFFFFFFFFF
(1542708348.452947) can0 628#012DF4F7DA5DF81B
(1542708348.453519) can0 0CFDD634#01000100FF00F0C3
(1542708348.457596) can0 0CFDD633#01000100FF00F0C3
(1542708348.458403) can0 0CFDD734#0100FFFFFFFFFFFF
(1542708348.460589) can0 0CFDD733#0100FFFFFFFFFFFF
(1542708348.473363) can0 0CFDD634#01000100FF00F0C3
(1542708348.478544) can0 0CFDD633#01000100FF00F0C3
(1542708348.479416) can0 0CFDD734#0100FFFFFFFFFFFF
(1542708348.480600) can0 0CFDD733#0100FFFFFFFFFFFF
(1542708348.492946) can0 628#0127F348DB4BF81B
(1542708348.494362) can0 0CFDD634#01000100FF00F0C3
(1542708348.498522) can0 0CFDD633#01000100FF00F0C3
(1542708348.499387) can0 0CFDD734#0100FFFFFFFFFFFF
(1542708348.500535) can0 0CFDD733#0100FFFFFFFFFFFF
(1542708348.515309) can0 0CFDD634#01000100FF00F0C3
(1542708348.519492) can0 0CFDD633#01000100FF00F0C3
(1542708348.520303) can0 0CFDD734#0100FFFFFFFFFFFF
(1542708348.521481) can0 0CFDD733#0100FFFFFFFFFFFF
(1542708348.532946) can0 628#014AF2ABDB9DF81B
(1542708348.535257) can0 0CFDD634#01000100FF00F0C3
(1542708348.539469) can0 0CFDD633#01000100FF00F0C3
(1542708348.540248) can0 0CFDD734#0100FFFFFFFFFFFF
(1542708348.542400) can0 0CFDD733#0100FFFFFFFFFFFF
(1542708348.555227) can0 0CFDD634#01000100FF00F0C3
(1542708348.560350) can0 0CFDD633#01000100FF00F0C3
(1542708348.561161) can0 0CFDD734#0100FFFFFFFFFFFF
(1542708348.562373) can0 0CFDD733#0100FFFFFFFFFFFF
(1542708348.572929) can0 628#0146F28ADB0DF91B
(1542708348.576088) can0 0CFDD634#01000100FF00F0C3
(1542708348.580403) can0 0CFDD633#01000100FF00F0C3
(1542708348.581215) can0 0CFDD734#0100FFFFFFFFFFFF
(1542708348.583373) can0 0CFDD733#0100FFFFFFFFFFFF
(1542708348.596151) can0 0CFDD634#01000100FF00F0C3
(1542708348.601366) can0 0CFDD633#01000100FF00F0C3
(1542708348.602139) can0 0CFDD734#0100FFFFFFFFFFFF
(1542708348.603341) can0 0CFDD733#0100FFFFFFFFFFFF
(1542708348.612998) can0 628#01FCF1D7DB81F81B
(1542708348.617129) can0 0CFDD634#01000100FF00F0C3
(1542708348.621339) can0 0CFDD633#01000100FF00F0C3
(1542708348.622151) can0 0CFDD734#0100FFFFFFFFFFFF
(1542708348.624304) can0 0CFDD733#0100FFFFFFFFFFFF
(1542708348.637073) can0 0CFDD634#01000100FF00F0C3
(1542708348.642286) can0 0CFDD633#01000100FF00F0C3
(1542708348.643089) can0 0CFDD734#0100FFFFFFFFFFFF
(1542708348.644263) can0 0CFDD733#0100FFFFFFFFFFFF
(1542708348.653050) can0 628#01E6F034DC72F81B
(1542708348.658046) can0 0CFDD634#01000100FF00F0C3
(1542708348.662219) can0 0CFDD633#01000100FF00F0C3
(1542708348.663063) can0 0CFDD734#0100FFFFFFFFFFFF
(1542708348.665257) can0 0CFDD733#0100FFFFFFFFFFFF
(1542708348.678020) can0 0CFDD634#01000100FF00F0C3
(1542708348.683232) can0 0CFDD633#01000100FF00F0C3
(1542708348.684022) can0 0CFDD734#0100FFFFFFFFFFFF
(1542708348.685178) can0 0CFDD733#0100FFFFFFFFFFFF
(1542708348.692993) can0 628#01B1F04BDC67F81B
(1542708348.693966) can0 18FECA34#00FF00000000FFFF
(1542708348.698971) can0 0CFDD634#01000100FF00F0C3
(1542708348.703207) can0 0CFDD633#01000100FF00F0C3
(1542708348.704901) can0 0CFDD734#0100FFFFFFFFFFFF
(1542708348.706142) can0 0CFDD733#0100FFFFFFFFFFFF
(1542708348.718941) can0 0CFDD634#01000100FF00F0C3
(1542708348.724092) can0 0CFDD633#01000100FF00F0C3
(1542708348.724872) can0 0CFDD734#0100FFFFFFFFFFFF
(1542708348.726114) can0 0CFDD733#0100FFFFFFFFFFFF
(1542708348.730140) can0 18FECA33#00FF00000000FFFF
(1542708348.733021) can0 628#0160F069DC5DF81B
(1542708348.739845) can0 0CFDD634#01000100FF00F0C3
(1542708348.744081) can0 0CFDD633#01000100FF00F0C3
(1542708348.744875) can0 0CFDD734#0100FFFFFFFFFFFF
(1542708348.747080) can0 0CFDD733#0100FFFFFFFFFFFF
(1542708348.759826) can0 0CFDD634#01000100FF00F0C3
(1542708348.765021) can0 0CFDD633#01000100FF00F0C3
(1542708348.765917) can0 0CFDD734#0100FFFFFFFFFFFF
(1542708348.767063) can0 0CFDD733#0100FFFFFFFFFFFF
(1542708348.773020) can0 628#018FEFDDDC63F81B
(1542708348.780842) can0 0CFDD634#01000100FF00F0C3
(1542708348.785000) can0 0CFDD633#01000100FF00F0C3
(1542708348.785815) can0 0CFDD734#0100FFFFFFFFFFFF
(1542708348.787994) can0 0CFDD733#0100FFFFFFFFFFFF
(1542708348.801789) can0 0CFDD634#01000100FF00F0C3
(1542708348.805958) can0 0CFDD633#01000100FF00F0C3
(1542708348.806790) can0 0CFDD734#0100FFFFFFFFFFFF
(1542708348.807993) can0 0CFDD733#0100FFFFFFFFFFFF
(1542708348.813101) can0 628#0110EF0FDD6AF81B
(1542708348.821762) can0 0CFDD634#01000100FF00F0C3
(1542708348.826001) can0 0CFDD633#01000100FF00F0C3
(1542708348.826765) can0 0CFDD734#0100FFFFFFFFFFFF
(1542708348.828928) can0 0CFDD733#0100FFFFFFFFFFFF
(1542708348.842721) can0 0CFDD634#01000100FF00F0C3
(1542708348.846896) can0 0CFDD633#01000100FF00F0C3
(1542708348.847710) can0 0CFDD734#0100FFFFFFFFFFFF
(1542708348.848930) can0 0CFDD733#0100FFFFFFFFFFFF
(1542708348.853049) can0 628#01E2EE12DD63F81B
(1542708348.862721) can0 0CFDD634#01000100FF00F0C3
(1542708348.866864) can0 0CFDD633#01000100FF00F0C3
(1542708348.867709) can0 0CFDD734#0100FFFFFFFFFFFF
(1542708348.869896) can0 0CFDD733#0100FFFFFFFFFFFF
(1542708348.882613) can0 0CFDD634#01000100FF00F0C3
(1542708348.887802) can0 0CFDD633#01000100FF00F0C3
(1542708348.888646) can0 0CFDD734#0100FFFFFFFFFFFF
(1542708348.889891) can0 0CFDD733#0100FFFFFFFFFFFF
(1542708348.893012) can0 628#0140EE81DD67F81B
(1542708348.903598) can0 0CFDD634#01000100FF00F0C3
(1542708348.907803) can0 0CFDD633#01000100FF00F0C3
(1542708348.908620) can0 0CFDD734#0100FFFFFFFFFFFF
(1542708348.910782) can0 0CFDD733#0100FFFFFFFFFFFF
(1542708348.924522) can0 0CFDD634#01000100FF00F0C3
(1542708348.928773) can0 0CFDD633#01000100FF00F0C3
(1542708348.929585) can0 0CFDD734#0100FFFFFFFFFFFF
(1542708348.930787) can0 0CFDD733#0100FFFFFFFFFFFF
(1542708348.933025) can0 628#017CEDC0DDACF81B
(1542708348.944478) can0 0CFDD634#01000100FF00F0C3
(1542708348.948732) can0 0CFDD633#01000100FF00F0C3
(1542708348.949541) can0 0CFDD734#0100FFFFFFFFFFFF
(1542708348.951749) can0 0CFDD733#0100FFFFFFFFFFFF
(1542708348.965473) can0 0CFDD634#01000100FF00F0C3
(1542708348.969687) can0 0CFDD633#01000100FF00F0C3
(1542708348.970497) can0 0CFDD734#0100FFFFFFFFFFFF
(1542708348.971730) can0 0CFDD733#0100FFFFFFFFFFFF
(1542708348.973106) can0 628#015DEDF5DD96F81B
(1542708348.985479) can0 0CFDD634#01000100FF00F0C3
(1542708348.989698) can0 0CFDD633#01000100FF00F0C3
(1542708348.990488) can0 0CFDD734#0100FFFFFFFFFFFF
(1542708348.992724) can0 0CFDD733#0100FFFFFFFFFFFF
(1542708349.005441) can0 0CFDD634#01000100FF00F0C3
(1542708349.010636) can0 0CFDD633#01000100FF00F0C3
(1542708349.011474) can0 0CFDD734#0100FFFFFFFFFFFF
(1542708349.012725) can0 0CFDD733#0100FFFFFFFFFFFF
(1542708349.013095) can0 628#01F0EC2CDE8CF81B
(1542708349.026320) can0 0CFDD634#01000100FF00F0C3
(1542708349.030583) can0 0CFDD633#01000100FF00F0C3
(1542708349.031394) can0 0CFDD734#0100FFFFFFFFFFFF
(1542708349.033609) can0 0CFDD733#0100FFFFFFFFFFFF
(1542708349.046277) can0 0CFDD634#01000100FF00F0C3
(1542708349.050571) can0 0CFDD633#01000100FF00F0C3
(1542708349.052348) can0 0CFDD734#0100FFFFFFFFFFFF
(1542708349.053059) can0 628#012EECA1DE78F81B
(1542708349.053622) can0 0CFDD733#0100FFFFFFFFFFFF
(1542708349.067296) can0 0CFDD634#01000100FF00F0C3
(1542708349.070556) can0 0CFDD633#01000100FF00F0C3
(1542708349.072297) can0 0CFDD734#0100FFFFFFFFFFFF
(1542708349.074530) can0 0CFDD733#0100FFFFFFFFFFFF
(1542708349.087235) can0 0CFDD634#01000100FF00F0C3
(1542708349.090541) can0 0CFDD633#01000100FF00F0C3
(1542708349.092307) can0 0CFDD734#0100FFFFFFFFFFFF
(1542708349.093111) can0 628#01CFEBDCDE77F81B
(1542708349.094521) can0 0CFDD733#0100FFFFFFFFFFFF
(1542708349.108166) can0 0CFDD634#01000100FF00F0C3
(1542708349.111516) can0 0CFDD633#01000100FF00F0C3
(1542708349.112312) can0 0CFDD734#0100FFFFFFFFFFFF
(1542708349.115478) can0 0CFDD733#0100FFFFFFFFFFFF
(1542708349.128193) can0 0CFDD634#01000100FF00F0C3
(1542708349.131420) can0 0CFDD633#01000100FF00F0C3
(1542708349.132249) can0 0CFDD734#0100FFFFFFFFFFFF
(1542708349.133085) can0 628#0193EB0EDF75F81B
(1542708349.135454) can0 0CFDD733#0100FFFFFFFFFFFF
(1542708349.149135) can0 0CFDD634#01000100FF00F0C3
(1542708349.152436) can0 0CFDD633#01000100FF00F0C3
(1542708349.153256) can0 0CFDD734#0100FFFFFFFFFFFF
(1542708349.155426) can0 0CFDD733#0100FFFFFFFFFFFF
(1542708349.169110) can0 0CFDD634#01000100FF00F0C3
(1542708349.172410) can0 0CFDD633#01000100FF00F0C3
(1542708349.173121) can0 628#01C6EA1DDF65F91B
(1542708349.174174) can0 0CFDD734#0100FFFFFFFFFFFF
(1542708349.175392) can0 0CFDD733#0100FFFFFFFFFFFF
(1542708349.190121) can0 0CFDD634#01000100FF00F0C3
(1542708349.193359) can0 0CFDD633#01000100FF00F0C3
(1542708349.194132) can0 0CFDD734#0100FFFFFFFFFFFF
(1542708349.196390) can0 0CFDD733#0100FFFFFFFFFFFF
(1542708349.210096) can0 0CFDD634#01000100FF00F0C3
(1542708349.213123) can0 628#015DEA97DFD9FA1B
(1542708349.213644) can0 0CFDD633#01000100FF00F0C3
(1542708349.215059) can0 0CFDD734#0100FFFFFFFFFFFF
(1542708349.216326) can0 0CFDD733#0100FFFFFFFFFFFF
(1542708349.231044) can0 0CFDD634#01000100FF00F0C3
(1542708349.234306) can0 0CFDD633#01000100FF00F0C3
(1542708349.235095) can0 0CFDD734#0100FFFFFFFFFFFF
(1542708349.237271) can0 0CFDD733#0100FFFFFFFFFFFF
(1542708349.250927) can0 0CFDD634#01000100FF00F0C3
(1542708349.253118) can0 628#0180EA20E023F91B
(1542708349.254222) can0 0CFDD633#01000100FF00F0C3
(1542708349.254973) can0 0CFDD734#0100FFFFFFFFFFFF
(1542708349.257262) can0 0CFDD733#0100FFFFFFFFFFFF
(1542708349.271953) can0 0CFDD634#01000100FF00F0C3
(1542708349.275214) can0 0CFDD633#01000100FF00F0C3
(1542708349.275969) can0 0CFDD734#0100FFFFFFFFFFFF
(1542708349.277161) can0 0CFDD733#0100FFFFFFFFFFFF
(1542708349.291936) can0 0CFDD634#01000100FF00F0C3
(1542708349.293081) can0 628#01CEE909E06EF81B
(1542708349.295163) can0 0CFDD633#01000100FF00F0C3
(1542708349.295945) can0 0CFDD734#0100FFFFFFFFFFFF
(1542708349.298225) can0 0CFDD733#0100FFFFFFFFFFFF
(1542708349.312871) can0 0CFDD634#01000100FF00F0C3
(1542708349.316085) can0 0CFDD633#01000100FF00F0C3
(1542708349.316902) can0 0CFDD734#0100FFFFFFFFFFFF
(1542708349.318134) can0 0CFDD733#0100FFFFFFFFFFFF
(1542708349.333136) can0 628#0132E98FE065F81B
(1542708349.333849) can0 0CFDD634#01000100FF00F0C3
(1542708349.336088) can0 0CFDD633#01000100FF00F0C3
(1542708349.336913) can0 0CFDD734#0100FFFFFFFFFFFF
(1542708349.338147) can0 0CFDD733#0100FFFFFFFFFFFF
(1542708349.354834) can0 0CFDD634#01000100FF00F0C3
(1542708349.356072) can0 0CFDD633#01000100FF00F0C3
(1542708349.356812) can0 0CFDD734#0100FFFFFFFFFFFF
(1542708349.358029) can0 0CFDD733#0100FFFFFFFFFFFF
(1542708349.373135) can0 628#01EAE8D5E075F81B
(1542708349.374771) can0 0CFDD634#01000100FF00F0C3
(1542708349.376037) can0 0CFDD633#01000100FF00F0C3
(1542708349.376789) can0 0CFDD734#0100FFFFFFFFFFFF
(1542708349.379058) can0 0CFDD733#0100FFFFFFFFFFFF
(1542708349.395720) can0 0CFDD634#01000100FF00F0C3
(1542708349.397043) can0 0CFDD633#01000100FF00F0C3
(1542708349.397808) can0 0CFDD734#0100FFFFFFFFFFFF
(1542708349.399095) can0 0CFDD733#0100FFFFFFFFFFFF
(1542708349.413244) can0 628#0195E810E16FF81B
(1542708349.416760) can0 0CFDD634#01000100FF00F0C3
(1542708349.417979) can0 0CFDD633#01000100FF00F0C3
(1542708349.418735) can0 0CFDD734#0100FFFFFFFFFFFF
(1542708349.419981) can0 0CFDD733#0100FFFFFFFFFFFF
(1542708349.436757) can0 0CFDD634#01000100FF00F0C3
(1542708349.437964) can0 0CFDD633#01000100FF00F0C3
(1542708349.438757) can0 0CFDD734#0100FFFFFFFFFFFF
(1542708349.439991) can0 0CFDD733#0100FFFFFFFFFFFF
(1542708349.453137) can0 628#01F9E78DE178F81B
(1542708349.457643) can0 0CFDD634#01000100FF00F0C3
(1542708349.458929) can0 0CFDD633#01000100FF00F0C3
(1542708349.459710) can0 0CFDD734#0100FFFFFFFFFFFF
(1542708349.460916) can0 0CFDD733#0100FFFFFFFFFFFF
(1542708349.477622) can0 0CFDD634#01000100FF00F0C3
(1542708349.479886) can0 0CFDD633#01000100FF00F0C3
(1542708349.480655) can0 0CFDD734#0100FFFFFFFFFFFF
(1542708349.481875) can0 0CFDD733#0100FFFFFFFFFFFF
(1542708349.493162) can0 628#018CE7BFE198F81B
(1542708349.498570) can0 0CFDD634#01000100FF00F0C3
(1542708349.499861) can0 0CFDD633#01000100FF00F0C3
(1542708349.500629) can0 0CFDD734#0100FFFFFFFFFFFF
(1542708349.501850) can0 0CFDD733#0100FFFFFFFFFFFF
(1542708349.518496) can0 0CFDD634#01000100FF00F0C3
(1542708349.519790) can0 0CFDD633#01000100FF00F0C3
(1542708349.520581) can0 0CFDD734#0100FFFFFFFFFFFF
(1542708349.521823) can0 0CFDD733#0100FFFFFFFFFFFF
(1542708349.533252) can0 628#0133E715E283F81B
(1542708349.539477) can0 0CFDD634#01000100FF00F0C3
(1542708349.540812) can0 0CFDD633#01000100FF00F0C3
(1542708349.541512) can0 0CFDD734#0100FFFFFFFFFFFF
(1542708349.542763) can0 0CFDD733#0100FFFFFFFFFFFF
(1542708349.559394) can0 0CFDD634#01000100FF00F0C3
(1542708349.560691) can0 0CFDD633#01000100FF00F0C3
(1542708349.562427) can0 0CFDD734#0100FFFFFFFFFFFF
(1542708349.563686) can0 0CFDD733#0100FFFFFFFFFFFF
(1542708349.573215) can0 628#01B7E67CE287F81B
(1542708349.580391) can0 0CFDD634#01000100FF00F0C3
(1542708349.581746) can0 0CFDD633#01000100FF00F0C3
(1542708349.582452) can0 0CFDD734#0100FFFFFFFFFFFF
(1542708349.583671) can0 0CFDD733#0100FFFFFFFFFFFF
(1542708349.600408) can0 0CFDD634#01000100FF00F0C3
(1542708349.601755) can0 0CFDD633#01000100FF00F0C3
(1542708349.603372) can0 0CFDD734#0100FFFFFFFFFFFF
(1542708349.604718) can0 0CFDD733#0100FFFFFFFFFFFF
(1542708349.613225) can0 628#0141E6DBE284F81B
(1542708349.621356) can0 0CFDD634#01000100FF00F0C3
(1542708349.622669) can0 0CFDD633#01000100FF00F0C3
(1542708349.623382) can0 0CFDD734#0100FFFFFFFFFFFF
(1542708349.624636) can0 0CFDD733#0100FFFFFFFFFFFF
(1542708349.641335) can0 0CFDD634#01000100FF00F0C3
(1542708349.642606) can0 0CFDD633#01000100FF00F0C3
(1542708349.643316) can0 0CFDD734#0100FFFFFFFFFFFF
(1542708349.644577) can0 0CFDD733#0100FFFFFFFFFFFF
(1542708349.653161) can0 628#0104E629E371F81B
(1542708349.662234) can0 0CFDD634#01000100FF00F0C3
(1542708349.663541) can0 0CFDD633#01000100FF00F0C3
(1542708349.664286) can0 0CFDD734#0100FFFFFFFFFFFF
(1542708349.665579) can0 0CFDD733#0100FFFFFFFFFFFF
(1542708349.682283) can0 0CFDD634#01000100FF00F0C3
(1542708349.683522) can0 0CFDD633#01000100FF00F0C3
(1542708349.684244) can0 0CFDD734#0100FFFFFFFFFFFF
(1542708349.685524) can0 0CFDD733#0100FFFFFFFFFFFF
(1542708349.692235) can0 18FECA34#00FF00000000FFFF
(1542708349.693305) can0 628#019AE590E37AF81B
(1542708349.703227) can0 0CFDD634#01000100FF00F0C3
(1542708349.704475) can0 0CFDD633#01000100FF00F0C3
(1542708349.705242) can0 0CFDD734#0100FFFFFFFFFFFF
(1542708349.706516) can0 0CFDD733#0100FFFFFFFFFFFF
(1542708349.723155) can0 0CFDD634#01000100FF00F0C3
(1542708349.724447) can0 0CFDD633#01000100FF00F0C3
(1542708349.726111) can0 0CFDD734#0100FFFFFFFFFFFF
(1542708349.727450) can0 0CFDD733#0100FFFFFFFFFFFF
(1542708349.728501) can0 18FECA33#00FF00000000FFFF
(1542708349.733192) can0 628#010DE507E480F81B
(1542708349.743149) can0 0CFDD634#01000100FF00F0C3
(1542708349.744415) can0 0CFDD633#01000100FF00F0C3
(1542708349.746087) can0 0CFDD734#0100FFFFFFFFFFFF
(1542708349.747421) can0 0CFDD733#0100FFFFFFFFFFFF
(1542708349.763119) can0 0CFDD634#01000100FF00F0C3
(1542708349.765434) can0 0CFDD633#01000100FF00F0C3
(1542708349.766083) can0 0CFDD734#0100FFFFFFFFFFFF
(1542708349.767386) can0 0CFDD733#0100FFFFFFFFFFFF
(1542708349.773279) can0 628#01BAE44DE48AF81B
(1542708349.783066) can0 0CFDD634#01000100FF00F0C3
(1542708349.785372) can0 0CFDD633#01000100FF00F0C3
(1542708349.786027) can0 0CFDD734#0100FFFFFFFFFFFF
(1542708349.788342) can0 0CFDD733#0100FFFFFFFFFFFF
(1542708349.803956) can0 0CFDD634#01000100FF00F0C3
(1542708349.805346) can0 0CFDD633#01000100FF00F0C3
(1542708349.807030) can0 0CFDD734#0100FFFFFFFFFFFF
(1542708349.808376) can0 0CFDD733#0100FFFFFFFFFFFF
(1542708349.813283) can0 628#0160E4AFE49EF81B
(1542708349.823931) can0 0CFDD634#01000100FF00F0C3
(1542708349.825319) can0 0CFDD633#01000100FF00F0C3
(1542708349.826978) can0 0CFDD734#0100FFFFFFFFFFFF
(1542708349.828324) can0 0CFDD733#0100FFFFFFFFFFFF
(1542708349.844874) can0 0CFDD634#01000100FF00F0C3
(1542708349.846258) can0 0CFDD633#01000100FF00F0C3
(1542708349.846952) can0 0CFDD734#0100FFFFFFFFFFFF
(1542708349.848297) can0 0CFDD733#0100FFFFFFFFFFFF
(1542708349.853381) can0 628#01CBE3DAE42EF91B
(1542708349.864879) can0 0CFDD634#01000100FF00F0C3
(1542708349.866229) can0 0CFDD633#01000100FF00F0C3
(1542708349.866950) can0 0CFDD734#0100FFFFFFFFFFFF
(1542708349.869242) can0 0CFDD733#0100FFFFFFFFFFFF
(1542708349.885834) can0 0CFDD634#01000100FF00F0C3
(1542708349.887187) can0 0CFDD633#01000100FF00F0C3
(1542708349.887847) can0 0CFDD734#0100FFFFFFFFFFFF
(1542708349.889215) can0 0CFDD733#0100FFFFFFFFFFFF
(1542708349.893238) can0 628#01A5E3A3E508F91B
(1542708349.905797) can0 0CFDD634#01000100FF00F0C3
(1542708349.907159) can0 0CFDD633#01000100FF00F0C3
(1542708349.907845) can0 0CFDD734#0100FFFFFFFFFFFF
(1542708349.910223) can0 0CFDD733#0100FFFFFFFFFFFF
(1542708349.926796) can0 0CFDD634#01000100FF00F0C3
(1542708349.928118) can0 0CFDD633#01000100FF00F0C3
(1542708349.928822) can0 0CFDD734#0100FFFFFFFFFFFF
(1542708349.930159) can0 0CFDD733#0100FFFFFFFFFFFF
(1542708349.933236) can0 628#014EE3C1E578F81B
(1542708349.946715) can0 0CFDD634#01000100FF00F0C3
(1542708349.949118) can0 0CFDD633#01000100FF00F0C3
(1542708349.949767) can0 0CFDD734#0100FFFFFFFFFFFF
(1542708349.951108) can0 0CFDD733#0100FFFFFFFFFFFF
(1542708349.967717) can0 0CFDD634#01000100FF00F0C3
(1542708349.969056) can0 0CFDD633#01000100FF00F0C3
(1542708349.970780) can0 0CFDD734#0100FFFFFFFFFFFF
(1542708349.972086) can0 0CFDD733#0100FFFFFFFFFFFF
(1542708349.973294) can0 628#01E8E231E67DF81B
(1542708349.987709) can0 0CFDD634#01000100FF00F0C3
(1542708349.989016) can0 0CFDD633#01000100FF00F0C3
(1542708349.990754) can0 0CFDD734#0100FFFFFFFFFFFF
(1542708349.993071) can0 0CFDD733#0100FFFFFFFFFFFF
(1542708350.008758) can0 0CFDD634#01000100FF00F0C3
(1542708350.010021) can0 0CFDD633#01000100FF00F0C3
(1542708350.010691) can0 0CFDD734#0100FFFFFFFFFFFF
(1542708350.012975) can0 0CFDD733#0100FFFFFFFFFFFF
(1542708350.013439) can0 628#017EE29CE6B3F81B
(1542708350.028655) can0 0CFDD634#01000100FF00F0C3
(1542708350.029975) can0 0CFDD633#01000100FF00F0C3
(1542708350.030706) can0 0CFDD734#0100FFFFFFFFFFFF
(1542708350.032956) can0 0CFDD733#0100FFFFFFFFFFFF
(1542708350.049615) can0 0CFDD634#01000100FF00F0C3
(1542708350.050911) can0 0CFDD633#01000100FF00F0C3
(1542708350.051615) can0 0CFDD734#0100FFFFFFFFFFFF
(1542708350.052898) can0 0CFDD733#0100FFFFFFFFFFFF
(1542708350.053345) can0 628#011FE2D2E6B3F91B
(1542708350.070588) can0 0CFDD634#01000100FF00F0C3
(1542708350.071899) can0 0CFDD633#01000100FF00F0C3
(1542708350.072628) can0 0CFDD734#0100FFFFFFFFFFFF
(1542708350.073937) can0 0CFDD733#0100FFFFFFFFFFFF
(1542708350.090536) can0 0CFDD634#01000100FF00F0C3
(1542708350.092861) can0 0CFDD633#01000100FF00F0C3
(1542708350.093271) can0 628#01F4E19EE7A4F81B
(1542708350.093937) can0 0CFDD734#0100FFFFFFFFFFFF
(1542708350.094874) can0 0CFDD733#0100FFFFFFFFFFFF
(1542708350.111510) can0 0CFDD634#01000100FF00F0C3
(1542708350.112861) can0 0CFDD633#01000100FF00F0C3
(1542708350.114537) can0 0CFDD734#0100FFFFFFFFFFFF
(1542708350.115847) can0 0CFDD733#0100FFFFFFFFFFFF
(1542708350.131484) can0 0CFDD634#01000100FF00F0C3
(1542708350.133402) can0 628#0193E1BCE794F81B
(1542708350.133991) can0 0CFDD633#01000100FF00F0C3
(1542708350.135484) can0 0CFDD734#0100FFFFFFFFFFFF
(1542708350.136799) can0 0CFDD733#0100FFFFFFFFFFFF
(1542708350.152341) can0 0CFDD634#01000100FF00F0C3
(1542708350.153707) can0 0CFDD633#01000100FF00F0C3
(1542708350.155362) can0 0CFDD734#0100FFFFFFFFFFFF
(1542708350.156736) can0 0CFDD733#0100FFFFFFFFFFFF
(1542708350.172358) can0 0CFDD634#01000100FF00F0C3
(1542708350.173370) can0 628#0120E13AE892F81B
(1542708350.174769) can0 0CFDD633#01000100FF00F0C3
(1542708350.175359) can0 0CFDD734#0100FFFFFFFFFFFF
(1542708350.176769) can0 0CFDD733#0100FFFFFFFFFFFF
(1542708350.192297) can0 0CFDD634#01000100FF00F0C3
(1542708350.195703) can0 0CFDD633#01000100FF00F0C3
(1542708350.196315) can0 0CFDD734#0100FFFFFFFFFFFF
(1542708350.197703) can0 0CFDD733#0100FFFFFFFFFFFF
(1542708350.213326) can0 0CFDD634#01000100FF00F0C3
(1542708350.213749) can0 628#01E5E09BE880F81B
(1542708350.216576) can0 0CFDD633#01000100FF00F0C3
(1542708350.217318) can0 0CFDD734#0100FFFFFFFFFFFF
(1542708350.218657) can0 0CFDD733#0100FFFFFFFFFFFF
(1542708350.234304) can0 0CFDD634#01000100FF00F0C3
(1542708350.237629) can0 0CFDD633#01000100FF00F0C3
(1542708350.238272) can0 0CFDD734#0100FFFFFFFFFFFF
(1542708350.239630) can0 0CFDD733#0100FFFFFFFFFFFF
(1542708350.253405) can0 628#017BE00EE972F81B
(1542708350.254252) can0 0CFDD634#01000100FF00F0C3
(1542708350.257640) can0 0CFDD633#01000100FF00F0C3
(1542708350.258301) can0 0CFDD734#0100FFFFFFFFFFFF
(1542708350.260618) can0 0CFDD733#0100FFFFFFFFFFFF
(1542708350.275225) can0 0CFDD634#01000100FF00F0C3
(1542708350.278593) can0 0CFDD633#01000100FF00F0C3
(1542708350.279206) can0 0CFDD734#0100FFFFFFFFFFFF
(1542708350.280579) can0 0CFDD733#0100FFFFFFFFFFFF
(1542708350.293488) can0 628#0122E06DE9C4F81B
(1542708350.295194) can0 0CFDD634#01000100FF00F0C3
(1542708350.298535) can0 0CFDD633#01000100FF00F0C3
(1542708350.300225) can0 0CFDD734#0100FFFFFFFFFFFF
(1542708350.301562) can0 0CFDD733#0100FFFFFFFFFFFF
(1542708350.315146) can0 0CFDD634#01000100FF00F0C3
(1542708350.318511) can0 0CFDD633#01000100FF00F0C3
(1542708350.321132) can0 0CFDD734#0100FFFFFFFFFFFF
(1542708350.322535) can0 0CFDD733#0100FFFFFFFFFFFF
(1542708350.333433) can0 628#01FADFEFE9C1F81B
(1542708350.336121) can0 0CFDD634#01000100FF00F0C3
(1542708350.339457) can0 0CFDD633#01000100FF00F0C3
(1542708350.341148) can0 0CFDD734#0100FFFFFFFFFFFF
(1542708350.343483) can0 0CFDD733#0100FFFFFFFFFFFF
(1542708350.356081) can0 0CFDD634#01000100FF00F0C3
(1542708350.359459) can0 0CFDD633#01000100FF00F0C3
(1542708350.362090) can0 0CFDD734#0100FFFFFFFFFFFF
(1542708350.363420) can0 0CFDD733#0100FFFFFFFFFFFF
(1542708350.373431) can0 628#019ADF7BEA8BF81B
(1542708350.377041) can0 0CFDD634#01000100FF00F0C3
(1542708350.380316) can0 0CFDD633#01000100FF00F0C3
(1542708350.381947) can0 0CFDD734#0100FFFFFFFFFFFF
(1542708350.384360) can0 0CFDD733#0100FFFFFFFFFFFF
(1542708350.397005) can0 0CFDD634#01000100FF00F0C3
(1542708350.400376) can0 0CFDD633#01000100FF00F0C3
(1542708350.402006) can0 0CFDD734#0100FFFFFFFFFFFF
(1542708350.404342) can0 0CFDD733#0100FFFFFFFFFFFF
(1542708350.413432) can0 628#0154DFD0EA86F81B
(1542708350.417960) can0 0CFDD634#01000100FF00F0C3
(1542708350.421352) can0 0CFDD633#01000100FF00F0C3
(1542708350.421934) can0 0CFDD734#0100FFFFFFFFFFFF
(1542708350.424311) can0 0CFDD733#0100FFFFFFFFFFFF
(1542708350.437938) can0 0CFDD634#01000100FF00F0C3
(1542708350.441302) can0 0CFDD633#01000100FF00F0C3
(1542708350.441920) can0 0CFDD734#0100FFFFFFFFFFFF
(1542708350.444280) can0 0CFDD733#0100FFFFFFFFFFFF
(1542708350.453486) can0 628#01F6DE49EB87F81B
(1542708350.458907) can0 0CFDD634#01000100FF00F0C3
(1542708350.462274) can0 0CFDD633#01000100FF00F0C3
(1542708350.462894) can0 0CFDD734#0100FFFFFFFFFFFF
(1542708350.464219) can0 0CFDD733#0100FFFFFFFFFFFF
(1542708350.478863) can0 0CFDD634#01000100FF00F0C3
(1542708350.482253) can0 0CFDD633#01000100FF00F0C3
(1542708350.482834) can0 0CFDD734#0100FFFFFFFFFFFF
(1542708350.484214) can0 0CFDD733#0100FFFFFFFFFFFF
(1542708350.493457) can0 628#01A3DEB6EB88F81B
(1542708350.499829) can0 0CFDD634#01000100FF00F0C3
(1542708350.503194) can0 0CFDD633#01000100FF00F0C3
(1542708350.503791) can0 0CFDD734#0100FFFFFFFFFFFF
(1542708350.505172) can0 0CFDD733#0100FFFFFFFFFFFF
(1542708350.520807) can0 0CFDD634#01000100FF00F0C3
(1542708350.523167) can0 0CFDD633#01000100FF00F0C3
(1542708350.523764) can0 0CFDD734#0100FFFFFFFFFFFF
(1542708350.525194) can0 0CFDD733#0100FFFFFFFFFFFF
(1542708350.533458) can0 628#016EDE3AEC8AF81B
(1542708350.540778) can0 0CFDD634#01000100FF00F0C3
(1542708350.544097) can0 0CFDD633#01000100FF00F0C3
(1542708350.544730) can0 0CFDD734#0100FFFFFFFFFFFF
(1542708350.546073) can0 0CFDD733#0100FFFFFFFFFFFF
(1542708350.561751) can0 0CFDD634#01000100FF00F0C3
(1542708350.564028) can0 0CFDD633#01000100FF00F0C3
(1542708350.564697) can0 0CFDD734#0100FFFFFFFFFFFF
(1542708350.567097) can0 0CFDD733#0100FFFFFFFFFFFF
(1542708350.573508) can0 628#0116DE8EEC9EF81B
(1542708350.581756) can0 0CFDD634#01000100FF00F0C3
(1542708350.585017) can0 0CFDD633#01000100FF00F0C3
(1542708350.585656) can0 0CFDD734#0100FFFFFFFFFFFF
(1542708350.587079) can0 0CFDD733#0100FFFFFFFFFFFF
(1542708350.601642) can0 0CFDD634#01000100FF00F0C3
(1542708350.604998) can0 0CFDD633#01000100FF00F0C3
(1542708350.605677) can0 0CFDD734#0100FFFFFFFFFFFF
(1542708350.607047) can0 0CFDD733#0100FFFFFFFFFFFF
(1542708350.613482) can0 628#01CBDD1BEDE5F81B
(1542708350.622613) can0 0CFDD634#01000100FF00F0C3
(1542708350.625936) can0 0CFDD633#01000100FF00F0C3
(1542708350.626597) can0 0CFDD734#0100FFFFFFFFFFFF
(1542708350.627969) can0 0CFDD733#0100FFFFFFFFFFFF
(1542708350.643586) can0 0CFDD634#01000100FF00F0C3
(1542708350.645901) can0 0CFDD633#01000100FF00F0C3
(1542708350.646566) can0 0CFDD734#0100FFFFFFFFFFFF
(1542708350.647938) can0 0CFDD733#0100FFFFFFFFFFFF
(1542708350.653466) can0 628#01ACDDB4EDCBF81B
(1542708350.663540) can0 0CFDD634#01000100FF00F0C3
(1542708350.666915) can0 0CFDD633#01000100FF00F0C3
(1542708350.667531) can0 0CFDD734#0100FFFFFFFFFFFF
(1542708350.668927) can0 0CFDD733#0100FFFFFFFFFFFF
(1542708350.684473) can0 0CFDD634#01000100FF00F0C3
(1542708350.687844) can0 0CFDD633#01000100FF00F0C3
(1542708350.688482) can0 0CFDD734#0100FFFFFFFFFFFF
(1542708350.689883) can0 0CFDD733#0100FFFFFFFFFFFF
(1542708350.690503) can0 18FECA34#00FF00000000FFFF
(1542708350.693507) can0 628#0169DDF4ED86F81B
(1542708350.704447) can0 0CFDD634#01000100FF00F0C3
(1542708350.707791) can0 0CFDD633#01000100FF00F0C3
(1542708350.708443) can0 0CFDD734#0100FFFFFFFFFFFF
(1542708350.710881) can0 0CFDD733#0100FFFFFFFFFFFF
(1542708350.724396) can0 0CFDD634#01000100FF00F0C3
(1542708350.726843) can0 18FECA33#00FF00000000FFFF
(1542708350.727780) can0 0CFDD633#01000100FF00F0C3
(1542708350.728446) can0 0CFDD734#0100FFFFFFFFFFFF
(1542708350.730855) can0 0CFDD733#0100FFFFFFFFFFFF
(1542708350.733468) can0 628#0114DDA8EE89F81B
(1542708350.745330) can0 0CFDD634#01000100FF00F0C3
(1542708350.748743) can0 0CFDD633#01000100FF00F0C3
(1542708350.749353) can0 0CFDD734#0100FFFFFFFFFFFF
(1542708350.750781) can0 0CFDD733#0100FFFFFFFFFFFF
(1542708350.765317) can0 0CFDD634#01000100FF00F0C3
(1542708350.768702) can0 0CFDD633#01000100FF00F0C3
(1542708350.769327) can0 0CFDD734#0100FFFFFFFFFFFF
(1542708350.770724) can0 0CFDD733#0100FFFFFFFFFFFF
(1542708350.773481) can0 628#01D2DCF5EE94F81B
(1542708350.786274) can0 0CFDD634#01000100FF00F0C3
(1542708350.789684) can0 0CFDD633#01000100FF00F0C3
(1542708350.790382) can0 0CFDD734#0100FFFFFFFFFFFF
(1542708350.791743) can0 0CFDD733#0100FFFFFFFFFFFF
(1542708350.807263) can0 0CFDD634#01000100FF00F0C3
(1542708350.810753) can0 0CFDD633#01000100FF00F0C3
(1542708350.811283) can0 0CFDD734#0100FFFFFFFFFFFF
(1542708350.812753) can0 0CFDD733#0100FFFFFFFFFFFF
(1542708350.813545) can0 628#01A5DC78EF93F81B
(1542708350.827210) can0 0CFDD634#01000100FF00F0C3
(1542708350.830628) can0 0CFDD633#01000100FF00F0C3
(1542708350.832275) can0 0CFDD734#0100FFFFFFFFFFFF
(1542708350.833713) can0 0CFDD733#0100FFFFFFFFFFFF
(1542708350.847173) can0 0CFDD634#01000100FF00F0C3
(1542708350.850637) can0 0CFDD633#01000100FF00F0C3
(1542708350.853218) can0 0CFDD734#0100FFFFFFFFFFFF
(1542708350.853680) can0 628#015ADCF6EF9BF81B
(1542708350.854649) can0 0CFDD733#0100FFFFFFFFFFFF
(1542708350.868160) can0 0CFDD634#01000100FF00F0C3
(1542708350.871541) can0 0CFDD633#01000100FF00F0C3
(1542708350.873218) can0 0CFDD734#0100FFFFFFFFFFFF
(1542708350.875585) can0 0CFDD733#0100FFFFFFFFFFFF
(1542708350.888060) can0 0CFDD634#01000100FF00F0C3
(1542708350.891522) can0 0CFDD633#01000100FF00F0C3
(1542708350.893600) can0 628#0118DC7BF081F81B
(1542708350.894190) can0 0CFDD734#0100FFFFFFFFFFFF
(1542708350.895538) can0 0CFDD733#0100FFFFFFFFFFFF
(1542708350.909077) can0 0CFDD634#01000100FF00F0C3
(1542708350.912536) can0 0CFDD633#01000100FF00F0C3
(1542708350.914141) can0 0CFDD734#0100FFFFFFFFFFFF
(1542708350.916563) can0 0CFDD733#0100FFFFFFFFFFFF
(1542708350.929055) can0 0CFDD634#01000100FF00F0C3
(1542708350.932486) can0 0CFDD633#01000100FF00F0C3
(1542708350.933550) can0 628#01EFDBFCF08EF81B
(1542708350.935090) can0 0CFDD734#0100FFFFFFFFFFFF
(1542708350.936501) can0 0CFDD733#0100FFFFFFFFFFFF
(1542708350.949978) can0 0CFDD634#01000100FF00F0C3
(1542708350.953454) can0 0CFDD633#01000100FF00F0C3
(1542708350.955062) can0 0CFDD734#0100FFFFFFFFFFFF
(1542708350.956507) can0 0CFDD733#0100FFFFFFFFFFFF
(1542708350.971011) can0 0CFDD634#01000100FF00F0C3
(1542708350.973431) can0 0CFDD633#01000100FF00F0C3
(1542708350.973839) can0 628#01C3DB56F195F81B
(1542708350.975036) can0 0CFDD734#0100FFFFFFFFFFFF
(1542708350.976460) can0 0CFDD733#0100FFFFFFFFFFFF
(1542708350.990957) can0 0CFDD634#01000100FF00F0C3
(1542708350.994381) can0 0CFDD633#01000100FF00F0C3
(1542708350.995985) can0 0CFDD734#0100FFFFFFFFFFFF
(1542708350.997358) can0 0CFDD733#0100FFFFFFFFFFFF
(1542708351.010931) can0 0CFDD634#01000100FF00F0C3
(1542708351.013616) can0 628#0190DB0AF2D1F81B
(1542708351.014376) can0 0CFDD633#01000100FF00F0C3
(1542708351.016933) can0 0CFDD734#0100FFFFFFFFFFFF
(1542708351.018342) can0 0CFDD733#0100FFFFFFFFFFFF
(1542708351.031907) can0 0CFDD634#01000100FF00F0C3
(1542708351.035324) can0 0CFDD633#01000100FF00F0C3
(1542708351.036910) can0 0CFDD734#0100FFFFFFFFFFFF
(1542708351.039325) can0 0CFDD733#0100FFFFFFFFFFFF
(1542708351.052794) can0 0CFDD634#01000100FF00F0C3
(1542708351.053558) can0 628#0156DB75F2AAF81B
(1542708351.055298) can0 0CFDD633#01000100FF00F0C3
(1542708351.057880) can0 0CFDD734#0100FFFFFFFFFFFF
(1542708351.059288) can0 0CFDD733#0100FFFFFFFFFFFF
(1542708351.072831) can0 0CFDD634#01000100FF00F0C3
(1542708351.076277) can0 0CFDD633#01000100FF00F0C3
(1542708351.077854) can0 0CFDD734#0100FFFFFFFFFFFF
(1542708351.080204) can0 0CFDD733#0100FFFFFFFFFFFF
(1542708351.092780) can0 0CFDD634#01000100FF00F0C3
(1542708351.093622) can0 628#0133DBE8F297F81B
(1542708351.097222) can0 0CFDD633#01000100FF00F0C3
(1542708351.098828) can0 0CFDD734#0100FFFFFFFFFFFF
(1542708351.100155) can0 0CFDD733#0100FFFFFFFFFFFF
(1542708351.113751) can0 0CFDD634#01000100FF00F0C3
(1542708351.117191) can0 0CFDD633#01000100FF00F0C3
(1542708351.118738) can0 0CFDD734#0100FFFFFFFFFFFF
(1542708351.121155) can0 0CFDD733#0100FFFFFFFFFFFF
(1542708351.133753) can0 0CFDD634#01000100FF00F0C3
(1542708351.134113) can0 628#01E0DAFAF20CF91B
(1542708351.137139) can0 0CFDD633#01000100FF00F0C3
(1542708351.139713) can0 0CFDD734#0100FFFFFFFFFFFF
(1542708351.141192) can0 0CFDD733#0100FFFFFFFFFFFF
(1542708351.154712) can0 0CFDD634#01000100FF00F0C3
(1542708351.158112) can0 0CFDD633#01000100FF00F0C3
(1542708351.159713) can0 0CFDD734#0100FFFFFFFFFFFF
(1542708351.162139) can0 0CFDD733#0100FFFFFFFFFFFF
(1542708351.173753) can0 628#01CEDA25F46DFA1B
(1542708351.174647) can0 0CFDD634#01000100FF00F0C3
(1542708351.178090) can0 0CFDD633#01000100FF00F0C3
(1542708351.180602) can0 0CFDD734#0100FFFFFFFFFFFF
(1542708351.182113) can0 0CFDD733#0100FFFFFFFFFFFF
(1542708351.195610) can0 0CFDD634#01000100FF00F0C3
(1542708351.199061) can0 0CFDD633#01000100FF00F0C3
(1542708351.200640) can0 0CFDD734#0100FFFFFFFFFFFF
(1542708351.203062) can0 0CFDD733#0100FFFFFFFFFFFF
(1542708351.213635) can0 628#01AFDA97F48CF81B
(1542708351.215547) can0 0CFDD634#01000100FF00F0C3
(1542708351.219008) can0 0CFDD633#01000100FF00F0C3
(1542708351.221584) can0 0CFDD734#0100FFFFFFFFFFFF
(1542708351.223025) can0 0CFDD733#0100FFFFFFFFFFFF
(1542708351.236476) can0 0CFDD634#01000100FF00F0C3
(1542708351.239982) can0 0CFDD633#01000100FF00F0C3
(1542708351.241558) can0 0CFDD734#0100FFFFFFFFFFFF
(1542708351.243921) can0 0CFDD733#0100FFFFFFFFFFFF
(1542708351.253628) can0 628#017DDAC9F499F81B
(1542708351.257509) can0 0CFDD634#01000100FF00F0C3
(1542708351.259930) can0 0CFDD633#01000100FF00F0C3
(1542708351.262469) can0 0CFDD734#0100FFFFFFFFFFFF
(1542708351.263914) can0 0CFDD733#0100FFFFFFFFFFFF
(1542708351.277397) can0 0CFDD634#01000100FF00F0C3
(1542708351.280909) can0 0CFDD633#01000100FF00F0C3
(1542708351.282420) can0 0CFDD734#0100FFFFFFFFFFFF
(1542708351.284863) can0 0CFDD733#0100FFFFFFFFFFFF
(1542708351.293653) can0 628#0162DA70F586F81B
(1542708351.297416) can0 0CFDD634#01000100FF00F0C3
(1542708351.300875) can0 0CFDD633#01000100FF00F0C3
(1542708351.303385) can0 0CFDD734#0100FFFFFFFFFFFF
(1542708351.304864) can0 0CFDD733#0100FFFFFFFFFFFF
(1542708351.318399) can0 0CFDD634#01000100FF00F0C3
(1542708351.321853) can0 0CFDD633#01000100FF00F0C3
(1542708351.323367) can0 0CFDD734#0100FFFFFFFFFFFF
(1542708351.325833) can0 0CFDD733#0100FFFFFFFFFFFF
(1542708351.333751) can0 628#0145DAD2F58AF81B
(1542708351.338375) can0 0CFDD634#01000100FF00F0C3
(1542708351.341828) can0 0CFDD633#01000100FF00F0C3
(1542708351.344342) can0 0CFDD734#0100FFFFFFFFFFFF
(1542708351.345791) can0 0CFDD733#0100FFFFFFFFFFFF
(1542708351.359293) can0 0CFDD634#01000100FF00F0C3
(1542708351.362686) can0 0CFDD633#01000100FF00F0C3
(1542708351.364266) can0 0CFDD734#0100FFFFFFFFFFFF
(1542708351.365758) can0 0CFDD733#0100FFFFFFFFFFFF
(1542708351.373713) can0 628#0119DA6FF68FF81B
(1542708351.380303) can0 0CFDD634#01000100FF00F0C3
(1542708351.383688) can0 0CFDD633#01000100FF00F0C3
(1542708351.385215) can0 0CFDD734#0100FFFFFFFFFFFF
(1542708351.386738) can0 0CFDD733#0100FFFFFFFFFFFF
(1542708351.400247) can0 0CFDD634#01000100FF00F0C3
(1542708351.403688) can0 0CFDD633#01000100FF00F0C3
(1542708351.405189) can0 0CFDD734#0100FFFFFFFFFFFF
(1542708351.407711) can0 0CFDD733#0100FFFFFFFFFFFF
(1542708351.413751) can0 628#01E5D9F2F68FF81B
(1542708351.420218) can0 0CFDD634#01000100FF00F0C3
(1542708351.423668) can0 0CFDD633#01000100FF00F0C3
(1542708351.426180) can0 0CFDD734#0100FFFFFFFFFFFF
(1542708351.427702) can0 0CFDD733#0100FFFFFFFFFFFF
(1542708351.441190) can0 0CFDD634#01000100FF00F0C3
(1542708351.444602) can0 0CFDD633#01000100FF00F0C3
(1542708351.446154) can0 0CFDD734#0100FFFFFFFFFFFF
(1542708351.448597) can0 0CFDD733#0100FFFFFFFFFFFF
(1542708351.453660) can0 628#01C9D975F78FF81B
(1542708351.461141) can0 0CFDD634#01000100FF00F0C3
(1542708351.464576) can0 0CFDD633#01000100FF00F0C3
(1542708351.467094) can0 0CFDD734#0100FFFFFFFFFFFF
(1542708351.468561) can0 0CFDD733#0100FFFFFFFFFFFF
(1542708351.482011) can0 0CFDD634#01000100FF00F0C3
(1542708351.485523) can0 0CFDD633#01000100FF00F0C3
(1542708351.487078) can0 0CFDD734#0100FFFFFFFFFFFF
(1542708351.489535) can0 0CFDD733#0100FFFFFFFFFFFF
(1542708351.493736) can0 628#01B8D900F892F81B
(1542708351.503050) can0 0CFDD634#01000100FF00F0C3
(1542708351.506473) can0 0CFDD633#01000100FF00F0C3
(1542708351.508054) can0 0CFDD734#0100FFFFFFFFFFFF
(1542708351.509509) can0 0CFDD733#0100FFFFFFFFFFFF
(1542708351.522995) can0 0CFDD634#01000100FF00F0C3
(1542708351.526455) can0 0CFDD633#01000100FF00F0C3
(1542708351.527995) can0 0CFDD734#0100FFFFFFFFFFFF
(1542708351.530527) can0 0CFDD733#0100FFFFFFFFFFFF
(1542708351.533743) can0 628#0169D949F8FEF81B
(1542708351.543007) can0 0CFDD634#01000100FF00F0C3
(1542708351.546430) can0 0CFDD633#01000100FF00F0C3
(1542708351.547939) can0 0CFDD734#0100FFFFFFFFFFFF
(1542708351.550441) can0 0CFDD733#0100FFFFFFFFFFFF
(1542708351.563879) can0 0CFDD634#01000100FF00F0C3
(1542708351.567426) can0 0CFDD633#01000100FF00F0C3
(1542708351.568975) can0 0CFDD734#0100FFFFFFFFFFFF
(1542708351.570478) can0 0CFDD733#0100FFFFFFFFFFFF
(1542708351.573747) can0 628#0187D9BBF887F91B
(1542708351.583868) can0 0CFDD634#01000100FF00F0C3
(1542708351.587400) can0 0CFDD633#01000100FF00F0C3
(1542708351.588924) can0 0CFDD734#0100FFFFFFFFFFFF
(1542708351.590427) can0 0CFDD733#0100FFFFFFFFFFFF
(1542708351.604841) can0 0CFDD634#01000100FF00F0C3
(1542708351.608289) can0 0CFDD633#01000100FF00F0C3
(1542708351.609876) can0 0CFDD734#0100FFFFFFFFFFFF
(1542708351.611400) can0 0CFDD733#0100FFFFFFFFFFFF
(1542708351.613803) can0 628#015BD993F9D1FA1B
(1542708351.624814) can0 0CFDD634#01000100FF00F0C3
(1542708351.628310) can0 0CFDD633#01000100FF00F0C3
(1542708351.630877) can0 0CFDD734#0100FFFFFFFFFFFF
(1542708351.632332) can0 0CFDD733#0100FFFFFFFFFFFF
(1542708351.645783) can0 0CFDD634#01000100FF00F0C3
(1542708351.649265) can0 0CFDD633#01000100FF00F0C3
(1542708351.650816) can0 0CFDD734#0100FFFFFFFFFFFF
(1542708351.653290) can0 0CFDD733#0100FFFFFFFFFFFF
(1542708351.653680) can0 628#017AD933FA97F81B
(1542708351.665734) can0 0CFDD634#01000100FF00F0C3
(1542708351.669274) can0 0CFDD633#01000100FF00F0C3
(1542708351.671712) can0 0CFDD734#0100FFFFFFFFFFFF
(1542708351.673207) can0 0CFDD733#0100FFFFFFFFFFFF
(1542708351.686703) can0 0CFDD634#01000100FF00F0C3
(1542708351.688720) can0 18FECA34#00FF00000000FFFF
(1542708351.690223) can0 0CFDD633#01000100FF00F0C3
(1542708351.691730) can0 0CFDD734#0100FFFFFFFFFFFF
(1542708351.693767) can0 628#01E1D8F4F9D4F81B
(1542708351.694294) can0 0CFDD733#0100FFFFFFFFFFFF
(1542708351.706697) can0 0CFDD634#01000100FF00F0C3
(1542708351.711216) can0 0CFDD633#01000100FF00F0C3
(1542708351.712754) can0 0CFDD734#0100FFFFFFFFFFFF
(1542708351.714215) can0 0CFDD733#0100FFFFFFFFFFFF
(1542708351.725128) can0 18FECA33#00FF00000000FFFF
(1542708351.726710) can0 0CFDD634#01000100FF00F0C3
(1542708351.731162) can0 0CFDD633#01000100FF00F0C3
(1542708351.732695) can0 0CFDD734#0100FFFFFFFFFFFF
(1542708351.733706) can0 628#01E6D581FA2FFB1B
(1542708351.735123) can0 0CFDD733#0100FFFFFFFFFFFF
(1542708351.747615) can0 0CFDD634#01000100FF00F0C3
(1542708351.751097) can0 0CFDD633#01000100FF00F0C3
(1542708351.753655) can0 0CFDD734#0100FFFFFFFFFFFF
(1542708351.755123) can0 0CFDD733#0100FFFFFFFFFFFF
(1542708351.768597) can0 0CFDD634#01000100FF00F0C3
(1542708351.772113) can0 0CFDD633#01000100FF00F0C3
(1542708351.773633) can0 0CFDD734#0100FFFFFFFFFFFF
(1542708351.774025) can0 628#0177D5EAFBD7FE1B
(1542708351.775125) can0 0CFDD733#0100FFFFFFFFFFFF
(1542708351.789548) can0 0CFDD634#01000100FF00F0C3
(1542708351.792089) can0 0CFDD633#01000100FF00F0C3
(1542708351.794582) can0 0CFDD734#0100FFFFFFFFFFFF
(1542708351.796114) can0 0CFDD733#0100FFFFFFFFFFFF
(1542708351.809487) can0 0CFDD634#01000100FF00F0C3
(1542708351.813037) can0 0CFDD633#01000100FF00F0C3
(1542708351.813800) can0 628#0136D8EAFAB0001B
(1542708351.814591) can0 0CFDD734#0100FFFFFFFFFFFF
(1542708351.816996) can0 0CFDD733#0100FFFFFFFFFFFF
(1542708351.829466) can0 0CFDD634#01000100FF00F0C3
(1542708351.833011) can0 0CFDD633#01000100FF00F0C3
(1542708351.835413) can0 0CFDD734#0100FFFFFFFFFFFF
(1542708351.836938) can0 0CFDD733#0100FFFFFFFFFFFF
(1542708351.850427) can0 0CFDD634#01000100FF00F0C3
(1542708351.853758) can0 628#016BD9F1F933001B
(1542708351.854304) can0 0CFDD633#01000100FF00F0C3
(1542708351.855464) can0 0CFDD734#0100FFFFFFFFFFFF
(1542708351.857981) can0 0CFDD733#0100FFFFFFFFFFFF
(1542708351.870425) can0 0CFDD634#01000100FF00F0C3
(1542708351.873928) can0 0CFDD633#01000100FF00F0C3
(1542708351.876393) can0 0CFDD734#0100FFFFFFFFFFFF
(1542708351.877956) can0 0CFDD733#0100FFFFFFFFFFFF
(1542708351.891399) can0 0CFDD634#01000100FF00F0C3
(1542708351.893829) can0 628#01D0D80FFC70001B
(1542708351.894928) can0 0CFDD633#01000100FF00F0C3
(1542708351.896389) can0 0CFDD734#0100FFFFFFFFFFFF
(1542708351.898865) can0 0CFDD733#0100FFFFFFFFFFFF
(1542708351.911347) can0 0CFDD634#01000100FF00F0C3
(1542708351.915849) can0 0CFDD633#01000100FF00F0C3
(1542708351.917336) can0 0CFDD734#0100FFFFFFFFFFFF
(1542708351.918866) can0 0CFDD733#0100FFFFFFFFFFFF
(1542708351.932277) can0 0CFDD634#01000100FF00F0C3
(1542708351.933891) can0 628#0123D921FB9D001B
(1542708351.935786) can0 0CFDD633#01000100FF00F0C3
(1542708351.937310) can0 0CFDD734#0100FFFFFFFFFFFF
(1542708351.939804) can0 0CFDD733#0100FFFFFFFFFFFF
(1542708351.953294) can0 0CFDD634#01000100FF00F0C3
(1542708351.955760) can0 0CFDD633#01000100FF00F0C3
(1542708351.958322) can0 0CFDD734#0100FFFFFFFFFFFF
(1542708351.959791) can0 0CFDD733#0100FFFFFFFFFFFF
(1542708351.973242) can0 0CFDD634#01000100FF00F0C3
(1542708351.973773) can0 628#0178D925FA42001B
(1542708351.976771) can0 0CFDD633#01000100FF00F0C3
(1542708351.978296) can0 0CFDD734#0100FFFFFFFFFFFF
(1542708351.980735) can0 0CFDD733#0100FFFFFFFFFFFF
(1542708351.994174) can0 0CFDD634#01000100FF00F0C3
(1542708351.996749) can0 0CFDD633#01000100FF00F0C3
(1542708351.998223) can0 0CFDD734#0100FFFFFFFFFFFF
(1542708352.000655) can0 0CFDD733#0100FFFFFFFFFFFF
(1542708352.013851) can0 628#015FD621FB10021B
(1542708352.014408) can0 0CFDD634#01000100FF00F0C3
(1542708352.017746) can0 0CFDD633#01000100FF00F0C3
(1542708352.019175) can0 0CFDD734#0100FFFFFFFFFFFF
(1542708352.020691) can0 0CFDD733#0100FFFFFFFFFFFF
(1542708352.034166) can0 0CFDD634#01000100FF00F0C3
(1542708352.037658) can0 0CFDD633#01000100FF00F0C3
(1542708352.040074) can0 0CFDD734#0100FFFFFFFFFFFF
(1542708352.041747) can0 0CFDD733#0100FFFFFFFFFFFF
(1542708352.053864) can0 628#018DD5C6FBC7051B
(1542708352.055070) can0 0CFDD634#01000100FF00F0C3
(1542708352.058632) can0 0CFDD633#01000100FF00F0C3
(1542708352.060140) can0 0CFDD734#0100FFFFFFFFFFFF
(1542708352.062598) can0 0CFDD733#0100FFFFFFFFFFFF
(1542708352.076062) can0 0CFDD634#01000100FF00F0C3
(1542708352.079607) can0 0CFDD633#01000100FF00F0C3
(1542708352.081048) can0 0CFDD734#0100FFFFFFFFFFFF
(1542708352.082585) can0 0CFDD733#0100FFFFFFFFFFFF
(1542708352.093876) can0 628#013BD7F6F942081B
(1542708352.096036) can0 0CFDD634#01000100FF00F0C3
(1542708352.099554) can0 0CFDD633#01000100FF00F0C3
(1542708352.101060) can0 0CFDD734#0100FFFFFFFFFFFF
(1542708352.103581) can0 0CFDD733#0100FFFFFFFFFFFF
(1542708352.116010) can0 0CFDD634#01000100FF00F0C3
(1542708352.119527) can0 0CFDD633#01000100FF00F0C3
(1542708352.121967) can0 0CFDD734#0100FFFFFFFFFFFF
(1542708352.123517) can0 0CFDD733#0100FFFFFFFFFFFF
(1542708352.133879) can0 628#0169D9A1F93E081B
(1542708352.136978) can0 0CFDD634#01000100FF00F0C3
(1542708352.140480) can0 0CFDD633#01000100FF00F0C3
(1542708352.142005) can0 0CFDD734#0100FFFFFFFFFFFF
(1542708352.144507) can0 0CFDD733#0100FFFFFFFFFFFF
(1542708352.156927) can0 0CFDD634#01000100FF00F0C3
(1542708352.160449) can0 0CFDD633#01000100FF00F0C3
(1542708352.162916) can0 0CFDD734#0100FFFFFFFFFFFF
(1542708352.164465) can0 0CFDD733#0100FFFFFFFFFFFF
(1542708352.173874) can0 628#017CD9C9F930081B
(1542708352.177926) can0 0CFDD634#01000100FF00F0C3
(1542708352.181424) can0 0CFDD633#01000100FF00F0C3
(1542708352.182890) can0 0CFDD734#0100FFFFFFFFFFFF
(1542708352.184414) can0 0CFDD733#0100FFFFFFFFFFFF
(1542708352.197876) can0 0CFDD634#01000100FF00F0C3
(1542708352.201397) can0 0CFDD633#01000100FF00F0C3
(1542708352.203767) can0 0CFDD734#0100FFFFFFFFFFFF
(1542708352.205335) can0 0CFDD733#0100FFFFFFFFFFFF
(1542708352.213903) can0 628#013ED915F963081B
(1542708352.218785) can0 0CFDD634#01000100FF00F0C3
(1542708352.222308) can0 0CFDD633#01000100FF00F0C3
(1542708352.223784) can0 0CFDD734#0100FFFFFFFFFFFF
(1542708352.226322) can0 0CFDD733#0100FFFFFFFFFFFF
(1542708352.238797) can0 0CFDD634#01000100FF00F0C3
(1542708352.242336) can0 0CFDD633#01000100FF00F0C3
(1542708352.244706) can0 0CFDD734#0100FFFFFFFFFFFF
(1542708352.246310) can0 0CFDD733#0100FFFFFFFFFFFF
(1542708352.253838) can0 628#01BBD92FF830081B
(1542708352.259743) can0 0CFDD634#01000100FF00F0C3
(1542708352.263257) can0 0CFDD633#01000100FF00F0C3
(1542708352.264679) can0 0CFDD734#0100FFFFFFFFFFFF
(1542708352.267225) can0 0CFDD733#0100FFFFFFFFFFFF
(1542708352.279748) can0 0CFDD634#01000100FF00F0C3
(1542708352.283204) can0 0CFDD633#01000100FF00F0C3
(1542708352.285693) can0 0CFDD734#0100FFFFFFFFFFFF
(1542708352.287196) can0 0CFDD733#0100FFFFFFFFFFFF
(1542708352.293930) can0 628#0197D900F837081B
(1542708352.300745) can0 0CFDD634#01000100FF00F0C3
(1542708352.304194) can0 0CFDD633#01000100FF00F0C3
(1542708352.305681) can0 0CFDD734#0100FFFFFFFFFFFF
(1542708352.308186) can0 0CFDD733#0100FFFFFFFFFFFF
(1542708352.320662) can0 0CFDD634#01000100FF00F0C3
(1542708352.325094) can0 0CFDD633#01000100FF00F0C3
(1542708352.326608) can0 0CFDD734#0100FFFFFFFFFFFF
(1542708352.328146) can0 0CFDD733#0100FFFFFFFFFFFF
(1542708352.333930) can0 628#01B5D993F76D081B
(1542708352.341610) can0 0CFDD634#01000100FF00F0C3
(1542708352.345044) can0 0CFDD633#01000100FF00F0C3
(1542708352.346564) can0 0CFDD734#0100FFFFFFFFFFFF
(1542708352.349066) can0 0CFDD733#0100FFFFFFFFFFFF
(1542708352.361542) can0 0CFDD634#01000100FF00F0C3
(1542708352.365044) can0 0CFDD633#01000100FF00F0C3
(1542708352.367536) can0 0CFDD734#0100FFFFFFFFFFFF
(1542708352.369092) can0 0CFDD733#0100FFFFFFFFFFFF
(1542708352.374033) can0 628#0114DA93F648081B
(1542708352.382480) can0 0CFDD634#01000100FF00F0C3
(1542708352.386036) can0 0CFDD633#01000100FF00F0C3
(1542708352.387511) can0 0CFDD734#0100FFFFFFFFFFFF
(1542708352.390082) can0 0CFDD733#0100FFFFFFFFFFFF
(1542708352.402504) can0 0CFDD634#01000100FF00F0C3
(1542708352.406020) can0 0CFDD633#01000100FF00F0C3
(1542708352.407480) can0 0CFDD734#0100FFFFFFFFFFFF
(1542708352.410056) can0 0CFDD733#0100FFFFFFFFFFFF
(1542708352.413956) can0 628#010CDA65F63F081B
(1542708352.423474) can0 0CFDD634#01000100FF00F0C3
(1542708352.426993) can0 0CFDD633#01000100FF00F0C3
(1542708352.428458) can0 0CFDD734#0100FFFFFFFFFFFF
(1542708352.429981) can0 0CFDD733#0100FFFFFFFFFFFF
(1542708352.443380) can0 0CFDD634#01000100FF00F0C3
(1542708352.446941) can0 0CFDD633#01000100FF00F0C3
(1542708352.449402) can0 0CFDD734#0100FFFFFFFFFFFF
(1542708352.450938) can0 0CFDD733#0100FFFFFFFFFFFF
(1542708352.453908) can0 628#0120DA08F653081B
(1542708352.464364) can0 0CFDD634#01000100FF00F0C3
(1542708352.467892) can0 0CFDD633#01000100FF00F0C3
(1542708352.469375) can0 0CFDD734#0100FFFFFFFFFFFF
(1542708352.471951) can0 0CFDD733#0100FFFFFFFFFFFF
(1542708352.484309) can0 0CFDD634#01000100FF00F0C3
(1542708352.487865) can0 0CFDD633#01000100FF00F0C3
(1542708352.490371) can0 0CFDD734#0100FFFFFFFFFFFF
(1542708352.491952) can0 0CFDD733#0100FFFFFFFFFFFF
(1542708352.494003) can0 628#017BDA0FF537081B
(1542708352.505275) can0 0CFDD634#01000100FF00F0C3
(1542708352.508877) can0 0CFDD633#01000100FF00F0C3
(1542708352.510345) can0 0CFDD734#0100FFFFFFFFFFFF
(1542708352.512904) can0 0CFDD733#0100FFFFFFFFFFFF
(1542708352.526255) can0 0CFDD634#01000100FF00F0C3
(1542708352.528815) can0 0CFDD633#01000100FF00F0C3
(1542708352.531256) can0 0CFDD734#0100FFFFFFFFFFFF
(1542708352.532879) can0 0CFDD733#0100FFFFFFFFFFFF
(1542708352.533977) can0 628#0180DAE8F429081B
(1542708352.546231) can0 0CFDD634#01000100FF00F0C3
(1542708352.549778) can0 0CFDD633#01000100FF00F0C3
(1542708352.551218) can0 0CFDD734#0100FFFFFFFFFFFF
(1542708352.553763) can0 0CFDD733#0100FFFFFFFFFFFF
(1542708352.566123) can0 0CFDD634#01000100FF00F0C3
(1542708352.569706) can0 0CFDD633#01000100FF00F0C3
(1542708352.572118) can0 0CFDD734#0100FFFFFFFFFFFF
(1542708352.573725) can0 0CFDD733#0100FFFFFFFFFFFF
(1542708352.574177) can0 628#017EDA4DF458081B
(1542708352.587102) can0 0CFDD634#01000100FF00F0C3
(1542708352.590656) can0 0CFDD633#01000100FF00F0C3
(1542708352.592149) can0 0CFDD734#0100FFFFFFFFFFFF
(1542708352.593786) can0 0CFDD733#0100FFFFFFFFFFFF
(1542708352.608128) can0 0CFDD634#01000100FF00F0C3
(1542708352.610685) can0 0CFDD633#01000100FF00F0C3
(1542708352.613156) can0 0CFDD734#0100FFFFFFFFFFFF
(1542708352.613719) can0 0CFDD733#0100FFFFFFFFFFFF
(1542708352.614166) can0 628#01EADAA8F33E081B
(1542708352.628077) can0 0CFDD634#01000100FF00F0C3
(1542708352.631686) can0 0CFDD633#01000100FF00F0C3
(1542708352.633134) can0 0CFDD734#0100FFFFFFFFFFFF
(1542708352.634706) can0 0CFDD733#0100FFFFFFFFFFFF
(1542708352.649013) can0 0CFDD634#01000100FF00F0C3
(1542708352.652629) can0 0CFDD633#01000100FF00F0C3
(1542708352.653995) can0 0CFDD734#0100FFFFFFFFFFFF
(1542708352.654508) can0 628#010ADB2FF336081B
(1542708352.655695) can0 0CFDD733#0100FFFFFFFFFFFF
(1542708352.668992) can0 0CFDD634#01000100FF00F0C3
(1542708352.672604) can0 0CFDD633#01000100FF00F0C3
(1542708352.674055) can0 0CFDD734#0100FFFFFFFFFFFF
(1542708352.676571) can0 0CFDD733#0100FFFFFFFFFFFF
(1542708352.687018) can0 18FECA34#00FF00000000FFFF
(1542708352.688965) can0 0CFDD634#01000100FF00F0C3
(1542708352.692577) can0 0CFDD633#01000100FF00F0C3
(1542708352.693992) can0 628#011FDBD1F241081B
(1542708352.694980) can0 0CFDD734#0100FFFFFFFFFFFF
(1542708352.696603) can0 0CFDD733#0100FFFFFFFFFFFF
(1542708352.709976) can0 0CFDD634#01000100FF00F0C3
(1542708352.713552) can0 0CFDD633#01000100FF00F0C3
(1542708352.715002) can0 0CFDD734#0100FFFFFFFFFFFF
(1542708352.717556) can0 0CFDD733#0100FFFFFFFFFFFF
(1542708352.723545) can0 18FECA33#00FF00000000FFFF
(1542708352.729878) can0 0CFDD634#01000100FF00F0C3
(1542708352.734032) can0 628#017BDB34F23C081B
(1542708352.734584) can0 0CFDD633#01000100FF00F0C3
(1542708352.735914) can0 0CFDD734#0100FFFFFFFFFFFF
(1542708352.737478) can0 0CFDD733#0100FFFFFFFFFFFF
(1542708352.750860) can0 0CFDD634#01000100FF00F0C3
(1542708352.754427) can0 0CFDD633#01000100FF00F0C3
(1542708352.755887) can0 0CFDD734#0100FFFFFFFFFFFF
(1542708352.758475) can0 0CFDD733#0100FFFFFFFFFFFF
(1542708352.771845) can0 0CFDD634#01000100FF00F0C3
(1542708352.774028) can0 628#01A5DB8CF12B081B
(1542708352.775447) can0 0CFDD633#01000100FF00F0C3
(1542708352.776898) can0 0CFDD734#0100FFFFFFFFFFFF
(1542708352.778474) can0 0CFDD733#0100FFFFFFFFFFFF
(1542708352.791819) can0 0CFDD634#01000100FF00F0C3
(1542708352.796421) can0 0CFDD633#01000100FF00F0C3
(1542708352.797755) can0 0CFDD734#0100FFFFFFFFFFFF
(1542708352.799421) can0 0CFDD733#0100FFFFFFFFFFFF
(1542708352.811795) can0 0CFDD634#01000100FF00F0C3
(1542708352.814157) can0 628#01B0DB75F13F081B
(1542708352.817373) can0 0CFDD633#01000100FF00F0C3
(1542708352.818794) can0 0CFDD734#0100FFFFFFFFFFFF
(1542708352.820399) can0 0CFDD733#0100FFFFFFFFFFFF
(1542708352.832772) can0 0CFDD634#01000100FF00F0C3
(1542708352.837347) can0 0CFDD633#01000100FF00F0C3
(1542708352.838732) can0 0CFDD734#0100FFFFFFFFFFFF
(1542708352.841293) can0 0CFDD733#0100FFFFFFFFFFFF
(1542708352.852744) can0 0CFDD634#01000100FF00F0C3
(1542708352.854017) can0 628#0102DC9DF04D081B
(1542708352.857316) can0 0CFDD633#01000100FF00F0C3
(1542708352.859743) can0 0CFDD734#0100FFFFFFFFFFFF
(1542708352.861317) can0 0CFDD733#0100FFFFFFFFFFFF
(1542708352.873743) can0 0CFDD634#01000100FF00F0C3
(1542708352.877271) can0 0CFDD633#01000100FF00F0C3
(1542708352.879743) can0 0CFDD734#0100FFFFFFFFFFFF
(1542708352.881290) can0 0CFDD733#0100FFFFFFFFFFFF
(1542708352.893591) can0 0CFDD634#01000100FF00F0C3
(1542708352.894074) can0 628#014EDC1DF03D081B
(1542708352.897242) can0 0CFDD633#01000100FF00F0C3
(1542708352.899618) can0 0CFDD734#0100FFFFFFFFFFFF
(1542708352.901266) can0 0CFDD733#0100FFFFFFFFFFFF
(1542708352.914607) can0 0CFDD634#01000100FF00F0C3
(1542708352.918216) can0 0CFDD633#01000100FF00F0C3
(1542708352.919629) can0 0CFDD734#0100FFFFFFFFFFFF
(1542708352.922210) can0 0CFDD733#0100FFFFFFFFFFFF
(1542708352.934043) can0 628#0156DCD1EF39081B
(1542708352.934602) can0 0CFDD634#01000100FF00F0C3
(1542708352.938102) can0 0CFDD633#01000100FF00F0C3
(1542708352.940577) can0 0CFDD734#0100FFFFFFFFFFFF
(1542708352.942174) can0 0CFDD733#0100FFFFFFFFFFFF
(1542708352.955495) can0 0CFDD634#01000100FF00F0C3
(1542708352.959131) can0 0CFDD633#01000100FF00F0C3
(1542708352.960552) can0 0CFDD734#0100FFFFFFFFFFFF
(1542708352.963116) can0 0CFDD733#0100FFFFFFFFFFFF
(1542708352.974046) can0 628#01B1DC3FEF50081B
(1542708352.975405) can0 0CFDD634#01000100FF00F0C3
(1542708352.979104) can0 0CFDD633#01000100FF00F0C3
(1542708352.981462) can0 0CFDD734#0100FFFFFFFFFFFF
(1542708352.983066) can0 0CFDD733#0100FFFFFFFFFFFF
(1542708352.996435) can0 0CFDD634#01000100FF00F0C3
(1542708353.000046) can0 0CFDD633#01000100FF00F0C3
(1542708353.001500) can0 0CFDD734#0100FFFFFFFFFFFF
(1542708353.003105) can0 0CFDD733#0100FFFFFFFFFFFF
(1542708353.014017) can0 628#0116DDA6EE3E081B
(1542708353.017384) can0 0CFDD634#01000100FF00F0C3
(1542708353.020032) can0 0CFDD633#01000100FF00F0C3
(1542708353.022410) can0 0CFDD734#0100FFFFFFFFFFFF
(1542708353.023016) can0 0CFDD733#0100FFFFFFFFFFFF
(1542708353.037350) can0 0CFDD634#01000100FF00F0C3
(1542708353.040994) can0 0CFDD633#01000100FF00F0C3
(1542708353.042410) can0 0CFDD734#0100FFFFFFFFFFFF
(1542708353.043006) can0 0CFDD733#0100FFFFFFFFFFFF
(1542708353.054106) can0 628#0124DD4CEE34081B
(1542708353.057316) can0 0CFDD634#01000100FF00F0C3
(1542708353.060886) can0 0CFDD633#01000100FF00F0C3
(1542708353.063273) can0 0CFDD734#0100FFFFFFFFFFFF
(1542708353.063907) can0 0CFDD733#0100FFFFFFFFFFFF
(1542708353.078214) can0 0CFDD634#01000100FF00F0C3
(1542708353.081823) can0 0CFDD633#01000100FF00F0C3
(1542708353.083243) can0 0CFDD734#0100FFFFFFFFFFFF
(1542708353.083875) can0 0CFDD733#0100FFFFFFFFFFFF
(1542708353.094083) can0 628#0165DDFCED32081B
(1542708353.098188) can0 0CFDD634#01000100FF00F0C3
(1542708353.101796) can0 0CFDD633#01000100FF00F0C3
(1542708353.104189) can0 0CFDD734#0100FFFFFFFFFFFF
(1542708353.104822) can0 0CFDD733#0100FFFFFFFFFFFF
(1542708353.119163) can0 0CFDD634#01000100FF00F0C3
(1542708353.122769) can0 0CFDD633#01000100FF00F0C3
(1542708353.124196) can0 0CFDD734#0100FFFFFFFFFFFF
(1542708353.124795) can0 0CFDD733#0100FFFFFFFFFFFF
(1542708353.134031) can0 628#01DADD25ED3D081B
(1542708353.139107) can0 0CFDD634#01000100FF00F0C3
(1542708353.143745) can0 0CFDD633#01000100FF00F0C3
(1542708353.145138) can0 0CFDD734#0100FFFFFFFFFFFF
(1542708353.145777) can0 0CFDD733#0100FFFFFFFFFFFF
(1542708353.160081) can0 0CFDD634#01000100FF00F0C3
(1542708353.163700) can0 0CFDD633#01000100FF00F0C3
(1542708353.165108) can0 0CFDD734#0100FFFFFFFFFFFF
(1542708353.165718) can0 0CFDD733#0100FFFFFFFFFFFF
(1542708353.174029) can0 628#01FADDDEEC32081B
(1542708353.180027) can0 0CFDD634#01000100FF00F0C3
(1542708353.183663) can0 0CFDD633#01000100FF00F0C3
(1542708353.186054) can0 0CFDD734#0100FFFFFFFFFFFF
(1542708353.186689) can0 0CFDD733#0100FFFFFFFFFFFF
(1542708353.201001) can0 0CFDD634#01000100FF00F0C3
(1542708353.204637) can0 0CFDD633#01000100FF00F0C3
(1542708353.206027) can0 0CFDD734#0100FFFFFFFFFFFF
(1542708353.206663) can0 0CFDD733#0100FFFFFFFFFFFF
(1542708353.214053) can0 628#0128DE68EC32081B
(1542708353.221980) can0 0CFDD634#01000100FF00F0C3
(1542708353.224637) can0 0CFDD633#01000100FF00F0C3
(1542708353.226000) can0 0CFDD734#0100FFFFFFFFFFFF
(1542708353.227636) can0 0CFDD733#0100FFFFFFFFFFFF
(1542708353.241923) can0 0CFDD634#01000100FF00F0C3
(1542708353.245551) can0 0CFDD633#01000100FF00F0C3
(1542708353.246948) can0 0CFDD734#0100FFFFFFFFFFFF
(1542708353.247636) can0 0CFDD733#0100FFFFFFFFFFFF
(1542708353.254134) can0 628#018FDEDBEB3D081B
(1542708353.261897) can0 0CFDD634#01000100FF00F0C3
(1542708353.265525) can0 0CFDD633#01000100FF00F0C3
(1542708353.267897) can0 0CFDD734#0100FFFFFFFFFFFF
(1542708353.268556) can0 0CFDD733#0100FFFFFFFFFFFF
(1542708353.282871) can0 0CFDD634#01000100FF00F0C3
(1542708353.286498) can0 0CFDD633#01000100FF00F0C3
(1542708353.287897) can0 0CFDD734#0100FFFFFFFFFFFF
(1542708353.289523) can0 0CFDD733#0100FFFFFFFFFFFF
(1542708353.294083) can0 628#01EFDEABEBE8071B
(1542708353.302818) can0 0CFDD634#01000100FF00F0C3
(1542708353.306446) can0 0CFDD633#01000100FF00F0C3
(1542708353.308819) can0 0CFDD734#0100FFFFFFFFFFFF
(1542708353.309482) can0 0CFDD733#0100FFFFFFFFFFFF
(1542708353.323792) can0 0CFDD634#01000100FF00F0C3
(1542708353.327420) can0 0CFDD633#01000100FF00F0C3
(1542708353.328819) can0 0CFDD734#0100FFFFFFFFFFFF
(1542708353.329452) can0 0CFDD733#0100FFFFFFFFFFFF
(1542708353.334079) can0 628#0117DFC8EA16081B
(1542708353.344771) can0 0CFDD634#01000100FF00F0C3
(1542708353.348394) can0 0CFDD633#01000100FF00F0C3
(1542708353.349767) can0 0CFDD734#0100FFFFFFFFFFFF
(1542708353.350430) can0 0CFDD733#0100FFFFFFFFFFFF
(1542708353.364715) can0 0CFDD634#01000100FF00F0C3
(1542708353.368341) can0 0CFDD633#01000100FF00F0C3
(1542708353.369741) can0 0CFDD734#0100FFFFFFFFFFFF
(1542708353.371394) can0 0CFDD733#0100FFFFFFFFFFFF
(1542708353.374104) can0 628#015CDFA8EA40081B
(1542708353.385689) can0 0CFDD634#01000100FF00F0C3
(1542708353.388317) can0 0CFDD633#01000100FF00F0C3
(1542708353.390689) can0 0CFDD734#0100FFFFFFFFFFFF
(1542708353.391352) can0 0CFDD733#0100FFFFFFFFFFFF
(1542708353.405663) can0 0CFDD634#01000100FF00F0C3
(1542708353.409289) can0 0CFDD633#01000100FF00F0C3
(1542708353.410663) can0 0CFDD734#0100FFFFFFFFFFFF
(1542708353.411326) can0 0CFDD733#0100FFFFFFFFFFFF
(1542708353.414185) can0 628#01CEDF02EA34081B
(1542708353.426636) can0 0CFDD634#01000100FF00F0C3
(1542708353.429263) can0 0CFDD633#01000100FF00F0C3
(1542708353.431637) can0 0CFDD734#0100FFFFFFFFFFFF
(1542708353.432325) can0 0CFDD733#0100FFFFFFFFFFFF
(1542708353.446637) can0 0CFDD634#01000100FF00F0C3
(1542708353.450211) can0 0CFDD633#01000100FF00F0C3
(1542708353.451636) can0 0CFDD734#0100FFFFFFFFFFFF
(1542708353.453238) can0 0CFDD733#0100FFFFFFFFFFFF
(1542708353.454104) can0 628#010CE0B7E938081B
(1542708353.466550) can0 0CFDD634#01000100FF00F0C3
(1542708353.470185) can0 0CFDD633#01000100FF00F0C3
(1542708353.472549) can0 0CFDD734#0100FFFFFFFFFFFF
(1542708353.473216) can0 0CFDD733#0100FFFFFFFFFFFF
(1542708353.487498) can0 0CFDD634#01000100FF00F0C3
(1542708353.491159) can0 0CFDD633#01000100FF00F0C3
(1542708353.492523) can0 0CFDD734#0100FFFFFFFFFFFF
(1542708353.493189) can0 0CFDD733#0100FFFFFFFFFFFF
(1542708353.494133) can0 628#015BE04DE9EB071B
(1542708353.507471) can0 0CFDD634#01000100FF00F0C3
(1542708353.511133) can0 0CFDD633#01000100FF00F0C3
(1542708353.513471) can0 0CFDD734#0100FFFFFFFFFFFF
(1542708353.514159) can0 0CFDD733#0100FFFFFFFFFFFF
(1542708353.528419) can0 0CFDD634#01000100FF00F0C3
(1542708353.532103) can0 0CFDD633#01000100FF00F0C3
(1542708353.533445) can0 0CFDD734#0100FFFFFFFFFFFF
(1542708353.534184) can0 628#01BBE0B5E801081B
(1542708353.535103) can0 0CFDD733#0100FFFFFFFFFFFF
(1542708353.548394) can0 0CFDD634#01000100FF00F0C3
(1542708353.553052) can0 0CFDD633#01000100FF00F0C3
(1542708353.554419) can0 0CFDD734#0100FFFFFFFFFFFF
(1542708353.556078) can0 0CFDD733#0100FFFFFFFFFFFF
(1542708353.569387) can0 0CFDD634#01000100FF00F0C3
(1542708353.573108) can0 0CFDD633#01000100FF00F0C3
(1542708353.574241) can0 628#010BE155E81C081B
(1542708353.574786) can0 0CFDD734#0100FFFFFFFFFFFF
(1542708353.577108) can0 0CFDD733#0100FFFFFFFFFFFF
(1542708353.589385) can0 0CFDD634#01000100FF00F0C3
(1542708353.593056) can0 0CFDD633#01000100FF00F0C3
(1542708353.595450) can0 0CFDD734#0100FFFFFFFFFFFF
(1542708353.597109) can0 0CFDD733#0100FFFFFFFFFFFF
(1542708353.610327) can0 0CFDD634#01000100FF00F0C3
(1542708353.614030) can0 0CFDD633#01000100FF00F0C3
(1542708353.614471) can0 628#014BE1F4E72A081B
(1542708353.615386) can0 0CFDD734#0100FFFFFFFFFFFF
(1542708353.618030) can0 0CFDD733#0100FFFFFFFFFFFF
(1542708353.630344) can0 0CFDD634#01000100FF00F0C3
(1542708353.633944) can0 0CFDD633#01000100FF00F0C3
(1542708353.636282) can0 0CFDD734#0100FFFFFFFFFFFF
(1542708353.637940) can0 0CFDD733#0100FFFFFFFFFFFF
(1542708353.651257) can0 0CFDD634#01000100FF00F0C3
(1542708353.654241) can0 628#01B0E19AE716081B
(1542708353.654968) can0 0CFDD633#01000100FF00F0C3
(1542708353.656276) can0 0CFDD734#0100FFFFFFFFFFFF
(1542708353.657947) can0 0CFDD733#0100FFFFFFFFFFFF
(1542708353.671243) can0 0CFDD634#01000100FF00F0C3
(1542708353.675938) can0 0CFDD633#01000100FF00F0C3
(1542708353.677306) can0 0CFDD734#0100FFFFFFFFFFFF
(1542708353.677953) can0 0CFDD733#0100FFFFFFFFFFFF
(1542708353.685195) can0 18FECA34#00FF00000000FFFF
(1542708353.692218) can0 0CFDD634#01000100FF00F0C3
(1542708353.694285) can0 628#0127E214E7CF071B
(1542708353.695917) can0 0CFDD633#01000100FF00F0C3
(1542708353.697285) can0 0CFDD734#0100FFFFFFFFFFFF
(1542708353.698910) can0 0CFDD733#0100FFFFFFFFFFFF
(1542708353.712133) can0 0CFDD634#01000100FF00F0C3
(1542708353.716819) can0 0CFDD633#01000100FF00F0C3
(1542708353.718225) can0 0CFDD734#0100FFFFFFFFFFFF
(1542708353.718873) can0 0CFDD733#0100FFFFFFFFFFFF
(1542708353.721871) can0 18FECA33#00FF00000000FFFF
(1542708353.733125) can0 0CFDD634#01000100FF00F0C3
(1542708353.734238) can0 628#015CE20FE79B071B
(1542708353.736795) can0 0CFDD633#01000100FF00F0C3
(1542708353.738157) can0 0CFDD734#0100FFFFFFFFFFFF
(1542708353.738891) can0 0CFDD733#0100FFFFFFFFFFFF
(1542708353.753117) can0 0CFDD634#01000100FF00F0C3
(1542708353.756779) can0 0CFDD633#01000100FF00F0C3
(1542708353.759066) can0 0CFDD734#0100FFFFFFFFFFFF
(1542708353.759823) can0 0CFDD733#0100FFFFFFFFFFFF
(1542708353.774103) can0 0CFDD634#01000100FF00F0C3
(1542708353.774498) can0 628#01DAE2BBE680061B
(1542708353.777726) can0 0CFDD633#01000100FF00F0C3
(1542708353.779060) can0 0CFDD734#0100FFFFFFFFFFFF
(1542708353.779772) can0 0CFDD733#0100FFFFFFFFFFFF
(1542708353.793995) can0 0CFDD634#01000100FF00F0C3
(1542708353.797720) can0 0CFDD633#01000100FF00F0C3
(1542708353.800057) can0 0CFDD734#0100FFFFFFFFFFFF
(1542708353.800725) can0 0CFDD733#0100FFFFFFFFFFFF
(1542708353.814295) can0 628#01EBE26FE507071B
(1542708353.815056) can0 0CFDD634#01000100FF00F0C3
(1542708353.818727) can0 0CFDD633#01000100FF00F0C3
(1542708353.820041) can0 0CFDD734#0100FFFFFFFFFFFF
(1542708353.821690) can0 0CFDD733#0100FFFFFFFFFFFF
(1542708353.835989) can0 0CFDD634#01000100FF00F0C3
(1542708353.838682) can0 0CFDD633#01000100FF00F0C3
(1542708353.840996) can0 0CFDD734#0100FFFFFFFFFFFF
(1542708353.841689) can0 0CFDD733#0100FFFFFFFFFFFF
(1542708353.854327) can0 628#0162E39CE52D081B
(1542708353.855902) can0 0CFDD634#01000100FF00F0C3
(1542708353.859632) can0 0CFDD633#01000100FF00F0C3
(1542708353.860980) can0 0CFDD734#0100FFFFFFFFFFFF
(1542708353.862596) can0 0CFDD733#0100FFFFFFFFFFFF
(1542708353.876901) can0 0CFDD634#01000100FF00F0C3
(1542708353.879579) can0 0CFDD633#01000100FF00F0C3
(1542708353.881928) can0 0CFDD734#0100FFFFFFFFFFFF
(1542708353.882604) can0 0CFDD733#0100FFFFFFFFFFFF
(1542708353.894282) can0 628#01A5E344E534081B
(1542708353.896882) can0 0CFDD634#01000100FF00F0C3
(1542708353.900563) can0 0CFDD633#01000100FF00F0C3
(1542708353.901870) can0 0CFDD734#0100FFFFFFFFFFFF
(1542708353.902550) can0 0CFDD733#0100FFFFFFFFFFFF
(1542708353.917830) can0 0CFDD634#01000100FF00F0C3
(1542708353.921474) can0 0CFDD633#01000100FF00F0C3
(1542708353.922813) can0 0CFDD734#0100FFFFFFFFFFFF
(1542708353.923503) can0 0CFDD733#0100FFFFFFFFFFFF
(1542708353.934318) can0 628#0111E4EBE430081B
(1542708353.937799) can0 0CFDD634#01000100FF00F0C3
(1542708353.941500) can0 0CFDD633#01000100FF00F0C3
(1542708353.942776) can0 0CFDD734#0100FFFFFFFFFFFF
(1542708353.944454) can0 0CFDD733#0100FFFFFFFFFFFF
(1542708353.957778) can0 0CFDD634#01000100FF00F0C3
(1542708353.962463) can0 0CFDD633#01000100FF00F0C3
(1542708353.963736) can0 0CFDD734#0100FFFFFFFFFFFF
(1542708353.964458) can0 0CFDD733#0100FFFFFFFFFFFF
(1542708353.974384) can0 628#0180E476E41F081B
(1542708353.978756) can0 0CFDD634#01000100FF00F0C3
(1542708353.983440) can0 0CFDD633#01000100FF00F0C3
(1542708353.984707) can0 0CFDD734#0100FFFFFFFFFFFF
(1542708353.985443) can0 0CFDD733#0100FFFFFFFFFFFF
(1542708353.998666) can0 0CFDD634#01000100FF00F0C3
(1542708354.004300) can0 0CFDD633#01000100FF00F0C3
(1542708354.005729) can0 0CFDD734#0100FFFFFFFFFFFF
(1542708354.006408) can0 0CFDD733#0100FFFFFFFFFFFF
(1542708354.014349) can0 628#01DFE41EE431081B
(1542708354.019725) can0 0CFDD634#01000100FF00F0C3
(1542708354.024273) can0 0CFDD633#01000100FF00F0C3
(1542708354.025668) can0 0CFDD734#0100FFFFFFFFFFFF
(1542708354.026342) can0 0CFDD733#0100FFFFFFFFFFFF
(1542708354.040583) can0 0CFDD634#01000100FF00F0C3
(1542708354.045292) can0 0CFDD633#01000100FF00F0C3
(1542708354.046700) can0 0CFDD734#0100FFFFFFFFFFFF
(1542708354.047310) can0 0CFDD733#0100FFFFFFFFFFFF
(1542708354.054364) can0 628#015EE5D7E3D7071B
(1542708354.060599) can0 0CFDD634#01000100FF00F0C3
(1542708354.065223) can0 0CFDD633#01000100FF00F0C3
(1542708354.066529) can0 0CFDD734#0100FFFFFFFFFFFF
(1542708354.068214) can0 0CFDD733#0100FFFFFFFFFFFF
(1542708354.080563) can0 0CFDD634#01000100FF00F0C3
(1542708354.086245) can0 0CFDD633#01000100FF00F0C3
(1542708354.087536) can0 0CFDD734#0100FFFFFFFFFFFF
(1542708354.088264) can0 0CFDD733#0100FFFFFFFFFFFF
(1542708354.094349) can0 628#01A4E552E323081B
(1542708354.101531) can0 0CFDD634#01000100FF00F0C3
(1542708354.106228) can0 0CFDD633#01000100FF00F0C3
(1542708354.107494) can0 0CFDD734#0100FFFFFFFFFFFF
(1542708354.109205) can0 0CFDD733#0100FFFFFFFFFFFF
(1542708354.121487) can0 0CFDD634#01000100FF00F0C3
(1542708354.126201) can0 0CFDD633#01000100FF00F0C3
(1542708354.128454) can0 0CFDD734#0100FFFFFFFFFFFF
(1542708354.129210) can0 0CFDD733#0100FFFFFFFFFFFF
(1542708354.134438) can0 628#011AE616E326081B
(1542708354.142384) can0 0CFDD634#01000100FF00F0C3
(1542708354.146083) can0 0CFDD633#01000100FF00F0C3
(1542708354.148414) can0 0CFDD734#0100FFFFFFFFFFFF
(1542708354.149129) can0 0CFDD733#0100FFFFFFFFFFFF
(1542708354.162431) can0 0CFDD634#01000100FF00F0C3
(1542708354.166115) can0 0CFDD633#01000100FF00F0C3
(1542708354.168389) can0 0CFDD734#0100FFFFFFFFFFFF
(1542708354.169129) can0 0CFDD733#0100FFFFFFFFFFFF
(1542708354.174340) can0 628#018FE6A7E219081B
(1542708354.183385) can0 0CFDD634#01000100FF00F0C3
(1542708354.187097) can0 0CFDD633#01000100FF00F0C3
(1542708354.188379) can0 0CFDD734#0100FFFFFFFFFFFF
(1542708354.190123) can0 0CFDD733#0100FFFFFFFFFFFF
(1542708354.204298) can0 0CFDD634#01000100FF00F0C3
(1542708354.207074) can0 0CFDD633#01000100FF00F0C3
(1542708354.209301) can0 0CFDD734#0100FFFFFFFFFFFF
(1542708354.210057) can0 0CFDD733#0100FFFFFFFFFFFF
(1542708354.214333) can0 628#01E8E65CE214081B
(1542708354.224276) can0 0CFDD634#01000100FF00F0C3
(1542708354.228005) can0 0CFDD633#01000100FF00F0C3
(1542708354.229275) can0 0CFDD734#0100FFFFFFFFFFFF
(1542708354.230995) can0 0CFDD733#0100FFFFFFFFFFFF
(1542708354.245242) can0 0CFDD634#01000100FF00F0C3
(1542708354.247940) can0 0CFDD633#01000100FF00F0C3
(1542708354.250242) can0 0CFDD734#0100FFFFFFFFFFFF
(1542708354.251021) can0 0CFDD733#0100FFFFFFFFFFFF
(1542708354.254375) can0 628#015DE731E23E071B
(1542708354.265187) can0 0CFDD634#01000100FF00F0C3
(1542708354.268909) can0 0CFDD633#01000100FF00F0C3
(1542708354.270259) can0 0CFDD734#0100FFFFFFFFFFFF
(1542708354.270975) can0 0CFDD733#0100FFFFFFFFFFFF
(1542708354.285168) can0 0CFDD634#01000100FF00F0C3
(1542708354.288848) can0 0CFDD633#01000100FF00F0C3
(1542708354.291183) can0 0CFDD734#0100FFFFFFFFFFFF
(1542708354.291901) can0 0CFDD733#0100FFFFFFFFFFFF
(1542708354.294524) can0 628#0176E7DBE1DE071B
(1542708354.306169) can0 0CFDD634#01000100FF00F0C3
(1542708354.309844) can0 0CFDD633#01000100FF00F0C3
(1542708354.311149) can0 0CFDD734#0100FFFFFFFFFFFF
(1542708354.312913) can0 0CFDD733#0100FFFFFFFFFFFF
(1542708354.326124) can0 0CFDD634#01000100FF00F0C3
(1542708354.329805) can0 0CFDD633#01000100FF00F0C3
(1542708354.332081) can0 0CFDD734#0100FFFFFFFFFFFF
(1542708354.332855) can0 0CFDD733#0100FFFFFFFFFFFF
(1542708354.334388) can0 628#0147E8E0E03A081B
(1542708354.347053) can0 0CFDD634#01000100FF00F0C3
(1542708354.350839) can0 0CFDD633#01000100FF00F0C3
(1542708354.352079) can0 0CFDD734#0100FFFFFFFFFFFF
(1542708354.353770) can0 0CFDD733#0100FFFFFFFFFFFF
(1542708354.367002) can0 0CFDD634#01000100FF00F0C3
(1542708354.371731) can0 0CFDD633#01000100FF00F0C3
(1542708354.373081) can0 0CFDD734#0100FFFFFFFFFFFF
(1542708354.373822) can0 0CFDD733#0100FFFFFFFFFFFF
(1542708354.374395) can0 628#0191E806E120081B
(1542708354.387967) can0 0CFDD634#01000100FF00F0C3
(1542708354.391752) can0 0CFDD633#01000100FF00F0C3
(1542708354.392977) can0 0CFDD734#0100FFFFFFFFFFFF
(1542708354.394712) can0 0CFDD733#0100FFFFFFFFFFFF
(1542708354.407914) can0 0CFDD634#01000100FF00F0C3
(1542708354.411680) can0 0CFDD633#01000100FF00F0C3
(1542708354.414021) can0 0CFDD734#0100FFFFFFFFFFFF
(1542708354.414406) can0 628#0115E9B3E024081B
(1542708354.415037) can0 0CFDD733#0100FFFFFFFFFFFF
(1542708354.428875) can0 0CFDD634#01000100FF00F0C3
(1542708354.432636) can0 0CFDD633#01000100FF00F0C3
(1542708354.433896) can0 0CFDD734#0100FFFFFFFFFFFF
(1542708354.435724) can0 0CFDD733#0100FFFFFFFFFFFF
(1542708354.448867) can0 0CFDD634#01000100FF00F0C3
(1542708354.452598) can0 0CFDD633#01000100FF00F0C3
(1542708354.453913) can0 0CFDD734#0100FFFFFFFFFFFF
(1542708354.454425) can0 628#0180E965E004081B
(1542708354.455695) can0 0CFDD733#0100FFFFFFFFFFFF
(1542708354.469841) can0 0CFDD634#01000100FF00F0C3
(1542708354.473568) can0 0CFDD633#01000100FF00F0C3
(1542708354.474880) can0 0CFDD734#0100FFFFFFFFFFFF
(1542708354.475614) can0 0CFDD733#0100FFFFFFFFFFFF
(1542708354.490864) can0 0CFDD634#01000100FF00F0C3
(1542708354.493596) can0 0CFDD633#01000100FF00F0C3
(1542708354.494491) can0 628#01E0E915E0F7071B
(1542708354.495828) can0 0CFDD734#0100FFFFFFFFFFFF
(1542708354.496535) can0 0CFDD733#0100FFFFFFFFFFFF
(1542708354.510715) can0 0CFDD634#01000100FF00F0C3
(1542708354.514446) can0 0CFDD633#01000100FF00F0C3
(1542708354.515766) can0 0CFDD734#0100FFFFFFFFFFFF
(1542708354.517470) can0 0CFDD733#0100FFFFFFFFFFFF
(1542708354.530688) can0 0CFDD634#01000100FF00F0C3
(1542708354.534418) can0 0CFDD633#01000100FF00F0C3
(1542708354.534892) can0 628#014FEABDDF1B081B
(1542708354.535735) can0 0CFDD734#0100FFFFFFFFFFFF
(1542708354.537440) can0 0CFDD733#0100FFFFFFFFFFFF
(1542708354.551696) can0 0CFDD634#01000100FF00F0C3
(1542708354.555434) can0 0CFDD633#01000100FF00F0C3
(1542708354.556690) can0 0CFDD734#0100FFFFFFFFFFFF
(1542708354.557513) can0 0CFDD733#0100FFFFFFFFFFFF
(1542708354.571686) can0 0CFDD634#01000100FF00F0C3
(1542708354.574524) can0 628#01CFEA65DF1C081B
(1542708354.575459) can0 0CFDD633#01000100FF00F0C3
(1542708354.577723) can0 0CFDD734#0100FFFFFFFFFFFF
(1542708354.578490) can0 0CFDD733#0100FFFFFFFFFFFF
(1542708354.592726) can0 0CFDD634#01000100FF00F0C3
(1542708354.596406) can0 0CFDD633#01000100FF00F0C3
(1542708354.597724) can0 0CFDD734#0100FFFFFFFFFFFF
(1542708354.598466) can0 0CFDD733#0100FFFFFFFFFFFF
(1542708354.613646) can0 0CFDD634#01000100FF00F0C3
(1542708354.614516) can0 628#013EEB28DF13081B
(1542708354.617382) can0 0CFDD633#01000100FF00F0C3
(1542708354.618641) can0 0CFDD734#0100FFFFFFFFFFFF
(1542708354.619439) can0 0CFDD733#0100FFFFFFFFFFFF
(1542708354.633562) can0 0CFDD634#01000100FF00F0C3
(1542708354.637366) can0 0CFDD633#01000100FF00F0C3
(1542708354.638585) can0 0CFDD734#0100FFFFFFFFFFFF
(1542708354.640356) can0 0CFDD733#0100FFFFFFFFFFFF
(1542708354.654533) can0 0CFDD634#01000100FF00F0C3
(1542708354.654935) can0 628#01B8EBDBDE24081B
(1542708354.657220) can0 0CFDD633#01000100FF00F0C3
(1542708354.659488) can0 0CFDD734#0100FFFFFFFFFFFF
(1542708354.660345) can0 0CFDD733#0100FFFFFFFFFFFF
(1542708354.674549) can0 0CFDD634#01000100FF00F0C3
(1542708354.678200) can0 0CFDD633#01000100FF00F0C3
(1542708354.679543) can0 0CFDD734#0100FFFFFFFFFFFF
(1542708354.681313) can0 0CFDD733#0100FFFFFFFFFFFF
(1542708354.683506) can0 18FECA34#00FF00000000FFFF
(1542708354.694422) can0 0CFDD634#01000100FF00F0C3
(1542708354.694899) can0 628#014FEC96DE09081B
(1542708354.698190) can0 0CFDD633#01000100FF00F0C3
(1542708354.700519) can0 0CFDD734#0100FFFFFFFFFFFF
(1542708354.701241) can0 0CFDD733#0100FFFFFFFFFFFF
(1542708354.715465) can0 0CFDD634#01000100FF00F0C3
(1542708354.719231) can0 0CFDD633#01000100FF00F0C3
(1542708354.720208) can0 18FECA33#00FF00000000FFFF
(1542708354.720838) can0 0CFDD734#0100FFFFFFFFFFFF
(1542708354.722257) can0 0CFDD733#0100FFFFFFFFFFFF
(1542708354.734595) can0 628#01BBEC46DE0C081B
(1542708354.735464) can0 0CFDD634#01000100FF00F0C3
(1542708354.739166) can0 0CFDD633#01000100FF00F0C3
(1542708354.741440) can0 0CFDD734#0100FFFFFFFFFFFF
(1542708354.742194) can0 0CFDD733#0100FFFFFFFFFFFF
(1542708354.756331) can0 0CFDD634#01000100FF00F0C3
(1542708354.760095) can0 0CFDD633#01000100FF00F0C3
(1542708354.761410) can0 0CFDD734#0100FFFFFFFFFFFF
(1542708354.763136) can0 0CFDD733#0100FFFFFFFFFFFF
(1542708354.774542) can0 628#0110ED29DE09081B
(1542708354.776361) can0 0CFDD634#01000100FF00F0C3
(1542708354.781123) can0 0CFDD633#01000100FF00F0C3
(1542708354.782387) can0 0CFDD734#0100FFFFFFFFFFFF
(1542708354.783130) can0 0CFDD733#0100FFFFFFFFFFFF
(1542708354.797298) can0 0CFDD634#01000100FF00F0C3
(1542708354.801102) can0 0CFDD633#01000100FF00F0C3
(1542708354.802284) can0 0CFDD734#0100FFFFFFFFFFFF
(1542708354.804007) can0 0CFDD733#0100FFFFFFFFFFFF
(1542708354.814513) can0 628#01B0EDEFDD57071B
(1542708354.817283) can0 0CFDD634#01000100FF00F0C3
(1542708354.821008) can0 0CFDD633#01000100FF00F0C3
(1542708354.823309) can0 0CFDD734#0100FFFFFFFFFFFF
(1542708354.824011) can0 0CFDD733#0100FFFFFFFFFFFF
(1542708354.838235) can0 0CFDD634#01000100FF00F0C3
(1542708354.842024) can0 0CFDD633#01000100FF00F0C3
(1542708354.843247) can0 0CFDD734#0100FFFFFFFFFFFF
(1542708354.844979) can0 0CFDD733#0100FFFFFFFFFFFF
(1542708354.854532) can0 628#0102EE67DD9D071B
(1542708354.858201) can0 0CFDD634#01000100FF00F0C3
(1542708354.861967) can0 0CFDD633#01000100FF00F0C3
(1542708354.864144) can0 0CFDD734#0100FFFFFFFFFFFF
(1542708354.864965) can0 0CFDD733#0100FFFFFFFFFFFF
(1542708354.879093) can0 0CFDD634#01000100FF00F0C3
(1542708354.882858) can0 0CFDD633#01000100FF00F0C3
(1542708354.884133) can0 0CFDD734#0100FFFFFFFFFFFF
(1542708354.885921) can0 0CFDD733#0100FFFFFFFFFFFF
(1542708354.894733) can0 628#0186EE49DD07081B
(1542708354.899154) can0 0CFDD634#01000100FF00F0C3
(1542708354.902915) can0 0CFDD633#01000100FF00F0C3
(1542708354.905105) can0 0CFDD734#0100FFFFFFFFFFFF
(1542708354.905931) can0 0CFDD733#0100FFFFFFFFFFFF
(1542708354.920102) can0 0CFDD634#01000100FF00F0C3
(1542708354.923813) can0 0CFDD633#01000100FF00F0C3
(1542708354.925076) can0 0CFDD734#0100FFFFFFFFFFFF
(1542708354.926854) can0 0CFDD733#0100FFFFFFFFFFFF
(1542708354.934535) can0 628#0106EF31DD50071B
(1542708354.940023) can0 0CFDD634#01000100FF00F0C3
(1542708354.943757) can0 0CFDD633#01000100FF00F0C3
(1542708354.946036) can0 0CFDD734#0100FFFFFFFFFFFF
(1542708354.946810) can0 0CFDD733#0100FFFFFFFFFFFF
(1542708354.960983) can0 0CFDD634#01000100FF00F0C3
(1542708354.964721) can0 0CFDD633#01000100FF00F0C3
(1542708354.966034) can0 0CFDD734#0100FFFFFFFFFFFF
(1542708354.966798) can0 0CFDD733#0100FFFFFFFFFFFF
(1542708354.974546) can0 628#015CEFCBDCA7071B
(1542708354.980991) can0 0CFDD634#01000100FF00F0C3
(1542708354.984737) can0 0CFDD633#01000100FF00F0C3
(1542708354.986983) can0 0CFDD734#0100FFFFFFFFFFFF
(1542708354.987747) can0 0CFDD733#0100FFFFFFFFFFFF
(1542708355.001972) can0 0CFDD634#01000100FF00F0C3
(1542708355.005732) can0 0CFDD633#01000100FF00F0C3
(1542708355.006951) can0 0CFDD734#0100FFFFFFFFFFFF
(1542708355.008727) can0 0CFDD733#0100FFFFFFFFFFFF
(1542708355.014562) can0 628#0105F08CDCE8071B
(1542708355.021914) can0 0CFDD634#01000100FF00F0C3
(1542708355.025734) can0 0CFDD633#01000100FF00F0C3
(1542708355.027827) can0 0CFDD734#0100FFFFFFFFFFFF
(1542708355.028759) can0 0CFDD733#0100FFFFFFFFFFFF
(1542708355.042916) can0 0CFDD634#01000100FF00F0C3
(1542708355.046681) can0 0CFDD633#01000100FF00F0C3
(1542708355.047831) can0 0CFDD734#0100FFFFFFFFFFFF
(1542708355.048696) can0 0CFDD733#0100FFFFFFFFFFFF
(1542708355.054577) can0 628#015AF06CDC01081B
(1542708355.063774) can0 0CFDD634#01000100FF00F0C3
(1542708355.066600) can0 0CFDD633#01000100FF00F0C3
(1542708355.068868) can0 0CFDD734#0100FFFFFFFFFFFF
(1542708355.069658) can0 0CFDD733#0100FFFFFFFFFFFF
(1542708355.083725) can0 0CFDD634#01000100FF00F0C3
(1542708355.087593) can0 0CFDD633#01000100FF00F0C3
(1542708355.088841) can0 0CFDD734#0100FFFFFFFFFFFF
(1542708355.090620) can0 0CFDD733#0100FFFFFFFFFFFF
(1542708355.094585) can0 628#01D3F04BDCF9071B
(1542708355.103710) can0 0CFDD634#01000100FF00F0C3
(1542708355.107567) can0 0CFDD633#01000100FF00F0C3
(1542708355.109704) can0 0CFDD734#0100FFFFFFFFFFFF
(1542708355.110594) can0 0CFDD733#0100FFFFFFFFFFFF
(1542708355.124722) can0 0CFDD634#01000100FF00F0C3
(1542708355.128451) can0 0CFDD633#01000100FF00F0C3
(1542708355.129692) can0 0CFDD734#0100FFFFFFFFFFFF
(1542708355.131456) can0 0CFDD733#0100FFFFFFFFFFFF
(1542708355.134596) can0 628#0183F11EDC8A071B
(1542708355.145680) can0 0CFDD634#01000100FF00F0C3
(1542708355.148478) can0 0CFDD633#01000100FF00F0C3
(1542708355.150697) can0 0CFDD734#0100FFFFFFFFFFFF
(1542708355.151505) can0 0CFDD733#0100FFFFFFFFFFFF
(1542708355.165689) can0 0CFDD634#01000100FF00F0C3
(1542708355.169457) can0 0CFDD633#01000100FF00F0C3
(1542708355.170697) can0 0CFDD734#0100FFFFFFFFFFFF
(1542708355.171489) can0 0CFDD733#0100FFFFFFFFFFFF
(1542708355.174685) can0 628#01D7F1A8DBB2071B
(1542708355.186646) can0 0CFDD634#01000100FF00F0C3
(1542708355.190399) can0 0CFDD633#01000100FF00F0C3
(1542708355.191609) can0 0CFDD734#0100FFFFFFFFFFFF
(1542708355.192463) can0 0CFDD733#0100FFFFFFFFFFFF
(1542708355.206593) can0 0CFDD634#01000100FF00F0C3
(1542708355.210374) can0 0CFDD633#01000100FF00F0C3
(1542708355.211608) can0 0CFDD734#0100FFFFFFFFFFFF
(1542708355.213365) can0 0CFDD733#0100FFFFFFFFFFFF
(1542708355.214595) can0 628#014EF296DB0F081B
(1542708355.226530) can0 0CFDD634#01000100FF00F0C3
(1542708355.230358) can0 0CFDD633#01000100FF00F0C3
(1542708355.232594) can0 0CFDD734#0100FFFFFFFFFFFF
(1542708355.233374) can0 0CFDD733#0100FFFFFFFFFFFF
(1542708355.247504) can0 0CFDD634#01000100FF00F0C3
(1542708355.251333) can0 0CFDD633#01000100FF00F0C3
(1542708355.252535) can0 0CFDD734#0100FFFFFFFFFFFF
(1542708355.254322) can0 0CFDD733#0100FFFFFFFFFFFF
(1542708355.254717) can0 628#01CBF278DB19081B
(1542708355.267451) can0 0CFDD634#01000100FF00F0C3
