(1542702746.972215) can0 628#01AAFF96FE8D001E
(1542702747.012137) can0 628#01A3FFA9FE48001E
(1542702747.052180) can0 628#01A9FF93FE56001E
(1542702747.092165) can0 628#01AAFF9CFEDA001E
(1542702747.132304) can0 628#019EFFADFE5A001E
(1542702747.172164) can0 628#01A8FF9EFE42001E
(1542702747.212352) can0 628#01A7FF9FFE4A001E
(1542702747.252277) can0 628#01AAFFA4FE3E001E
(1542702747.292350) can0 628#01ABFFA5FE52001E
(1542702747.332341) can0 628#01ACFFAAFE27001E
(1542702747.372354) can0 628#01ABFFA0FE53001E
(1542702747.412405) can0 628#01A7FFA8FE3C001E
(1542702747.452267) can0 628#01AEFFA6FE3A001E
(1542702747.492261) can0 628#01A6FFB4FE00001E
(1542702747.532345) can0 628#0121FF9CFEB2001E
(1542702747.572458) can0 628#0159007FFE63021E
(1542702747.612303) can0 628#013F00D7FE5F001E
(1542702747.652318) can0 628#011D00B2FE59001E
(1542702747.692320) can0 628#01FBFFA4FE5B011E
(1542702747.732313) can0 628#015BFFB4FEAF021E
(1542702747.772369) can0 628#01E80007FF78041E
(1542702747.812422) can0 628#01E40232FEC7041E
(1542702747.852499) can0 628#01A804B3FE82021E
(1542702747.892420) can0 628#01A30473FEA9001E
(1542702747.932453) can0 628#011E04A3FED1011E
(1542702747.972504) can0 628#01D00456FE72021E
(1542702748.012384) can0 628#012B0677FE2A031E
(1542702748.052394) can0 628#01800757FEA4021E
(1542702748.092424) can0 628#01EA0857FEB1021E
(1542702748.132508) can0 628#01030B68FE33011E
(1542702748.172465) can0 628#01A80B5DFE00001E
(1542702748.212434) can0 628#01E70BFFFDC4011E
(1542702748.252445) can0 628#01B30D14FE23021E
(1542702748.292536) can0 628#012D0F08FE24031E
(1542702748.332460) can0 628#01111100FE89031E
(1542702748.372456) can0 628#01371304FE3F021E
(1542702748.412484) can0 628#01E914CCFDED011E
(1542702748.452573) can0 628#01D31506FE80001E
(1542702748.492485) can0 628#01A415C3FD6D001E
(1542702748.532523) can0 628#011016E8FD76011E
(1542702748.572675) can0 628#01531707FE04011E
(1542702748.612534) can0 628#012018F5FDDA001E
(1542702748.652609) can0 628#018D18EEFDFD001E
(1542702748.692556) can0 628#0190190EFEBA001E
(1542702748.732630) can0 628#01221A2EFECDFF1E
(1542702748.772617) can0 628#016E1A04FE0DFF1E
(1542702748.812593) can0 628#01DF1928FE8CFE1E
(1542702748.852591) can0 628#01171A04FEB6001E
(1542702748.892614) can0 628#01461B0FFE6E001E
(1542702748.932604) can0 628#01DC1B66FED0001E
(1542702748.972657) can0 628#019D1C39FE35011E
(1542702749.012800) can0 628#013B1E44FE94001E
(1542702749.052638) can0 628#01861E1EFE2A001E
(1542702749.092729) can0 628#01061F1BFEE6001E
(1542702749.132782) can0 628#017C1F3EFEFE001E
(1542702749.172767) can0 628#019E2029FEFEFF1E
(1542702749.212772) can0 628#014F201FFEFB001E
(1542702749.252769) can0 628#01AC2125FE8A001E
(1542702749.292845) can0 628#01C6212EFE19001E
(1542702749.332789) can0 628#017B21FFFD88FF1E
(1542702749.372822) can0 628#013B2151FE3E001E
(1542702749.412822) can0 628#013B2124FE82001E
(1542702749.452924) can0 628#01DC2129FE09001E
(1542702749.492820) can0 628#018E2121FED6FF1E
(1542702749.532845) can0 628#01762110FE4A001E
(1542702749.572870) can0 628#0137212BFE6BFF1E
(1542702749.612868) can0 628#01B120FAFD31001E
(1542702749.652864) can0 628#01532122FE46001E
(1542702749.692894) can0 628#01262120FE2D001E
(1542702749.732928) can0 628#0169210BFE39001E
(1542702749.772920) can0 628#0157210FFE3A001E
(1542702749.812918) can0 628#0158211DFECBFF1E
(1542702749.852848) can0 628#01D720EEFD41001E
(1542702749.893016) can0 628#0159210DFE51001E
(1542702749.932966) can0 628#014921FFFD51001E
(1542702749.972940) can0 628#01C62120FECFFF1E
(1542702750.012966) can0 628#01B620F0FDBCFF1E
(1542702750.052989) can0 628#01F1200BFE5E001E
(1542702750.092959) can0 628#01162102FEA4FF1E
(1542702750.133010) can0 628#01E920F0FD6C001E
(1542702750.173099) can0 628#01142107FE19001E
(1542702750.213013) can0 628#01E420F9FD4C001E
(1542702750.253038) can0 628#01E92006FE10001E
(1542702750.293090) can0 628#01A220F9FD7E001E
(1542702750.333039) can0 628#01A62107FEA3FF1E
(1542702750.373032) can0 628#015420E4FDEEFF1E
(1542702750.413061) can0 628#017120F2FDB8001E
(1542702750.453138) can0 628#01FD200CFE35001E
(1542702750.493085) can0 628#01FB20EFFD3A001E
(1542702750.533112) can0 628#01D72001FE05001E
(1542702750.573010) can0 628#010E21EBFD22001E
(1542702750.613121) can0 628#019120EEFDF3FF1E
(1542702750.653039) can0 628#01842001FEA9001E
(1542702750.693062) can0 628#01BB20E8FDF0FF1E
(1542702750.733134) can0 628#019C20ECFD97001E
(1542702750.773158) can0 628#01112107FEF2FF1E
(1542702750.813112) can0 628#015320E0FD2F001E
(1542702750.853168) can0 628#01B12007FE69001E
(1542702750.893283) can0 628#01B520E3FDF9FF1E
(1542702750.933196) can0 628#018020F3FDA1001E
(1542702750.973176) can0 628#01D62006FEC5FF1E
(1542702751.013206) can0 628#014420DEFD0C001E
(1542702751.053291) can0 628#019B20EDFDB6001E
(1542702751.093290) can0 628#01AB20F6FDC0FF1E
(1542702751.133290) can0 628#010C20E7FDAF001E
(1542702751.173284) can0 628#01F92011FE50001E
(1542702751.213289) can0 628#01732008FEB6FF1E
(1542702751.253287) can0 628#01C71FFFFDDD001E
(1542702751.293287) can0 628#01322010FEF5FF1E
(1542702751.333364) can0 628#015C2008FEEDFF1E
(1542702751.373199) can0 628#011720EBFD2A001E
(1542702751.413261) can0 628#01D81FF3FD2A001E
(1542702751.453354) can0 628#01B11F0AFE53001E
(1542702751.493309) can0 628#01761F2EFE64FF1E
(1542702751.533309) can0 628#01951EDCFDF7FF1E
(1542702751.573328) can0 628#013E1F16FEFBFF1E
(1542702751.613409) can0 628#01A91EEBFD99FF1E
(1542702751.653358) can0 628#018F1E03FEE9FF1E
(1542702751.693356) can0 628#011B1E08FE81FF1E
(1542702751.733382) can0 628#016A1DE8FDF3FF1E
(1542702751.773485) can0 628#01021D0FFE55FF1E
(1542702751.813372) can0 628#013E1CFDFDC4FF1E
(1542702751.853406) can0 628#014D1CF5FDB8FF1E
(1542702751.893429) can0 628#01E71BD9FDA2FF1E
(1542702751.933426) can0 628#018D1BF7FD0E001E
(1542702751.973431) can0 628#012E1BFCFDA8FF1E
(1542702752.013451) can0 628#017C1AF8FD1C001E
(1542702752.053532) can0 628#01E319FAFD25001E
(1542702752.093449) can0 628#018A19E9FD68001E
(1542702752.133478) can0 628#01CF191AFE36001E
(1542702752.173505) can0 628#01D81820FE7DFF1E
(1542702752.213580) can0 628#010418F7FDB2FF1E
(1542702752.253501) can0 628#013B170CFEE6FF1E
(1542702752.293497) can0 628#0103171CFEE6FF1E
(1542702752.333526) can0 628#018E1606FE8DFF1E
(1542702752.373525) can0 628#01821605FEF0FF1E
(1542702752.413547) can0 628#01291608FE4EFF1E
(1542702752.453549) can0 628#011D151BFE4FFF1E
(1542702752.493540) can0 628#01691431FEAEFF1E
(1542702752.533574) can0 628#01D71324FE45001E
(1542702752.573573) can0 628#01571425FE8AFF1E
(1542702752.613624) can0 628#01A51300FE35001E
(1542702752.653572) can0 628#01FB1341FED7FF1E
(1542702752.693500) can0 628#01191213FE9EFE1E
(1542702752.733604) can0 628#0194113DFEA0001E
(1542702752.773681) can0 628#01FB102DFE15FF1E
(1542702752.813640) can0 628#01921034FED2001E
(1542702752.853623) can0 628#017D1168FEFEFF1E
(1542702752.893579) can0 628#01831041FEC2FE1E
(1542702752.933680) can0 628#010F0F30FE7D001E
(1542702752.973581) can0 628#01A00E79FEB6FF1E
(1542702753.013694) can0 628#01F10D64FE88001E
(1542702753.053719) can0 628#01D70E68FE0F001E
(1542702753.093593) can0 628#01760E73FE9DFF1E
(1542702753.133633) can0 628#01E10D8CFEE6FE1E
(1542702753.173699) can0 628#01DB0B5EFE79FF1E
(1542702753.213798) can0 628#01C90BDEFE7AFF1E
(1542702753.253745) can0 628#01500AB1FEF3FF1E
(1542702753.293685) can0 628#01A40AABFE5E001E
(1542702753.333742) can0 628#01580ACAFED4FF1E
(1542702753.373846) can0 628#018E09C2FE6C001E
(1542702753.413748) can0 628#01B909B9FE67001E
(1542702753.453788) can0 628#011E09B9FE50001E
(1542702753.493729) can0 628#010A09FAFE51001E
(1542702753.533812) can0 628#01CB070CFF4EFF1E
(1542702753.573812) can0 628#0162060AFF84FF1E
(1542702753.613815) can0 628#01610621FF2F001E
(1542702753.653914) can0 628#01320533FF63001E
(1542702753.693738) can0 628#01F70435FF9C011E
(1542702753.733862) can0 628#01950493FF75FF1E
(1542702753.773913) can0 628#019F034CFFCF001E
(1542702753.813825) can0 628#01920383FFFAFF1E
(1542702753.853888) can0 628#01980361FF3D001E
(1542702753.893824) can0 628#012F0357FFF5FF1E
(1542702753.933973) can0 628#01B70240FF44001E
(1542702753.973909) can0 628#01840234FF12001E
(1542702754.013933) can0 628#01180204FFF3FF1E
(1542702754.053936) can0 628#01740227FF8BFF1E
(1542702754.093988) can0 628#01ECFE0AFFF5001E
(1542702754.133950) can0 628#01A8FF32FF55011E
(1542702754.173983) can0 628#01B1FF06FFB0001E
(1542702754.213980) can0 628#01AFFFEFFE6B001E
(1542702754.253985) can0 628#01BDFFDEFEA6001E
(1542702754.293957) can0 628#01ABFFDDFED1001E
(1542702754.334010) can0 628#01ADFFD5FE92001E
(1542702754.374088) can0 628#01AAFFCDFEA2001E
(1542702754.413941) can0 628#01A8FFC9FE94001E
(1542702754.454028) can0 628#01A5FFC5FE48001E
(1542702754.493981) can0 628#01A2FFBAFE6A001E
(1542702754.534134) can0 628#01A8FFB6FE94001E
(1542702754.574057) can0 628#01A4FFB7FE80001E
(1542702754.614083) can0 628#01A8FFB1FE95001E
(1542702754.654106) can0 628#019FFFC2FE51001E
(1542702754.694055) can0 628#01A00015FF1AFE1E
(1542702754.734105) can0 628#01FEFE3EFE2FFE1E
(1542702754.774104) can0 628#014AFF82FE4E001E
(1542702754.814213) can0 628#01A8FF9BFE49001E
(1542702754.854105) can0 628#01AAFF9EFE58001E
(1542702754.894164) can0 628#01F5FF98FE03001E
(1542702754.934213) can0 628#01CAFF9CFE1EFD1E
(1542702754.974208) can0 628#0140FFA4FE4C001E
(1542702755.014213) can0 628#01A7FF9EFE57001E
(1542702755.054208) can0 628#01D9FF26FEBC001E
(1542702755.094281) can0 628#011801F9FD23FE1E
(1542702755.134206) can0 628#0111FF72FF4DFE1E
(1542702755.174204) can0 628#01ADFEEEFE07001E
(1542702755.214130) can0 628#0198FFA1FE4D001E
(1542702755.254225) can0 628#01A9FF9BFE5C001E
(1542702755.294228) can0 628#01A9FF9DFE56001E
(1542702755.334231) can0 628#01AAFF9BFE4C001E
(1542702755.374256) can0 628#01AAFF9CFE4F001E
(1542702755.414256) can0 628#01ABFF9BFE55001E
(1542702755.454282) can0 628#019E0007FFB5FA1E
(1542702755.494276) can0 628#01D3FE38FED8FE1E
(1542702755.534385) can0 628#019DFF91FE5B001E
(1542702755.574301) can0 628#01CCFEBEFE31021E
(1542702755.614300) can0 628#01BBFFC7FE93051E
(1542702755.654329) can0 628#015B007BFE4C011E
(1542702755.694429) can0 628#01A8FF90FEA4001E
(1542702755.734351) can0 628#01A7FF80FE68001E
(1542702755.774352) can0 628#01A7FF9DFE45001E
(1542702755.814379) can0 628#01A8FFAFFEC8001E
(1542702755.854373) can0 628#01B3FFB0FE47011E
(1542702755.894373) can0 628#019AFF88FEAF001E
(1542702755.934377) can0 628#01A1FF9BFE96001E
(1542702755.974492) can0 628#01A5FFA9FE81001E
(1542702756.014388) can0 628#01ADFF8DFED4001E
(1542702756.054426) can0 628#0194FFA9FEBD001E
(1542702756.094436) can0 628#01ADFFA3FE1D011E
(1542702756.134450) can0 628#0195FFBBFEFE001E
(1542702756.174449) can0 628#019FFFC2FE48001E
(1542702756.214351) can0 628#0194FFA4FE44001E
(1542702756.254529) can0 628#015AFF9DFE63001E
(1542702756.294448) can0 628#0182FFA3FEAC001E
(1542702756.334457) can0 628#01D3FF25FF74FF1E
(1542702756.374484) can0 628#0170FF9FFE66001E
(1542702756.414585) can0 628#017C0055FF65FD1E
(1542702756.454482) can0 628#012AFEDAFE27FF1E
(1542702756.494505) can0 628#0149FFEDFE4E001E
(1542702756.534540) can0 628#01FBFE84FF4EFF1E
(1542702756.574539) can0 628#01CDFE1AFFC7FF1E
(1542702756.614544) can0 628#01AAFE9EFF73FF1E
(1542702756.654566) can0 628#016DFE4FFF09FF1E
(1542702756.694642) can0 628#0180FD37FF3EFE1E
(1542702756.734590) can0 628#0161FC71FF88FD1E
(1542702756.774595) can0 628#0145FB71FFF4FF1E
(1542702756.814619) can0 628#014DFB73FFB2FF1E
(1542702756.854693) can0 628#0163FB8CFFF6FE1E
(1542702756.894602) can0 628#012EFA73FF78FF1E
(1542702756.934617) can0 628#018CFA9DFF32001E
(1542702756.974642) can0 628#0164FAFFFFC1FD1E
(1542702757.014671) can0 628#0160F867FF05001E
(1542702757.054645) can0 628#01E6F81A00C5FF1E
(1542702757.094652) can0 628#01C0F7CAFFFEFD1E
(1542702757.134767) can0 628#013EF5E6FF8E001E
(1542702757.174688) can0 628#015CF5DDFF8FFF1E
(1542702757.214646) can0 628#0140F4F3FF5DFF1E
(1542702757.254694) can0 628#01DFF3FCFF79FF1E
(1542702757.294711) can0 628#01DBF2DDFF85FE1E
(1542702757.334714) can0 628#0130F1DDFF9EFE1E
(1542702757.374709) can0 628#0160EF9EFF39FF1E
(1542702757.414817) can0 628#010BEF92FF13FE1E
(1542702757.454739) can0 628#0183EDB8FFCBFE1E
(1542702757.494759) can0 628#01CBECA3FFBCFE1E
(1542702757.534764) can0 628#01E7EA7BFF11FE1E
(1542702757.574863) can0 628#01CCE96EFF6EFE1E
(1542702757.614786) can0 628#01ACE8AAFFA7FD1E
(1542702757.654814) can0 628#016AE71BFFB5FE1E
(1542702757.694809) can0 628#0131E6BBFF34FD1E
(1542702757.734834) can0 628#01D8E31EFFF6FF1E
(1542702757.774835) can0 628#017CE359FF97FF1E
(1542702757.814831) can0 628#0179E3AAFFDFFE1E
(1542702757.854908) can0 628#0182E245FF60FF1E
(1542702757.894855) can0 628#01D2E186FF49FE1E
(1542702757.934877) can0 628#0149E077FF3EFF1E
(1542702757.974885) can0 628#0108E084FF4F001E
(1542702758.014988) can0 628#0133E09BFFBF001E
(1542702758.054909) can0 628#018EE060FFFCFF1E
(1542702758.094903) can0 628#01A5DF95FF6C001E
(1542702758.134932) can0 628#0102E085FFCE001E
(1542702758.174857) can0 628#01F8DF93FF7F001E
(1542702758.214906) can0 628#01BBDF56FF7B011E
(1542702758.254941) can0 628#0157E087FFF5FF1E
(1542702758.295006) can0 628#0170DF44FFDD021E
(1542702758.334947) can0 628#0155E100FFAB001E
(1542702758.374981) can0 628#01DEDF80FFD6FF1E
(1542702758.415032) can0 628#0150E03EFFD4001E
(1542702758.454921) can0 628#0149E01DFF95FF1E
(1542702758.494906) can0 628#0154E04DFFFE001E
(1542702758.535025) can0 628#013DE0F9FEEAFF1E
(1542702758.575138) can0 628#011AE05AFF5B001E
(1542702758.615026) can0 628#0147E01AFF99011E
(1542702758.655053) can0 628#01B1E034FF85FF1E
(1542702758.695098) can0 628#013FE01AFFDF001E
(1542702758.735160) can0 628#0158E02AFF2D001E
(1542702758.775058) can0 628#0150E036FFEC001E
(1542702758.815126) can0 628#01D3E02FFF4F001E
(1542702758.855128) can0 628#0124E028FFF5FF1E
(1542702758.895111) can0 628#019AE02FFFA7001E
(1542702758.935130) can0 628#016FE038FF56001E
(1542702758.975129) can0 628#0155E028FF96001E
(1542702759.015209) can0 628#01A4E044FFB1001E
(1542702759.055157) can0 628#0154E019FFAC001E
(1542702759.095152) can0 628#01A4E037FF9B001E
(1542702759.135156) can0 628#01B8E01FFF79001E
(1542702759.175260) can0 628#019FE028FF36001E
(1542702759.215139) can0 628#01D8E037FF7F001E
(1542702759.255205) can0 628#012BE01BFFAF001E
(1542702759.295201) can0 628#018FE02BFF6F001E
(1542702759.335199) can0 628#0178E028FF18011E
(1542702759.375228) can0 628#0184E002FF77001E
(1542702759.415229) can0 628#01BAE034FF6C001E
(1542702759.455330) can0 628#0160E014FF84001E
(1542702759.495249) can0 628#01AAE02AFF82001E
(1542702759.535277) can0 628#0160E013FFC3001E
(1542702759.575324) can0 628#01A7E018FF3E001E
(1542702759.615272) can0 628#0177E01FFFBE001E
(1542702759.655303) can0 628#01C3E02BFFAC001E
(1542702759.695296) can0 628#01B6E019FFBE001E
(1542702759.735404) can0 628#01ABE021FF83001E
(1542702759.775277) can0 628#01BFE01CFF95001E
(1542702759.815311) can0 628#01C6E01FFF6C001E
(1542702759.855334) can0 628#0193E01BFFC6001E
(1542702759.895444) can0 628#01FDE024FF75001E
(1542702759.935281) can0 628#01A8E01EFFB9001E
(1542702759.975362) can0 628#01E2E1FDFEF7FE1E
(1542702760.015383) can0 628#012CE049FF88001E
(1542702760.055394) can0 628#01EFE000FF38001E
(1542702760.095392) can0 628#01EBE02CFF46001E
(1542702760.135391) can0 628#01A2E136FF5B001E
(1542702760.175501) can0 628#01CDE02DFF15001E
(1542702760.215344) can0 628#01D1E031FF51011E
(1542702760.255445) can0 628#01A3E123FF6B001E
(1542702760.295399) can0 628#01FCE020FFA3001E
(1542702760.335518) can0 628#0139E136FF4F011E
(1542702760.375464) can0 628#01A0E117FFFB001E
(1542702760.415467) can0 628#0180E139FFD0001E
(1542702760.455468) can0 628#01D0E128FF4B011E
(1542702760.495489) can0 628#016DE12CFFEF001E
(1542702760.535487) can0 628#01BBE1E8FED3021E
(1542702760.575512) can0 628#0188E3CFFE80031E
(1542702760.615618) can0 628#0183E445FF84021E
(1542702760.655516) can0 628#0171E688FFCA001E
(1542702760.695536) can0 628#01F4E513FF8F011E
(1542702760.735590) can0 628#01B9E669FF1E021E
(1542702760.775538) can0 628#0162E7ECFE7B021E
(1542702760.815564) can0 628#01AFE828FF52021E
(1542702760.855563) can0 628#01CEE83BFFED011E
(1542702760.895576) can0 628#013BEAEDFE87031E
(1542702760.935579) can0 628#01BEEB95FFB4001E
(1542702760.975590) can0 628#01B0EBECFEE3011E
(1542702761.015615) can0 628#0151ED53FF34001E
(1542702761.055725) can0 628#012AED50FFE7001E
(1542702761.095635) can0 628#01C7EEABFF0B011E
(1542702761.135638) can0 628#010EF0B9FFB4001E
(1542702761.175664) can0 628#01F5F094FF4B011E
(1542702761.215663) can0 628#01E0F18EFF89001E
(1542702761.255571) can0 628#0117F3F9FFF3011E
(1542702761.295684) can0 628#0171F4EBFF93001E
(1542702761.335791) can0 628#0185F54700F0001E
(1542702761.375687) can0 628#015DF6F9FF35FF1E
(1542702761.415711) can0 628#01EEF54700AC001E
(1542702761.455736) can0 628#01B7F63A0041001E
(1542702761.495809) can0 628#0126F72800A9001E
(1542702761.535685) can0 628#0199F7E8FF77001E
(1542702761.575729) can0 628#01C2F72F008F001E
(1542702761.615758) can0 628#0194F8A1FF71011E
(1542702761.655753) can0 628#01A3F81D0031001E
(1542702761.695754) can0 628#01A7F97CFF19011E
(1542702761.735783) can0 628#01D3F9D2FF16011E
(1542702761.775851) can0 628#01D1FB3BFF99011E
(1542702761.815802) can0 628#01E6FBC9FFDB001E
(1542702761.855719) can0 628#0106FFC2FF6E011E
(1542702761.895879) can0 628#0128FFE0FFD8FF1E
(1542702761.935831) can0 628#01FBFEC5FF22001E
(1542702761.975855) can0 628#0159FFA0FFFEFF1E
(1542702762.015853) can0 628#013AFFB3FFE3FF1E
(1542702762.055932) can0 628#016DFECDFF1FFE1E
(1542702762.095874) can0 628#0195006BFF11FC1E
(1542702762.135879) can0 628#01CAFF26FF16FD1E
(1542702762.175905) can0 628#01DCFFE1FEE6FC1E
(1542702762.215980) can0 628#01A6FF1DFE58001E
(1542702762.255929) can0 628#01A7FF9FFE54001E
(1542702762.295923) can0 628#019A00D8FDB2FE1E
(1542702762.335953) can0 628#012EFFC3FE82FC1E
(1542702762.375948) can0 628#01F9FE53FD91031E
(1542702762.415948) can0 628#01720025FFEB021E
(1542702762.455976) can0 628#0162FF8AFE48021E
(1542702762.496061) can0 628#01760038FDEC061E
(1542702762.535975) can0 628#014A00D200F9FB1E
(1542702762.575977) can0 628#01D0FED2FECDFA1E
(1542702762.616059) can0 628#01C7FEAAFEE2FF1E
(1542702762.656086) can0 628#019FFF9BFE53001E
(1542702762.696058) can0 628#01A6FF99FE4A001E
(1542702762.736056) can0 628#01A6FF9BFE52001E
(1542702762.776057) can0 628#01A5FF9BFE5A001E
(1542702762.816056) can0 628#01A6FF9AFE49001E
(1542702762.856063) can0 628#01A6FF99FE47001E
(1542702762.896081) can0 628#01A6FF99FE5B001E
(1542702762.936148) can0 628#01A4FF9BFE55001E
(1542702762.976078) can0 628#01A6FF9BFE4C001E
(1542702763.016105) can0 628#01A7FF9BFE40001E
(1542702763.056155) can0 628#01A6FF9BFE57001E
(1542702763.096117) can0 628#01A7FF9BFE61001E
(1542702763.136127) can0 628#01A6FF9BFE52001E
(1542702763.176126) can0 628#01A8FF98FE54001E
(1542702763.216129) can0 628#01A6FF9CFE4B001E
(1542702763.256049) can0 628#01A6FF9AFE51001E
(1542702763.296098) can0 628#01A6FF9AFE3B001E
(1542702763.336153) can0 628#01A6FF9BFE4C001E
(1542702763.376278) can0 628#01A7FF99FE54001E
(1542702763.416184) can0 628#01A6FF9AFE58001E
(1542702763.456105) can0 628#01A7FF9AFE58001E
(1542702763.496129) can0 628#01A7FF9BFE52001E
(1542702763.536154) can0 628#01A6FF9BFE42001E
(1542702763.576180) can0 628#01A6FF9BFE4A001E
(1542702763.616217) can0 628#01A6FF9BFE56001E
(1542702763.656325) can0 628#01A6FF9BFE5C001E
(1542702763.696156) can0 628#01A6FF9AFE4D001E
(1542702763.736272) can0 628#01A5FF9DFE5E001E
(1542702763.776221) can0 628#01A6FF9AFE50001E
(1542702763.816372) can0 628#01A5FF9AFE52001E
(1542702763.856248) can0 628#01A5FF99FE4C001E
(1542702763.896267) can0 628#01A5FF9AFE5C001E
(1542702763.936342) can0 628#01A5FF9BFE4F001E
(1542702763.976344) can0 628#01A7FF9AFE57001E
(1542702764.016225) can0 628#01A6FF9AFE4F001E
(1542702764.056297) can0 628#01A6FF9BFE51001E
(1542702764.096442) can0 628#01A5FF9BFE4E001E
