(1542702141.102779) can0 628#01D0FC28FEE5FF1D
(1542702141.142803) can0 628#01B7FBA7FED5FF1D
(1542702141.182911) can0 628#019CFC4BFED7FF1D
(1542702141.222832) can0 628#01F1FBECFD77001D
(1542702141.262859) can0 628#01E1FBFEFDEDFF1D
(1542702141.302760) can0 628#01B8FB24FE35001D
(1542702141.342839) can0 628#017BFB11FE7C001D
(1542702141.382843) can0 628#0169FB26FE6B001D
(1542702141.422868) can0 628#01B0FB46FE67001D
(1542702141.463016) can0 628#01FEFB5AFEEF011D
(1542702141.502899) can0 628#01B5FCE3FEC2011D
(1542702141.542905) can0 628#0195FD3DFFA9001D
(1542702141.582910) can0 628#013BFEE3FF31FF1D
(1542702141.623022) can0 628#019FFF3FFFA1FD1D
(1542702141.663017) can0 628#01AD0203FE47FE1D
(1542702141.702923) can0 628#019105D6FD5AFE1D
(1542702141.743010) can0 628#01170A52FE39FD1D
(1542702141.783020) can0 628#01E30980FE0FFE1D
(1542702141.823015) can0 628#018E0D2AFE92FD1D
(1542702141.863017) can0 628#01931136FE15FE1D
(1542702141.903013) can0 628#011313F0FD5BFD1D
(1542702141.943015) can0 628#011B1505FEFAFE1D
(1542702141.983016) can0 628#018F18E3FDCE011D
(1542702142.023067) can0 628#01F51A7CFE8B011D
(1542702142.063018) can0 628#01561D47FE76021D
(1542702142.103040) can0 628#016C1E6DFE8B041D
(1542702142.143042) can0 628#01562218FF5B021D
(1542702142.183151) can0 628#015B245DFF09021D
(1542702142.223091) can0 628#0178254800C2011D
(1542702142.263096) can0 628#017925BEFF3C001D
(1542702142.303085) can0 628#018726F3FFD6001D
(1542702142.343196) can0 628#01C027C000BCFF1D
(1542702142.383121) can0 628#0128268C00ABFE1D
(1542702142.423121) can0 628#0168254D00BCFE1D
(1542702142.463147) can0 628#017325EB00B2FF1D
(1542702142.503142) can0 628#016025280196011D
(1542702142.543147) can0 628#015E26DD0098011D
(1542702142.583172) can0 628#01F028A60072FF1D
(1542702142.623249) can0 628#019B248700A2001D
(1542702142.663193) can0 628#01E522CF0075031D
(1542702142.703218) can0 628#01D2215E0036001D
(1542702142.743223) can0 628#01BB201F008B011D
(1542702142.783323) can0 628#01351E57005BFF1D
(1542702142.823243) can0 628#01341BAA00E7FF1D
(1542702142.863149) can0 628#018D18930012FF1D
(1542702142.903245) can0 628#012C17DA00E2FF1D
(1542702142.943231) can0 628#011D14AF0093FD1D
(1542702142.983295) can0 628#01BB0FC1007DFD1D
(1542702143.023298) can0 628#01860D8100BEFB1D
(1542702143.063377) can0 628#010D09110009FC1D
(1542702143.103321) can0 628#01F504510022FC1D
(1542702143.143285) can0 628#01FDFEADFF32FC1D
(1542702143.183372) can0 628#016EFC22002CFE1D
(1542702143.223346) can0 628#0196FCD1FFF7FE1D
(1542702143.263351) can0 628#01ACFEEAFF80021D
(1542702143.303371) can0 628#010A00BA005E001D
(1542702143.343427) can0 628#018DFF60FFEF031D
(1542702143.383375) can0 628#016E02D6FFF2061D
(1542702143.423402) can0 628#01EFFE7E01D8031D
(1542702143.463397) can0 628#01AEFB2A041B021D
(1542702143.503503) can0 628#01F9F9B6031B081D
(1542702143.543400) can0 628#014AFB8B0143011D
(1542702143.583422) can0 628#01C8FA2401EFFD1D
(1542702143.623455) can0 628#018DF94601DDFD1D
(1542702143.663447) can0 628#0192F686015BFC1D
(1542702143.703472) can0 628#015FF1140107FC1D
(1542702143.743477) can0 628#01FFE9CA00B8F91D
(1542702143.783559) can0 628#01AFE2C6005DFD1D
(1542702143.823439) can0 628#01CCE0600021001D
(1542702143.863435) can0 628#01BEDD320064061D
(1542702143.903501) can0 628#01EADCA800C5041D
(1542702143.943605) can0 628#013BDB9CFF2E041D
(1542702143.983531) can0 628#012EDBD5FF32021D
(1542702144.023531) can0 628#01F2D890FF67021D
(1542702144.063556) can0 628#0150DB06FF5D021D
(1542702144.103551) can0 628#0117D99EFEDDFE1D
(1542702144.143582) can0 628#0107D967FFA4001D
(1542702144.183578) can0 628#01A8DAA2FEDBFD1D
(1542702144.223655) can0 628#0111DB38FF10FA1D
(1542702144.263606) can0 628#016AD8DEFF38FD1D
(1542702144.303602) can0 628#014BD8EC006CFD1D
(1542702144.343660) can0 628#011CD6500088FE1D
(1542702144.383628) can0 628#012AD62EFF85071D
(1542702144.423657) can0 628#018FDA62FFC3041D
(1542702144.463657) can0 628#01B8DF8900EB031D
(1542702144.503704) can0 628#01C2DEE0FECE091D
(1542702144.543678) can0 628#012EE997FFE0031D
(1542702144.583678) can0 628#0172EA53FE32061D
(1542702144.623683) can0 628#0117F49DFEEC041D
(1542702144.663783) can0 628#0122F7B0FE9F051D
(1542702144.703705) can0 628#01DAFDCCFEC8041D
(1542702144.743734) can0 628#015701ECFE3F051D
(1542702144.783729) can0 628#015505ECFE1C071D
(1542702144.823728) can0 628#012709E3FE7A011D
(1542702144.863756) can0 628#0150064EFEA7021D
(1542702144.903719) can0 628#012002E5FFFE051D
(1542702144.943862) can0 628#01AF05200160001D
(1542702144.983780) can0 628#017A0416FEDAFC1D
(1542702145.023811) can0 628#013502E7FEE6001D
(1542702145.063810) can0 628#015A0B0C0163FD1D
(1542702145.103884) can0 628#015D100BFF30FD1D
(1542702145.143836) can0 628#014A1373FE98011D
(1542702145.183832) can0 628#01E41A3F01B0FE1D
(1542702145.223830) can0 628#01B21F690058FF1D
(1542702145.263861) can0 628#0109208900FF081D
(1542702145.303857) can0 628#0152268E0021091D
(1542702145.343887) can0 628#01E525EF011F011D
(1542702145.383995) can0 628#013C272402A5031D
(1542702145.423913) can0 628#016027DF0058001D
(1542702145.463912) can0 628#012926BA014EFD1D
(1542702145.503994) can0 628#0104241F01F1FF1D
(1542702145.543911) can0 628#01542431012B011D
(1542702145.583935) can0 628#0118207201CD071D
(1542702145.623998) can0 628#016F1F0103390A1D
(1542702145.664022) can0 628#012F1C3A0235031D
(1542702145.703992) can0 628#01DE1A3502E3FE1D
(1542702145.743997) can0 628#018519AC0261FE1D
(1542702145.783999) can0 628#018A165D0243031D
(1542702145.824100) can0 628#01871403032DFC1D
(1542702145.863998) can0 628#01D90DD30271FA1D
(1542702145.904020) can0 628#013F0A260380FC1D
(1542702145.944038) can0 628#01C1077B025DFC1D
(1542702145.984047) can0 628#014704E600DFFC1D
(1542702146.024025) can0 628#012DFE85FE5C001D
(1542702146.064035) can0 628#0101FF7AFE22091D
(1542702146.104104) can0 628#0188FAF7FF91021D
(1542702146.144073) can0 628#019CF5C0FD13061D
(1542702146.184072) can0 628#01EBEE51FD0D021D
(1542702146.224099) can0 628#018BE52FFECB011D
(1542702146.264202) can0 628#0156E247FFADFC1D
(1542702146.304109) can0 628#01D4DD9CFEF9F51D
(1542702146.344125) can0 628#0179D973FE84F51D
(1542702146.384149) can0 628#01DDD729FEE3FC1D
(1542702146.424149) can0 628#014ED8DDFF1AFC1D
(1542702146.464148) can0 628#014FD80CFF73021D
(1542702146.504118) can0 628#01FEDC99008BFD1D
(1542702146.544278) can0 628#0160DEE00080FB1D
(1542702146.584200) can0 628#010AE3F9FE0DF81D
(1542702146.624199) can0 628#0142E978FF9FF71D
(1542702146.664249) can0 628#0112EC87005AFC1D
(1542702146.704132) can0 628#01F4F3650013031D
(1542702146.744224) can0 628#0175F919017B021D
(1542702146.784251) can0 628#018AFEA6FFF1021D
(1542702146.824267) can0 628#0189FFF9FFCA061D
(1542702146.864218) can0 628#01A102AE0003051D
(1542702146.904221) can0 628#018D033B00A9051D
(1542702146.944302) can0 628#016F05660065041D
(1542702146.984286) can0 628#012F06190035031D
(1542702147.024301) can0 628#01F605E9FF98021D
(1542702147.064328) can0 628#01F703F0FF34011D
(1542702147.104350) can0 628#011803E3FF8F011D
(1542702147.144328) can0 628#01E100F2FFF4FF1D
(1542702147.184352) can0 628#01C2FDEAFF41001D
(1542702147.224347) can0 628#0198FAE70025FF1D
(1542702147.264385) can0 628#01D7F59FFE62011D
(1542702147.304372) can0 628#0163F247005A021D
(1542702147.344377) can0 628#017CEDDE00E5011D
(1542702147.384374) can0 628#018DEA6AFF88011D
(1542702147.424482) can0 628#0123E406009C051D
(1542702147.464397) can0 628#0162E2D1005A061D
(1542702147.504424) can0 628#01CBDE0FFFDF001D
(1542702147.544453) can0 628#01C7D949FF03FE1D
(1542702147.584427) can0 628#01ACD20E0159091D
(1542702147.624453) can0 628#01ECDD0BFFC6021D
(1542702147.664454) can0 628#01B5DD03FEAFFD1D
(1542702147.704555) can0 628#01D1D9630157021D
(1542702147.744508) can0 628#017FE03BFF0BFE1D
(1542702147.784508) can0 628#0163E65DFD2D081D
(1542702147.824559) can0 628#01DFEFE1FED6071D
(1542702147.864502) can0 628#0113F516FEE3041D
(1542702147.904466) can0 628#01CDFB15FEBA041D
(1542702147.944525) can0 628#017402ECFE2F061D
(1542702147.984611) can0 628#010809A7FD4A031D
(1542702148.024559) can0 628#01971026FBFE021D
(1542702148.064535) can0 628#01131542FCB9041D
(1542702148.104557) can0 628#01AC1A5EFE6E041D
(1542702148.144664) can0 628#01041ADEFC03071D
(1542702148.184565) can0 628#01B21E32FE1D071D
(1542702148.224602) can0 628#019A25C4FF89041D
(1542702148.264598) can0 628#017726D300BC0B1D
(1542702148.304603) can0 628#019E293501370A1D
(1542702148.344635) can0 628#0176234801A90B1D
(1542702148.384634) can0 628#01A525EAFF1D0E1D
(1542702148.424737) can0 628#015829F200FB041D
(1542702148.464659) can0 628#01BF294E02C8031D
(1542702148.504680) can0 628#01AF28A600A0F81D
(1542702148.544686) can0 628#01AB232100A8F81D
(1542702148.584789) can0 628#01F51B99FEEEF81D
(1542702148.624710) can0 628#0118198FFFB9041D
(1542702148.664709) can0 628#010220AA012CFE1D
(1542702148.704731) can0 628#01481E090172F51D
(1542702148.744736) can0 628#01DE18E9FD98F01D
(1542702148.784761) can0 628#01050FC3FC7DF41D
(1542702148.824761) can0 628#01680B01FF00F41D
(1542702148.864865) can0 628#014C0445FEBBF81D
(1542702148.904718) can0 628#01FCFEE8FEFEFD1D
(1542702148.944813) can0 628#01A2F865FF92FF1D
(1542702148.984837) can0 628#01B6F6A3FE7E021D
(1542702149.024807) can0 628#013DF745FF52021D
(1542702149.064811) can0 628#0161F6F5FE31001D
(1542702149.104832) can0 628#0142F76FFFC2011D
(1542702149.144976) can0 628#01F4F7F6FF43FF1D
(1542702149.184862) can0 628#0168F702FF08FF1D
(1542702149.224862) can0 628#0172F76AFFD5001D
(1542702149.264861) can0 628#01C6F7A4FF50001D
(1542702149.304970) can0 628#01CBF763FF21001D
(1542702149.344976) can0 628#01E3F7FEFED9001D
(1542702149.384974) can0 628#01C2F723FFAD011D
(1542702149.424974) can0 628#01EAF8D6FFB5FF1D
(1542702149.464970) can0 628#01D4F89CFF27FF1D
(1542702149.504969) can0 628#01F3F7C3FF3EFF1D
(1542702149.544973) can0 628#01FAF7040072FE1D
(1542702149.585020) can0 628#01B9F782FF32FE1D
