(1542706026.016434) can0 0CFDD633#01000100FF00F0C3
(1542706026.020586) can0 628#01AA00E7D836001A
(1542706026.024419) can0 0CFDD733#0100FFFFFFFFFFFF
(1542706026.026072) can0 0CFDD634#01000100FF00F0C3
(1542706026.030085) can0 0CFDD734#0100FFFFFFFFFFFF
(1542706026.036413) can0 0CFDD633#01000100FF00F0C3
(1542706026.045421) can0 0CFDD733#0100FFFFFFFFFFFF
(1542706026.046008) can0 0CFDD634#01000100FF00F0C3
(1542706026.049980) can0 0CFDD734#0100FFFFFFFFFFFF
(1542706026.057400) can0 0CFDD633#01000100FF00F0C3
(1542706026.060675) can0 628#01AD00E4D830001A
(1542706026.065443) can0 0CFDD733#0100FFFFFFFFFFFF
(1542706026.066023) can0 0CFDD634#01000100FF00F0C3
(1542706026.070970) can0 0CFDD734#0100FFFFFFFFFFFF
(1542706026.077378) can0 0CFDD633#01000100FF00F0C3
(1542706026.086401) can0 0CFDD733#0100FFFFFFFFFFFF
(1542706026.086970) can0 0CFDD634#01000100FF00F0C3
(1542706026.090964) can0 0CFDD734#0100FFFFFFFFFFFF
(1542706026.098333) can0 0CFDD633#01000100FF00F0C3
(1542706026.100766) can0 628#01AB00E8D82A001A
(1542706026.106322) can0 0CFDD733#0100FFFFFFFFFFFF
(1542706026.106933) can0 0CFDD634#01000100FF00F0C3
(1542706026.111878) can0 0CFDD734#0100FFFFFFFFFFFF
(1542706026.118267) can0 0CFDD633#01000100FF00F0C3
(1542706026.127238) can0 0CFDD733#0100FFFFFFFFFFFF
(1542706026.127845) can0 0CFDD634#01000100FF00F0C3
(1542706026.131845) can0 0CFDD734#0100FFFFFFFFFFFF
(1542706026.139220) can0 0CFDD633#01000100FF00F0C3
(1542706026.140601) can0 628#01AA00E7D83A001A
(1542706026.147244) can0 0CFDD733#0100FFFFFFFFFFFF
(1542706026.147848) can0 0CFDD634#01000100FF00F0C3
(1542706026.152861) can0 0CFDD734#0100FFFFFFFFFFFF
(1542706026.159229) can0 0CFDD633#01000100FF00F0C3
(1542706026.168258) can0 0CFDD733#0100FFFFFFFFFFFF
(1542706026.168886) can0 0CFDD634#01000100FF00F0C3
(1542706026.172851) can0 0CFDD734#0100FFFFFFFFFFFF
(1542706026.180142) can0 0CFDD633#01000100FF00F0C3
(1542706026.180642) can0 628#01AC00E7D83E001A
(1542706026.188770) can0 0CFDD634#01000100FF00F0C3
(1542706026.189302) can0 0CFDD733#0100FFFFFFFFFFFF
(1542706026.193770) can0 0CFDD734#0100FFFFFFFFFFFF
(1542706026.200153) can0 0CFDD633#01000100FF00F0C3
(1542706026.208846) can0 0CFDD634#01000100FF00F0C3
(1542706026.209317) can0 0CFDD733#0100FFFFFFFFFFFF
(1542706026.214799) can0 0CFDD734#0100FFFFFFFFFFFF
(1542706026.220670) can0 628#01A900E6D82A001A
(1542706026.221250) can0 0CFDD633#01000100FF00F0C3
(1542706026.229147) can0 0CFDD733#0100FFFFFFFFFFFF
(1542706026.229769) can0 0CFDD634#01000100FF00F0C3
(1542706026.234711) can0 0CFDD734#0100FFFFFFFFFFFF
(1542706026.241076) can0 0CFDD633#01000100FF00F0C3
(1542706026.249710) can0 0CFDD634#01000100FF00F0C3
(1542706026.250221) can0 0CFDD733#0100FFFFFFFFFFFF
(1542706026.254675) can0 0CFDD734#0100FFFFFFFFFFFF
(1542706026.260656) can0 628#01AC00E9D82F001A
(1542706026.262083) can0 0CFDD633#01000100FF00F0C3
(1542706026.270081) can0 0CFDD733#0100FFFFFFFFFFFF
(1542706026.270659) can0 0CFDD634#01000100FF00F0C3
(1542706026.275668) can0 0CFDD734#0100FFFFFFFFFFFF
(1542706026.283077) can0 0CFDD633#01000100FF00F0C3
(1542706026.290572) can0 0CFDD634#01000100FF00F0C3
(1542706026.291185) can0 0CFDD733#0100FFFFFFFFFFFF
(1542706026.295678) can0 0CFDD734#0100FFFFFFFFFFFF
(1542706026.300730) can0 628#01AC00E9D82B001A
(1542706026.303995) can0 0CFDD633#01000100FF00F0C3
(1542706026.311000) can0 0CFDD733#0100FFFFFFFFFFFF
(1542706026.311587) can0 0CFDD634#01000100FF00F0C3
(1542706026.316590) can0 0CFDD734#0100FFFFFFFFFFFF
(1542706026.323970) can0 0CFDD633#01000100FF00F0C3
(1542706026.331988) can0 0CFDD733#0100FFFFFFFFFFFF
(1542706026.332557) can0 0CFDD634#01000100FF00F0C3
(1542706026.336515) can0 0CFDD734#0100FFFFFFFFFFFF
(1542706026.340730) can0 628#01AC00E5D831001A
(1542706026.343919) can0 0CFDD633#01000100FF00F0C3
(1542706026.351999) can0 0CFDD733#0100FFFFFFFFFFFF
(1542706026.352527) can0 0CFDD634#01000100FF00F0C3
(1542706026.357516) can0 0CFDD734#0100FFFFFFFFFFFF
(1542706026.363859) can0 0CFDD633#01000100FF00F0C3
(1542706026.372488) can0 0CFDD634#01000100FF00F0C3
(1542706026.373058) can0 0CFDD733#0100FFFFFFFFFFFF
(1542706026.378478) can0 0CFDD734#0100FFFFFFFFFFFF
(1542706026.380787) can0 628#01AA00E3D82E001A
(1542706026.384834) can0 0CFDD633#01000100FF00F0C3
(1542706026.392922) can0 0CFDD733#0100FFFFFFFFFFFF
(1542706026.393482) can0 0CFDD634#01000100FF00F0C3
(1542706026.398448) can0 0CFDD734#0100FFFFFFFFFFFF
(1542706026.404789) can0 0CFDD633#01000100FF00F0C3
(1542706026.413861) can0 0CFDD733#0100FFFFFFFFFFFF
(1542706026.414403) can0 0CFDD634#01000100FF00F0C3
(1542706026.418380) can0 0CFDD734#0100FFFFFFFFFFFF
(1542706026.420718) can0 628#01AC00E6D836001A
(1542706026.425809) can0 0CFDD633#01000100FF00F0C3
(1542706026.433793) can0 0CFDD733#0100FFFFFFFFFFFF
(1542706026.434362) can0 0CFDD634#01000100FF00F0C3
(1542706026.439360) can0 0CFDD734#0100FFFFFFFFFFFF
(1542706026.445870) can0 0CFDD633#01000100FF00F0C3
(1542706026.454870) can0 0CFDD733#0100FFFFFFFFFFFF
(1542706026.455364) can0 0CFDD634#01000100FF00F0C3
(1542706026.459351) can0 0CFDD734#0100FFFFFFFFFFFF
(1542706026.460759) can0 628#01A900E4D831001A
(1542706026.466784) can0 0CFDD633#01000100FF00F0C3
(1542706026.474750) can0 0CFDD733#0100FFFFFFFFFFFF
(1542706026.475303) can0 0CFDD634#01000100FF00F0C3
(1542706026.480340) can0 0CFDD734#0100FFFFFFFFFFFF
(1542706026.486757) can0 0CFDD633#01000100FF00F0C3
(1542706026.495312) can0 0CFDD634#01000100FF00F0C3
(1542706026.495811) can0 0CFDD733#0100FFFFFFFFFFFF
(1542706026.500270) can0 0CFDD734#0100FFFFFFFFFFFF
(1542706026.500706) can0 628#01A900E3D840001A
(1542706026.507732) can0 0CFDD633#01000100FF00F0C3
(1542706026.515645) can0 0CFDD733#0100FFFFFFFFFFFF
(1542706026.516191) can0 0CFDD634#01000100FF00F0C3
(1542706026.521248) can0 0CFDD734#0100FFFFFFFFFFFF
(1542706026.527707) can0 0CFDD633#01000100FF00F0C3
(1542706026.536142) can0 0CFDD634#01000100FF00F0C3
(1542706026.536785) can0 0CFDD733#0100FFFFFFFFFFFF
(1542706026.540733) can0 628#01AB00E7D830001A
(1542706026.541303) can0 0CFDD734#0100FFFFFFFFFFFF
(1542706026.548606) can0 0CFDD633#01000100FF00F0C3
(1542706026.556615) can0 0CFDD733#0100FFFFFFFFFFFF
(1542706026.557185) can0 0CFDD634#01000100FF00F0C3
(1542706026.557819) can0 18FECA33#00FF00000000FFFF
(1542706026.562208) can0 0CFDD734#0100FFFFFFFFFFFF
(1542706026.568628) can0 0CFDD633#01000100FF00F0C3
(1542706026.577096) can0 0CFDD634#01000100FF00F0C3
(1542706026.577670) can0 0CFDD733#0100FFFFFFFFFFFF
(1542706026.580791) can0 628#01AA00E6D832001A
(1542706026.582129) can0 0CFDD734#0100FFFFFFFFFFFF
(1542706026.589523) can0 0CFDD633#01000100FF00F0C3
(1542706026.597545) can0 0CFDD733#0100FFFFFFFFFFFF
(1542706026.598071) can0 0CFDD634#01000100FF00F0C3
(1542706026.603141) can0 0CFDD734#0100FFFFFFFFFFFF
(1542706026.609506) can0 0CFDD633#01000100FF00F0C3
(1542706026.618026) can0 0CFDD634#01000100FF00F0C3
(1542706026.618571) can0 0CFDD733#0100FFFFFFFFFFFF
(1542706026.620865) can0 628#01AB00E5D82D001A
(1542706026.624051) can0 0CFDD734#0100FFFFFFFFFFFF
(1542706026.630439) can0 0CFDD633#01000100FF00F0C3
(1542706026.638485) can0 0CFDD733#0100FFFFFFFFFFFF
(1542706026.639054) can0 0CFDD634#01000100FF00F0C3
(1542706026.643994) can0 0CFDD734#0100FFFFFFFFFFFF
(1542706026.650416) can0 0CFDD633#01000100FF00F0C3
(1542706026.658982) can0 0CFDD634#01000100FF00F0C3
(1542706026.659556) can0 0CFDD733#0100FFFFFFFFFFFF
(1542706026.660869) can0 628#01AB00E7D838001A
(1542706026.663998) can0 0CFDD734#0100FFFFFFFFFFFF
(1542706026.671403) can0 0CFDD633#01000100FF00F0C3
(1542706026.679887) can0 0CFDD634#01000100FF00F0C3
(1542706026.680461) can0 0CFDD733#0100FFFFFFFFFFFF
(1542706026.684906) can0 0CFDD734#0100FFFFFFFFFFFF
(1542706026.691326) can0 0CFDD633#01000100FF00F0C3
(1542706026.699854) can0 0CFDD634#01000100FF00F0C3
(1542706026.700435) can0 0CFDD733#0100FFFFFFFFFFFF
(1542706026.700901) can0 628#01A900E4D83B001A
(1542706026.704854) can0 0CFDD734#0100FFFFFFFFFFFF
(1542706026.712307) can0 0CFDD633#01000100FF00F0C3
(1542706026.720301) can0 0CFDD733#0100FFFFFFFFFFFF
(1542706026.720858) can0 0CFDD634#01000100FF00F0C3
(1542706026.725866) can0 0CFDD734#0100FFFFFFFFFFFF
(1542706026.732248) can0 0CFDD633#01000100FF00F0C3
(1542706026.732854) can0 18FECA34#00FF00000000FFFF
(1542706026.740827) can0 0CFDD634#01000100FF00F0C3
(1542706026.741412) can0 0CFDD733#0100FFFFFFFFFFFF
(1542706026.741855) can0 628#01AC00E6D833001A
(1542706026.745805) can0 0CFDD734#0100FFFFFFFFFFFF
(1542706026.753222) can0 0CFDD633#01000100FF00F0C3
(1542706026.761336) can0 0CFDD733#0100FFFFFFFFFFFF
(1542706026.761847) can0 0CFDD634#01000100FF00F0C3
(1542706026.766788) can0 0CFDD734#0100FFFFFFFFFFFF
(1542706026.773221) can0 0CFDD633#01000100FF00F0C3
(1542706026.780806) can0 628#01AB00E7D83A001A
(1542706026.781780) can0 0CFDD634#01000100FF00F0C3
(1542706026.782314) can0 0CFDD733#0100FFFFFFFFFFFF
(1542706026.786782) can0 0CFDD734#0100FFFFFFFFFFFF
(1542706026.794167) can0 0CFDD633#01000100FF00F0C3
(1542706026.802781) can0 0CFDD634#01000100FF00F0C3
(1542706026.803302) can0 0CFDD733#0100FFFFFFFFFFFF
(1542706026.807707) can0 0CFDD734#0100FFFFFFFFFFFF
(1542706026.814153) can0 0CFDD633#01000100FF00F0C3
(1542706026.820785) can0 628#01A900E5D839001A
(1542706026.823159) can0 0CFDD733#0100FFFFFFFFFFFF
(1542706026.823714) can0 0CFDD634#01000100FF00F0C3
(1542706026.827689) can0 0CFDD734#0100FFFFFFFFFFFF
(1542706026.835108) can0 0CFDD633#01000100FF00F0C3
(1542706026.843132) can0 0CFDD733#0100FFFFFFFFFFFF
(1542706026.843681) can0 0CFDD634#01000100FF00F0C3
(1542706026.848724) can0 0CFDD734#0100FFFFFFFFFFFF
(1542706026.855150) can0 0CFDD633#01000100FF00F0C3
(1542706026.860951) can0 628#01DC0014D985FF1A
(1542706026.863614) can0 0CFDD634#01000100FF00F0C3
(1542706026.864172) can0 0CFDD733#0100FFFFFFFFFFFF
(1542706026.868648) can0 0CFDD734#0100FFFFFFFFFFFF
(1542706026.876111) can0 0CFDD633#01000100FF00F0C3
(1542706026.884140) can0 0CFDD733#0100FFFFFFFFFFFF
(1542706026.884628) can0 0CFDD634#01000100FF00F0C3
(1542706026.889663) can0 0CFDD734#0100FFFFFFFFFFFF
(1542706026.896088) can0 0CFDD633#01000100FF00F0C3
(1542706026.900879) can0 628#01A704EDD89AFC1A
(1542706026.904548) can0 0CFDD634#01000100FF00F0C3
(1542706026.905122) can0 0CFDD733#0100FFFFFFFFFFFF
(1542706026.909607) can0 0CFDD734#0100FFFFFFFFFFFF
(1542706026.917013) can0 0CFDD633#01000100FF00F0C3
(1542706026.925059) can0 0CFDD733#0100FFFFFFFFFFFF
(1542706026.925567) can0 0CFDD634#01000100FF00F0C3
(1542706026.930532) can0 0CFDD734#0100FFFFFFFFFFFF
(1542706026.937021) can0 0CFDD633#01000100FF00F0C3
(1542706026.940903) can0 628#014105F4D8BCF81A
(1542706026.945530) can0 0CFDD634#01000100FF00F0C3
(1542706026.946061) can0 0CFDD733#0100FFFFFFFFFFFF
(1542706026.950496) can0 0CFDD734#0100FFFFFFFFFFFF
(1542706026.957933) can0 0CFDD633#01000100FF00F0C3
(1542706026.966006) can0 0CFDD733#0100FFFFFFFFFFFF
(1542706026.966532) can0 0CFDD634#01000100FF00F0C3
(1542706026.971459) can0 0CFDD734#0100FFFFFFFFFFFF
(1542706026.977958) can0 0CFDD633#01000100FF00F0C3
(1542706026.980902) can0 628#01A7FFE9D8AAF71A
(1542706026.986479) can0 0CFDD634#01000100FF00F0C3
(1542706026.986988) can0 0CFDD733#0100FFFFFFFFFFFF
(1542706026.991441) can0 0CFDD734#0100FFFFFFFFFFFF
(1542706026.998893) can0 0CFDD633#01000100FF00F0C3
(1542706027.006956) can0 0CFDD733#0100FFFFFFFFFFFF
(1542706027.007461) can0 0CFDD634#01000100FF00F0C3
(1542706027.012420) can0 0CFDD734#0100FFFFFFFFFFFF
(1542706027.018866) can0 0CFDD633#01000100FF00F0C3
(1542706027.021007) can0 628#012EFC90D9A0F81A
(1542706027.027903) can0 0CFDD733#0100FFFFFFFFFFFF
(1542706027.028416) can0 0CFDD634#01000100FF00F0C3
(1542706027.033368) can0 0CFDD734#0100FFFFFFFFFFFF
(1542706027.039817) can0 0CFDD633#01000100FF00F0C3
(1542706027.047795) can0 0CFDD733#0100FFFFFFFFFFFF
(1542706027.048342) can0 0CFDD634#01000100FF00F0C3
(1542706027.053285) can0 0CFDD734#0100FFFFFFFFFFFF
(1542706027.059787) can0 0CFDD633#01000100FF00F0C3
(1542706027.060826) can0 628#01C4FFE4D8CAF81A
(1542706027.068299) can0 0CFDD634#01000100FF00F0C3
(1542706027.068884) can0 0CFDD733#0100FFFFFFFFFFFF
(1542706027.074326) can0 0CFDD734#0100FFFFFFFFFFFF
(1542706027.080779) can0 0CFDD633#01000100FF00F0C3
(1542706027.088780) can0 0CFDD733#0100FFFFFFFFFFFF
(1542706027.089368) can0 0CFDD634#01000100FF00F0C3
(1542706027.094246) can0 0CFDD734#0100FFFFFFFFFFFF
(1542706027.100754) can0 0CFDD633#01000100FF00F0C3
(1542706027.101160) can0 628#012D00B0D8EDF71A
(1542706027.109232) can0 0CFDD634#01000100FF00F0C3
(1542706027.109784) can0 0CFDD733#0100FFFFFFFFFFFF
(1542706027.114177) can0 0CFDD734#0100FFFFFFFFFFFF
(1542706027.121665) can0 0CFDD633#01000100FF00F0C3
(1542706027.129737) can0 0CFDD733#0100FFFFFFFFFFFF
(1542706027.130213) can0 0CFDD634#01000100FF00F0C3
(1542706027.135203) can0 0CFDD734#0100FFFFFFFFFFFF
(1542706027.140982) can0 628#01D0FB64D918F81A
(1542706027.141687) can0 0CFDD633#01000100FF00F0C3
(1542706027.150128) can0 0CFDD634#01000100FF00F0C3
(1542706027.150724) can0 0CFDD733#0100FFFFFFFFFFFF
(1542706027.155191) can0 0CFDD734#0100FFFFFFFFFFFF
(1542706027.162573) can0 0CFDD633#01000100FF00F0C3
(1542706027.170663) can0 0CFDD733#0100FFFFFFFFFFFF
(1542706027.171178) can0 0CFDD634#01000100FF00F0C3
(1542706027.176130) can0 0CFDD734#0100FFFFFFFFFFFF
(1542706027.180962) can0 628#01BCFB76D9CFF81A
(1542706027.182573) can0 0CFDD633#01000100FF00F0C3
(1542706027.191068) can0 0CFDD634#01000100FF00F0C3
(1542706027.191640) can0 0CFDD733#0100FFFFFFFFFFFF
(1542706027.196030) can0 0CFDD734#0100FFFFFFFFFFFF
(1542706027.203493) can0 0CFDD633#01000100FF00F0C3
(1542706027.211518) can0 0CFDD733#0100FFFFFFFFFFFF
(1542706027.212065) can0 0CFDD634#01000100FF00F0C3
(1542706027.217015) can0 0CFDD734#0100FFFFFFFFFFFF
(1542706027.220873) can0 628#014FFECAD85CF81A
(1542706027.223488) can0 0CFDD633#01000100FF00F0C3
(1542706027.232478) can0 0CFDD733#0100FFFFFFFFFFFF
(1542706027.233058) can0 0CFDD634#01000100FF00F0C3
(1542706027.236964) can0 0CFDD734#0100FFFFFFFFFFFF
(1542706027.244459) can0 0CFDD633#01000100FF00F0C3
(1542706027.252935) can0 0CFDD634#01000100FF00F0C3
(1542706027.253496) can0 0CFDD733#0100FFFFFFFFFFFF
(1542706027.257938) can0 0CFDD734#0100FFFFFFFFFFFF
(1542706027.260975) can0 628#0162FC17D9E4F71A
(1542706027.264396) can0 0CFDD633#01000100FF00F0C3
(1542706027.272916) can0 0CFDD634#01000100FF00F0C3
(1542706027.273499) can0 0CFDD733#0100FFFFFFFFFFFF
(1542706027.277934) can0 0CFDD734#0100FFFFFFFFFFFF
(1542706027.285377) can0 0CFDD633#01000100FF00F0C3
(1542706027.293438) can0 0CFDD733#0100FFFFFFFFFFFF
(1542706027.293979) can0 0CFDD634#01000100FF00F0C3
(1542706027.298867) can0 0CFDD734#0100FFFFFFFFFFFF
(1542706027.300933) can0 628#0196F9D9D968F81A
(1542706027.305359) can0 0CFDD633#01000100FF00F0C3
(1542706027.313828) can0 0CFDD634#01000100FF00F0C3
(1542706027.314415) can0 0CFDD733#0100FFFFFFFFFFFF
(1542706027.318822) can0 0CFDD734#0100FFFFFFFFFFFF
(1542706027.326343) can0 0CFDD633#01000100FF00F0C3
(1542706027.334320) can0 0CFDD733#0100FFFFFFFFFFFF
(1542706027.334868) can0 0CFDD634#01000100FF00F0C3
(1542706027.339831) can0 0CFDD734#0100FFFFFFFFFFFF
(1542706027.340975) can0 628#010AFB3DD9C2F81A
(1542706027.346367) can0 0CFDD633#01000100FF00F0C3
(1542706027.354833) can0 0CFDD634#01000100FF00F0C3
(1542706027.355323) can0 0CFDD733#0100FFFFFFFFFFFF
(1542706027.359805) can0 0CFDD734#0100FFFFFFFFFFFF
(1542706027.367242) can0 0CFDD633#01000100FF00F0C3
(1542706027.375242) can0 0CFDD733#0100FFFFFFFFFFFF
(1542706027.375837) can0 0CFDD634#01000100FF00F0C3
(1542706027.380799) can0 0CFDD734#0100FFFFFFFFFFFF
(1542706027.381210) can0 628#01B9FB22D92BF81A
(1542706027.387229) can0 0CFDD633#01000100FF00F0C3
(1542706027.395759) can0 0CFDD634#01000100FF00F0C3
(1542706027.396304) can0 0CFDD733#0100FFFFFFFFFFFF
(1542706027.400709) can0 0CFDD734#0100FFFFFFFFFFFF
(1542706027.408174) can0 0CFDD633#01000100FF00F0C3
(1542706027.416194) can0 0CFDD733#0100FFFFFFFFFFFF
(1542706027.416793) can0 0CFDD634#01000100FF00F0C3
(1542706027.420926) can0 628#0109F9DBD92BF81A
(1542706027.421709) can0 0CFDD734#0100FFFFFFFFFFFF
(1542706027.428162) can0 0CFDD633#01000100FF00F0C3
(1542706027.436614) can0 0CFDD634#01000100FF00F0C3
(1542706027.437184) can0 0CFDD733#0100FFFFFFFFFFFF
(1542706027.442710) can0 0CFDD734#0100FFFFFFFFFFFF
(1542706027.449103) can0 0CFDD633#01000100FF00F0C3
(1542706027.457176) can0 0CFDD733#0100FFFFFFFFFFFF
(1542706027.457690) can0 0CFDD634#01000100FF00F0C3
(1542706027.461073) can0 628#013CF8DED99BF81A
(1542706027.462648) can0 0CFDD734#0100FFFFFFFFFFFF
(1542706027.469089) can0 0CFDD633#01000100FF00F0C3
(1542706027.477535) can0 0CFDD634#01000100FF00F0C3
(1542706027.478101) can0 0CFDD733#0100FFFFFFFFFFFF
(1542706027.483563) can0 0CFDD734#0100FFFFFFFFFFFF
(1542706027.490028) can0 0CFDD633#01000100FF00F0C3
(1542706027.498053) can0 0CFDD733#0100FFFFFFFFFFFF
(1542706027.498631) can0 0CFDD634#01000100FF00F0C3
(1542706027.500957) can0 628#01B2F970D96CF81A
(1542706027.503536) can0 0CFDD734#0100FFFFFFFFFFFF
(1542706027.510024) can0 0CFDD633#01000100FF00F0C3
(1542706027.519005) can0 0CFDD733#0100FFFFFFFFFFFF
(1542706027.519577) can0 0CFDD634#01000100FF00F0C3
(1542706027.523509) can0 0CFDD734#0100FFFFFFFFFFFF
(1542706027.530971) can0 0CFDD633#01000100FF00F0C3
(1542706027.538988) can0 0CFDD733#0100FFFFFFFFFFFF
(1542706027.539560) can0 0CFDD634#01000100FF00F0C3
(1542706027.540979) can0 628#017CF8D8D917F81A
(1542706027.544451) can0 0CFDD734#0100FFFFFFFFFFFF
(1542706027.550957) can0 0CFDD633#01000100FF00F0C3
(1542706027.555984) can0 18FECA33#00FF00000000FFFF
(1542706027.559400) can0 0CFDD634#01000100FF00F0C3
(1542706027.559964) can0 0CFDD733#0100FFFFFFFFFFFF
(1542706027.564394) can0 0CFDD734#0100FFFFFFFFFFFF
(1542706027.571914) can0 0CFDD633#01000100FF00F0C3
(1542706027.579974) can0 0CFDD733#0100FFFFFFFFFFFF
(1542706027.580481) can0 0CFDD634#01000100FF00F0C3
(1542706027.581017) can0 628#0180F650DA5EF81A
(1542706027.585370) can0 0CFDD734#0100FFFFFFFFFFFF
(1542706027.591939) can0 0CFDD633#01000100FF00F0C3
(1542706027.600877) can0 0CFDD733#0100FFFFFFFFFFFF
(1542706027.601481) can0 0CFDD634#01000100FF00F0C3
(1542706027.605385) can0 0CFDD734#0100FFFFFFFFFFFF
(1542706027.612890) can0 0CFDD633#01000100FF00F0C3
(1542706027.620887) can0 0CFDD733#0100FFFFFFFFFFFF
(1542706027.621445) can0 0CFDD634#01000100FF00F0C3
(1542706027.621907) can0 628#012CF700DA9AF81A
(1542706027.626339) can0 0CFDD734#0100FFFFFFFFFFFF
(1542706027.632797) can0 0CFDD633#01000100FF00F0C3
(1542706027.641900) can0 0CFDD733#0100FFFFFFFFFFFF
(1542706027.642411) can0 0CFDD634#01000100FF00F0C3
(1542706027.647290) can0 0CFDD734#0100FFFFFFFFFFFF
(1542706027.653814) can0 0CFDD633#01000100FF00F0C3
(1542706027.661078) can0 628#015BF71FDA3FF81A
(1542706027.661908) can0 0CFDD733#0100FFFFFFFFFFFF
(1542706027.662399) can0 0CFDD634#01000100FF00F0C3
(1542706027.667241) can0 0CFDD734#0100FFFFFFFFFFFF
(1542706027.673785) can0 0CFDD633#01000100FF00F0C3
(1542706027.682795) can0 0CFDD733#0100FFFFFFFFFFFF
(1542706027.683320) can0 0CFDD634#01000100FF00F0C3
(1542706027.687213) can0 0CFDD734#0100FFFFFFFFFFFF
(1542706027.694779) can0 0CFDD633#01000100FF00F0C3
(1542706027.701011) can0 628#0186F58ADA46F81A
(1542706027.702702) can0 0CFDD733#0100FFFFFFFFFFFF
(1542706027.703270) can0 0CFDD634#01000100FF00F0C3
(1542706027.708194) can0 0CFDD734#0100FFFFFFFFFFFF
(1542706027.714688) can0 0CFDD633#01000100FF00F0C3
(1542706027.723682) can0 0CFDD733#0100FFFFFFFFFFFF
(1542706027.724265) can0 0CFDD634#01000100FF00F0C3
(1542706027.728181) can0 0CFDD734#0100FFFFFFFFFFFF
(1542706027.731138) can0 18FECA34#00FF00000000FFFF
(1542706027.735658) can0 0CFDD633#01000100FF00F0C3
(1542706027.741083) can0 628#0102F5A8DA90F81A
(1542706027.743669) can0 0CFDD733#0100FFFFFFFFFFFF
(1542706027.744230) can0 0CFDD634#01000100FF00F0C3
(1542706027.749075) can0 0CFDD734#0100FFFFFFFFFFFF
(1542706027.755622) can0 0CFDD633#01000100FF00F0C3
(1542706027.764061) can0 0CFDD634#01000100FF00F0C3
(1542706027.764647) can0 0CFDD733#0100FFFFFFFFFFFF
(1542706027.769069) can0 0CFDD734#0100FFFFFFFFFFFF
(1542706027.776587) can0 0CFDD633#01000100FF00F0C3
(1542706027.781038) can0 628#019AF592DA63F81A
(1542706027.784584) can0 0CFDD733#0100FFFFFFFFFFFF
(1542706027.785167) can0 0CFDD634#01000100FF00F0C3
(1542706027.790035) can0 0CFDD734#0100FFFFFFFFFFFF
(1542706027.796594) can0 0CFDD633#01000100FF00F0C3
(1542706027.805002) can0 0CFDD634#01000100FF00F0C3
(1542706027.805605) can0 0CFDD733#0100FFFFFFFFFFFF
(1542706027.810062) can0 0CFDD734#0100FFFFFFFFFFFF
(1542706027.816503) can0 0CFDD633#01000100FF00F0C3
(1542706027.821053) can0 628#0195F4D6DA31F81A
(1542706027.825947) can0 0CFDD634#01000100FF00F0C3
(1542706027.826574) can0 0CFDD733#0100FFFFFFFFFFFF
(1542706027.830984) can0 0CFDD734#0100FFFFFFFFFFFF
(1542706027.837480) can0 0CFDD633#01000100FF00F0C3
(1542706027.845942) can0 0CFDD634#01000100FF00F0C3
(1542706027.847522) can0 0CFDD733#0100FFFFFFFFFFFF
(1542706027.851933) can0 0CFDD734#0100FFFFFFFFFFFF
(1542706027.858488) can0 0CFDD633#01000100FF00F0C3
(1542706027.861094) can0 628#0155F33CDB67F81A
(1542706027.866875) can0 0CFDD634#01000100FF00F0C3
(1542706027.868494) can0 0CFDD733#0100FFFFFFFFFFFF
(1542706027.871879) can0 0CFDD734#0100FFFFFFFFFFFF
(1542706027.878391) can0 0CFDD633#01000100FF00F0C3
(1542706027.886886) can0 0CFDD634#01000100FF00F0C3
(1542706027.889426) can0 0CFDD733#0100FFFFFFFFFFFF
(1542706027.891898) can0 0CFDD734#0100FFFFFFFFFFFF
(1542706027.899371) can0 0CFDD633#01000100FF00F0C3
(1542706027.901060) can0 628#0199F32FDB71F81A
(1542706027.907844) can0 0CFDD634#01000100FF00F0C3
(1542706027.909421) can0 0CFDD733#0100FFFFFFFFFFFF
(1542706027.912860) can0 0CFDD734#0100FFFFFFFFFFFF
(1542706027.919360) can0 0CFDD633#01000100FF00F0C3
(1542706027.927875) can0 0CFDD634#01000100FF00F0C3
(1542706027.930353) can0 0CFDD733#0100FFFFFFFFFFFF
(1542706027.932798) can0 0CFDD734#0100FFFFFFFFFFFF
(1542706027.940343) can0 0CFDD633#01000100FF00F0C3
(1542706027.941113) can0 628#0135F347DB49F81A
(1542706027.948799) can0 0CFDD634#01000100FF00F0C3
(1542706027.950324) can0 0CFDD733#0100FFFFFFFFFFFF
(1542706027.953807) can0 0CFDD734#0100FFFFFFFFFFFF
(1542706027.960376) can0 0CFDD633#01000100FF00F0C3
(1542706027.968722) can0 0CFDD634#01000100FF00F0C3
(1542706027.971294) can0 0CFDD733#0100FFFFFFFFFFFF
(1542706027.973716) can0 0CFDD734#0100FFFFFFFFFFFF
(1542706027.981090) can0 628#0106F2ACDB55F81A
(1542706027.981654) can0 0CFDD633#01000100FF00F0C3
(1542706027.989660) can0 0CFDD634#01000100FF00F0C3
(1542706027.991268) can0 0CFDD733#0100FFFFFFFFFFFF
(1542706027.994728) can0 0CFDD734#0100FFFFFFFFFFFF
(1542706028.001224) can0 0CFDD633#01000100FF00F0C3
(1542706028.009627) can0 0CFDD634#01000100FF00F0C3
(1542706028.012244) can0 0CFDD733#0100FFFFFFFFFFFF
(1542706028.014638) can0 0CFDD734#0100FFFFFFFFFFFF
(1542706028.021112) can0 628#01CCF1E2DB6AF81A
(1542706028.022235) can0 0CFDD633#01000100FF00F0C3
(1542706028.030635) can0 0CFDD634#01000100FF00F0C3
(1542706028.032225) can0 0CFDD733#0100FFFFFFFFFFFF
(1542706028.035655) can0 0CFDD734#0100FFFFFFFFFFFF
(1542706028.043249) can0 0CFDD633#01000100FF00F0C3
(1542706028.051609) can0 0CFDD634#01000100FF00F0C3
(1542706028.052228) can0 0CFDD733#0100FFFFFFFFFFFF
(1542706028.055636) can0 0CFDD734#0100FFFFFFFFFFFF
(1542706028.061216) can0 628#01B2F1DFDB57F81A
(1542706028.064142) can0 0CFDD633#01000100FF00F0C3
(1542706028.071583) can0 0CFDD634#01000100FF00F0C3
(1542706028.073137) can0 0CFDD733#0100FFFFFFFFFFFF
(1542706028.076534) can0 0CFDD734#0100FFFFFFFFFFFF
(1542706028.084134) can0 0CFDD633#01000100FF00F0C3
(1542706028.091532) can0 0CFDD634#01000100FF00F0C3
(1542706028.094140) can0 0CFDD733#0100FFFFFFFFFFFF
(1542706028.096599) can0 0CFDD734#0100FFFFFFFFFFFF
(1542706028.101206) can0 628#01BBF041DC5DF81A
(1542706028.105149) can0 0CFDD633#01000100FF00F0C3
(1542706028.112547) can0 0CFDD634#01000100FF00F0C3
(1542706028.114113) can0 0CFDD733#0100FFFFFFFFFFFF
(1542706028.117509) can0 0CFDD734#0100FFFFFFFFFFFF
(1542706028.125087) can0 0CFDD633#01000100FF00F0C3
(1542706028.132517) can0 0CFDD634#01000100FF00F0C3
(1542706028.135123) can0 0CFDD733#0100FFFFFFFFFFFF
(1542706028.137480) can0 0CFDD734#0100FFFFFFFFFFFF
(1542706028.141191) can0 628#011EF09EDC71F81A
(1542706028.146072) can0 0CFDD633#01000100FF00F0C3
(1542706028.153470) can0 0CFDD634#01000100FF00F0C3
(1542706028.155099) can0 0CFDD733#0100FFFFFFFFFFFF
(1542706028.158445) can0 0CFDD734#0100FFFFFFFFFFFF
(1542706028.166046) can0 0CFDD633#01000100FF00F0C3
(1542706028.174401) can0 0CFDD634#01000100FF00F0C3
(1542706028.175090) can0 0CFDD733#0100FFFFFFFFFFFF
(1542706028.178386) can0 0CFDD734#0100FFFFFFFFFFFF
(1542706028.181233) can0 628#010BF08BDC68F81A
(1542706028.186995) can0 0CFDD633#01000100FF00F0C3
(1542706028.194413) can0 0CFDD634#01000100FF00F0C3
(1542706028.195984) can0 0CFDD733#0100FFFFFFFFFFFF
(1542706028.199377) can0 0CFDD734#0100FFFFFFFFFFFF
(1542706028.206954) can0 0CFDD633#01000100FF00F0C3
(1542706028.214299) can0 0CFDD634#01000100FF00F0C3
(1542706028.216884) can0 0CFDD733#0100FFFFFFFFFFFF
(1542706028.219287) can0 0CFDD734#0100FFFFFFFFFFFF
(1542706028.221237) can0 628#0165EFDCDC56F81A
(1542706028.227893) can0 0CFDD633#01000100FF00F0C3
(1542706028.235323) can0 0CFDD634#01000100FF00F0C3
(1542706028.236903) can0 0CFDD733#0100FFFFFFFFFFFF
(1542706028.240313) can0 0CFDD734#0100FFFFFFFFFFFF
(1542706028.247914) can0 0CFDD633#01000100FF00F0C3
(1542706028.255304) can0 0CFDD634#01000100FF00F0C3
(1542706028.257921) can0 0CFDD733#0100FFFFFFFFFFFF
(1542706028.261229) can0 0CFDD734#0100FFFFFFFFFFFF
(1542706028.261693) can0 628#0198EE4BDD71F81A
(1542706028.268896) can0 0CFDD633#01000100FF00F0C3
(1542706028.276286) can0 0CFDD634#01000100FF00F0C3
(1542706028.277855) can0 0CFDD733#0100FFFFFFFFFFFF
(1542706028.281287) can0 0CFDD734#0100FFFFFFFFFFFF
(1542706028.288835) can0 0CFDD633#01000100FF00F0C3
(1542706028.297235) can0 0CFDD634#01000100FF00F0C3
(1542706028.297831) can0 0CFDD733#0100FFFFFFFFFFFF
(1542706028.301234) can0 0CFDD734#0100FFFFFFFFFFFF
(1542706028.301619) can0 628#016DEE57DD72F81A
(1542706028.308809) can0 0CFDD633#01000100FF00F0C3
(1542706028.317180) can0 0CFDD634#01000100FF00F0C3
(1542706028.318827) can0 0CFDD733#0100FFFFFFFFFFFF
(1542706028.322119) can0 0CFDD734#0100FFFFFFFFFFFF
(1542706028.328778) can0 0CFDD633#01000100FF00F0C3
(1542706028.337135) can0 0CFDD634#01000100FF00F0C3
(1542706028.339724) can0 0CFDD733#0100FFFFFFFFFFFF
(1542706028.341183) can0 628#0115EE92DD56F81A
(1542706028.342112) can0 0CFDD734#0100FFFFFFFFFFFF
(1542706028.349662) can0 0CFDD633#01000100FF00F0C3
(1542706028.358044) can0 0CFDD634#01000100FF00F0C3
(1542706028.359718) can0 0CFDD733#0100FFFFFFFFFFFF
(1542706028.363129) can0 0CFDD734#0100FFFFFFFFFFFF
(1542706028.369613) can0 0CFDD633#01000100FF00F0C3
(1542706028.378017) can0 0CFDD634#01000100FF00F0C3
(1542706028.380732) can0 0CFDD733#0100FFFFFFFFFFFF
(1542706028.381346) can0 628#014AED05DE68F81A
(1542706028.383101) can0 0CFDD734#0100FFFFFFFFFFFF
(1542706028.390675) can0 0CFDD633#01000100FF00F0C3
(1542706028.399038) can0 0CFDD634#01000100FF00F0C3
(1542706028.400678) can0 0CFDD733#0100FFFFFFFFFFFF
(1542706028.404090) can0 0CFDD734#0100FFFFFFFFFFFF
(1542706028.410601) can0 0CFDD633#01000100FF00F0C3
(1542706028.418987) can0 0CFDD634#01000100FF00F0C3
(1542706028.421242) can0 628#01C0EC34DE7EF81A
(1542706028.421803) can0 0CFDD733#0100FFFFFFFFFFFF
(1542706028.424054) can0 0CFDD734#0100FFFFFFFFFFFF
(1542706028.431563) can0 0CFDD633#01000100FF00F0C3
(1542706028.439911) can0 0CFDD634#01000100FF00F0C3
(1542706028.441588) can0 0CFDD733#0100FFFFFFFFFFFF
(1542706028.444998) can0 0CFDD734#0100FFFFFFFFFFFF
(1542706028.451536) can0 0CFDD633#01000100FF00F0C3
(1542706028.460945) can0 0CFDD634#01000100FF00F0C3
(1542706028.461392) can0 628#018AEC6CDE6AF81A
(1542706028.461946) can0 0CFDD733#0100FFFFFFFFFFFF
(1542706028.464946) can0 0CFDD734#0100FFFFFFFFFFFF
(1542706028.472552) can0 0CFDD633#01000100FF00F0C3
(1542706028.480925) can0 0CFDD634#01000100FF00F0C3
(1542706028.482572) can0 0CFDD733#0100FFFFFFFFFFFF
(1542706028.485922) can0 0CFDD734#0100FFFFFFFFFFFF
(1542706028.492526) can0 0CFDD633#01000100FF00F0C3
(1542706028.501361) can0 628#01FBEBC0DE5EF81A
(1542706028.501919) can0 0CFDD634#01000100FF00F0C3
(1542706028.502520) can0 0CFDD733#0100FFFFFFFFFFFF
(1542706028.505896) can0 0CFDD734#0100FFFFFFFFFFFF
(1542706028.513469) can0 0CFDD633#01000100FF00F0C3
(1542706028.521857) can0 0CFDD634#01000100FF00F0C3
(1542706028.523402) can0 0CFDD733#0100FFFFFFFFFFFF
(1542706028.526895) can0 0CFDD734#0100FFFFFFFFFFFF
(1542706028.533442) can0 0CFDD633#01000100FF00F0C3
(1542706028.541300) can0 628#0159EB09DF71F81A
(1542706028.541838) can0 0CFDD634#01000100FF00F0C3
(1542706028.544417) can0 0CFDD733#0100FFFFFFFFFFFF
(1542706028.546808) can0 0CFDD734#0100FFFFFFFFFFFF
(1542706028.554448) can0 0CFDD633#01000100FF00F0C3
(1542706028.554950) can0 18FECA33#00FF00000000FFFF
(1542706028.562782) can0 0CFDD634#01000100FF00F0C3
(1542706028.564447) can0 0CFDD733#0100FFFFFFFFFFFF
(1542706028.567782) can0 0CFDD734#0100FFFFFFFFFFFF
(1542706028.574301) can0 0CFDD633#01000100FF00F0C3
(1542706028.581324) can0 628#011AEB44DF73F81A
(1542706028.582708) can0 0CFDD634#01000100FF00F0C3
(1542706028.585381) can0 0CFDD733#0100FFFFFFFFFFFF
(1542706028.587745) can0 0CFDD734#0100FFFFFFFFFFFF
(1542706028.595291) can0 0CFDD633#01000100FF00F0C3
(1542706028.603711) can0 0CFDD634#01000100FF00F0C3
(1542706028.605364) can0 0CFDD733#0100FFFFFFFFFFFF
(1542706028.608711) can0 0CFDD734#0100FFFFFFFFFFFF
(1542706028.615286) can0 0CFDD633#01000100FF00F0C3
(1542706028.621260) can0 628#019AEA9EDF62F81A
(1542706028.623642) can0 0CFDD634#01000100FF00F0C3
(1542706028.626275) can0 0CFDD733#0100FFFFFFFFFFFF
(1542706028.628646) can0 0CFDD734#0100FFFFFFFFFFFF
(1542706028.636290) can0 0CFDD633#01000100FF00F0C3
(1542706028.644597) can0 0CFDD634#01000100FF00F0C3
(1542706028.646286) can0 0CFDD733#0100FFFFFFFFFFFF
(1542706028.649588) can0 0CFDD734#0100FFFFFFFFFFFF
(1542706028.656225) can0 0CFDD633#01000100FF00F0C3
(1542706028.661363) can0 628#010DEAF2DF6EF81A
(1542706028.664542) can0 0CFDD634#01000100FF00F0C3
(1542706028.667261) can0 0CFDD733#0100FFFFFFFFFFFF
(1542706028.670627) can0 0CFDD734#0100FFFFFFFFFFFF
(1542706028.677213) can0 0CFDD633#01000100FF00F0C3
(1542706028.685575) can0 0CFDD634#01000100FF00F0C3
(1542706028.687234) can0 0CFDD733#0100FFFFFFFFFFFF
(1542706028.690538) can0 0CFDD734#0100FFFFFFFFFFFF
(1542706028.697188) can0 0CFDD633#01000100FF00F0C3
(1542706028.701329) can0 628#01A1E951E05DF81A
(1542706028.705479) can0 0CFDD634#01000100FF00F0C3
(1542706028.708187) can0 0CFDD733#0100FFFFFFFFFFFF
(1542706028.710501) can0 0CFDD734#0100FFFFFFFFFFFF
(1542706028.718076) can0 0CFDD633#01000100FF00F0C3
(1542706028.726460) can0 0CFDD634#01000100FF00F0C3
(1542706028.728080) can0 0CFDD733#0100FFFFFFFFFFFF
(1542706028.729489) can0 18FECA34#00FF00000000FFFF
(1542706028.731449) can0 0CFDD734#0100FFFFFFFFFFFF
(1542706028.738019) can0 0CFDD633#01000100FF00F0C3
(1542706028.741395) can0 628#013EE990E060F81A
(1542706028.746436) can0 0CFDD634#01000100FF00F0C3
(1542706028.749082) can0 0CFDD733#0100FFFFFFFFFFFF
(1542706028.751473) can0 0CFDD734#0100FFFFFFFFFFFF
(1542706028.759042) can0 0CFDD633#01000100FF00F0C3
(1542706028.767419) can0 0CFDD634#01000100FF00F0C3
(1542706028.770080) can0 0CFDD733#0100FFFFFFFFFFFF
(1542706028.771447) can0 0CFDD734#0100FFFFFFFFFFFF
(1542706028.779016) can0 0CFDD633#01000100FF00F0C3
(1542706028.781399) can0 628#01BAE8E9E065F81A
(1542706028.787395) can0 0CFDD634#01000100FF00F0C3
(1542706028.790009) can0 0CFDD733#0100FFFFFFFFFFFF
(1542706028.791422) can0 0CFDD734#0100FFFFFFFFFFFF
(1542706028.799955) can0 0CFDD633#01000100FF00F0C3
(1542706028.808333) can0 0CFDD634#01000100FF00F0C3
(1542706028.809983) can0 0CFDD733#0100FFFFFFFFFFFF
(1542706028.812320) can0 0CFDD734#0100FFFFFFFFFFFF
(1542706028.819926) can0 0CFDD633#01000100FF00F0C3
(1542706028.821463) can0 628#0145E842E16CF81A
(1542706028.828226) can0 0CFDD634#01000100FF00F0C3
(1542706028.829929) can0 0CFDD733#0100FFFFFFFFFFFF
(1542706028.832345) can0 0CFDD734#0100FFFFFFFFFFFF
(1542706028.840970) can0 0CFDD633#01000100FF00F0C3
(1542706028.849252) can0 0CFDD634#01000100FF00F0C3
(1542706028.849976) can0 0CFDD733#0100FFFFFFFFFFFF
(1542706028.852318) can0 0CFDD734#0100FFFFFFFFFFFF
(1542706028.860925) can0 0CFDD633#01000100FF00F0C3
(1542706028.861319) can0 628#01EEE784E181F81A
(1542706028.870235) can0 0CFDD634#01000100FF00F0C3
(1542706028.870907) can0 0CFDD733#0100FFFFFFFFFFFF
(1542706028.872256) can0 0CFDD734#0100FFFFFFFFFFFF
(1542706028.881902) can0 0CFDD633#01000100FF00F0C3
(1542706028.890166) can0 0CFDD634#01000100FF00F0C3
(1542706028.891849) can0 0CFDD733#0100FFFFFFFFFFFF
(1542706028.893238) can0 0CFDD734#0100FFFFFFFFFFFF
(1542706028.901422) can0 628#0175E7D6E16BF81A
(1542706028.901940) can0 0CFDD633#01000100FF00F0C3
(1542706028.910124) can0 0CFDD634#01000100FF00F0C3
(1542706028.911898) can0 0CFDD733#0100FFFFFFFFFFFF
(1542706028.913174) can0 0CFDD734#0100FFFFFFFFFFFF
(1542706028.922724) can0 0CFDD633#01000100FF00F0C3
(1542706028.931098) can0 0CFDD634#01000100FF00F0C3
(1542706028.931837) can0 0CFDD733#0100FFFFFFFFFFFF
(1542706028.934093) can0 0CFDD734#0100FFFFFFFFFFFF
(1542706028.941426) can0 628#01FAE649E26AF81A
(1542706028.942689) can0 0CFDD633#01000100FF00F0C3
(1542706028.951059) can0 0CFDD634#01000100FF00F0C3
(1542706028.951836) can0 0CFDD733#0100FFFFFFFFFFFF
(1542706028.954091) can0 0CFDD734#0100FFFFFFFFFFFF
(1542706028.963698) can0 0CFDD633#01000100FF00F0C3
(1542706028.972048) can0 0CFDD634#01000100FF00F0C3
(1542706028.972739) can0 0CFDD733#0100FFFFFFFFFFFF
(1542706028.974071) can0 0CFDD734#0100FFFFFFFFFFFF
(1542706028.981448) can0 628#018CE6AAE279F81A
(1542706028.983647) can0 0CFDD633#01000100FF00F0C3
(1542706028.993030) can0 0CFDD634#01000100FF00F0C3
(1542706028.993736) can0 0CFDD733#0100FFFFFFFFFFFF
(1542706028.995045) can0 0CFDD734#0100FFFFFFFFFFFF
(1542706029.004632) can0 0CFDD633#01000100FF00F0C3
(1542706029.013008) can0 0CFDD634#01000100FF00F0C3
(1542706029.013747) can0 0CFDD733#0100FFFFFFFFFFFF
(1542706029.015984) can0 0CFDD734#0100FFFFFFFFFFFF
(1542706029.021400) can0 628#014DE6EFE269F81A
(1542706029.024609) can0 0CFDD633#01000100FF00F0C3
(1542706029.032978) can0 0CFDD634#01000100FF00F0C3
(1542706029.033654) can0 0CFDD733#0100FFFFFFFFFFFF
(1542706029.036005) can0 0CFDD734#0100FFFFFFFFFFFF
(1542706029.044570) can0 0CFDD633#01000100FF00F0C3
(1542706029.053931) can0 0CFDD634#01000100FF00F0C3
(1542706029.054630) can0 0CFDD733#0100FFFFFFFFFFFF
(1542706029.055953) can0 0CFDD734#0100FFFFFFFFFFFF
(1542706029.061481) can0 628#01C0E562E37CF81A
(1542706029.065579) can0 0CFDD633#01000100FF00F0C3
(1542706029.073905) can0 0CFDD634#01000100FF00F0C3
(1542706029.074582) can0 0CFDD733#0100FFFFFFFFFFFF
(1542706029.075928) can0 0CFDD734#0100FFFFFFFFFFFF
(1542706029.086553) can0 0CFDD633#01000100FF00F0C3
(1542706029.094905) can0 0CFDD634#01000100FF00F0C3
(1542706029.095548) can0 0CFDD733#0100FFFFFFFFFFFF
(1542706029.096865) can0 0CFDD734#0100FFFFFFFFFFFF
(1542706029.101531) can0 628#014CE5C3E380F81A
(1542706029.106527) can0 0CFDD633#01000100FF00F0C3
(1542706029.114905) can0 0CFDD634#01000100FF00F0C3
(1542706029.115514) can0 0CFDD733#0100FFFFFFFFFFFF
(1542706029.116866) can0 0CFDD734#0100FFFFFFFFFFFF
(1542706029.127477) can0 0CFDD633#01000100FF00F0C3
(1542706029.135788) can0 0CFDD634#01000100FF00F0C3
(1542706029.136493) can0 0CFDD733#0100FFFFFFFFFFFF
(1542706029.137770) can0 0CFDD734#0100FFFFFFFFFFFF
(1542706029.141465) can0 628#0103E505E46DF81A
(1542706029.147452) can0 0CFDD633#01000100FF00F0C3
(1542706029.155772) can0 0CFDD634#01000100FF00F0C3
(1542706029.156468) can0 0CFDD733#0100FFFFFFFFFFFF
(1542706029.157742) can0 0CFDD734#0100FFFFFFFFFFFF
(1542706029.168430) can0 0CFDD633#01000100FF00F0C3
(1542706029.176743) can0 0CFDD634#01000100FF00F0C3
(1542706029.177414) can0 0CFDD733#0100FFFFFFFFFFFF
(1542706029.178716) can0 0CFDD734#0100FFFFFFFFFFFF
(1542706029.181508) can0 628#0193E471E474F81A
(1542706029.188403) can0 0CFDD633#01000100FF00F0C3
(1542706029.196655) can0 0CFDD634#01000100FF00F0C3
(1542706029.197378) can0 0CFDD733#0100FFFFFFFFFFFF
(1542706029.198700) can0 0CFDD734#0100FFFFFFFFFFFF
(1542706029.209284) can0 0CFDD633#01000100FF00F0C3
(1542706029.217659) can0 0CFDD634#01000100FF00F0C3
(1542706029.218353) can0 0CFDD733#0100FFFFFFFFFFFF
(1542706029.219636) can0 0CFDD734#0100FFFFFFFFFFFF
(1542706029.221467) can0 628#011DE4DBE463F81A
(1542706029.229258) can0 0CFDD633#01000100FF00F0C3
(1542706029.238548) can0 0CFDD634#01000100FF00F0C3
(1542706029.239308) can0 0CFDD733#0100FFFFFFFFFFFF
(1542706029.240617) can0 0CFDD734#0100FFFFFFFFFFFF
(1542706029.250292) can0 0CFDD633#01000100FF00F0C3
(1542706029.258572) can0 0CFDD634#01000100FF00F0C3
(1542706029.260297) can0 0CFDD733#0100FFFFFFFFFFFF
(1542706029.261572) can0 0CFDD734#0100FFFFFFFFFFFF
(1542706029.262049) can0 628#01CAE340E577F81A
(1542706029.270266) can0 0CFDD633#01000100FF00F0C3
(1542706029.279514) can0 0CFDD634#01000100FF00F0C3
(1542706029.280242) can0 0CFDD733#0100FFFFFFFFFFFF
(1542706029.281547) can0 0CFDD734#0100FFFFFFFFFFFF
(1542706029.291167) can0 0CFDD633#01000100FF00F0C3
(1542706029.299531) can0 0CFDD634#01000100FF00F0C3
(1542706029.301217) can0 0CFDD733#0100FFFFFFFFFFFF
(1542706029.301599) can0 628#0178E39EE562F81A
(1542706029.302458) can0 0CFDD734#0100FFFFFFFFFFFF
(1542706029.311127) can0 0CFDD633#01000100FF00F0C3
(1542706029.319443) can0 0CFDD634#01000100FF00F0C3
(1542706029.321139) can0 0CFDD733#0100FFFFFFFFFFFF
(1542706029.323463) can0 0CFDD734#0100FFFFFFFFFFFF
(1542706029.332115) can0 0CFDD633#01000100FF00F0C3
(1542706029.340417) can0 0CFDD634#01000100FF00F0C3
(1542706029.341145) can0 0CFDD733#0100FFFFFFFFFFFF
(1542706029.341579) can0 628#0103E31AE668F81A
(1542706029.343415) can0 0CFDD734#0100FFFFFFFFFFFF
(1542706029.352115) can0 0CFDD633#01000100FF00F0C3
(1542706029.360405) can0 0CFDD634#01000100FF00F0C3
(1542706029.361127) can0 0CFDD733#0100FFFFFFFFFFFF
(1542706029.364375) can0 0CFDD734#0100FFFFFFFFFFFF
(1542706029.373115) can0 0CFDD633#01000100FF00F0C3
(1542706029.381373) can0 0CFDD634#01000100FF00F0C3
(1542706029.381850) can0 628#01ADE283E675F81A
(1542706029.382411) can0 0CFDD733#0100FFFFFFFFFFFF
(1542706029.384353) can0 0CFDD734#0100FFFFFFFFFFFF
(1542706029.393053) can0 0CFDD633#01000100FF00F0C3
(1542706029.401347) can0 0CFDD634#01000100FF00F0C3
(1542706029.402086) can0 0CFDD733#0100FFFFFFFFFFFF
(1542706029.404296) can0 0CFDD734#0100FFFFFFFFFFFF
(1542706029.414002) can0 0CFDD633#01000100FF00F0C3
(1542706029.421600) can0 628#0157E2C9E666F81A
(1542706029.422310) can0 0CFDD634#01000100FF00F0C3
(1542706029.423024) can0 0CFDD733#0100FFFFFFFFFFFF
(1542706029.424314) can0 0CFDD734#0100FFFFFFFFFFFF
(1542706029.434014) can0 0CFDD633#01000100FF00F0C3
(1542706029.443232) can0 0CFDD634#01000100FF00F0C3
(1542706029.443989) can0 0CFDD733#0100FFFFFFFFFFFF
(1542706029.445245) can0 0CFDD734#0100FFFFFFFFFFFF
(1542706029.453960) can0 0CFDD633#01000100FF00F0C3
(1542706029.461583) can0 628#01DFE151E772F81A
(1542706029.463157) can0 0CFDD634#01000100FF00F0C3
(1542706029.464957) can0 0CFDD733#0100FFFFFFFFFFFF
(1542706029.466270) can0 0CFDD734#0100FFFFFFFFFFFF
(1542706029.474898) can0 0CFDD633#01000100FF00F0C3
(1542706029.484222) can0 0CFDD634#01000100FF00F0C3
(1542706029.484919) can0 0CFDD733#0100FFFFFFFFFFFF
(1542706029.486218) can0 0CFDD734#0100FFFFFFFFFFFF
(1542706029.495873) can0 0CFDD633#01000100FF00F0C3
(1542706029.501589) can0 628#019DE1B3E77BF81A
(1542706029.504169) can0 0CFDD634#01000100FF00F0C3
(1542706029.505907) can0 0CFDD733#0100FFFFFFFFFFFF
(1542706029.507192) can0 0CFDD734#0100FFFFFFFFFFFF
(1542706029.515910) can0 0CFDD633#01000100FF00F0C3
(1542706029.524074) can0 0CFDD634#01000100FF00F0C3
(1542706029.525841) can0 0CFDD733#0100FFFFFFFFFFFF
(1542706029.527096) can0 0CFDD734#0100FFFFFFFFFFFF
(1542706029.536808) can0 0CFDD633#01000100FF00F0C3
(1542706029.541563) can0 628#0144E115E879F81A
(1542706029.545087) can0 0CFDD634#01000100FF00F0C3
(1542706029.545840) can0 0CFDD733#0100FFFFFFFFFFFF
(1542706029.548076) can0 0CFDD734#0100FFFFFFFFFFFF
(1542706029.552869) can0 18FECA33#00FF00000000FFFF
(1542706029.556753) can0 0CFDD633#01000100FF00F0C3
(1542706029.566026) can0 0CFDD634#01000100FF00F0C3
(1542706029.566795) can0 0CFDD733#0100FFFFFFFFFFFF
(1542706029.568082) can0 0CFDD734#0100FFFFFFFFFFFF
(1542706029.577746) can0 0CFDD633#01000100FF00F0C3
(1542706029.581689) can0 628#01DDE093E86EF81A
(1542706029.585998) can0 0CFDD634#01000100FF00F0C3
(1542706029.587768) can0 0CFDD733#0100FFFFFFFFFFFF
(1542706029.589002) can0 0CFDD734#0100FFFFFFFFFFFF
(1542706029.597680) can0 0CFDD633#01000100FF00F0C3
(1542706029.605984) can0 0CFDD634#01000100FF00F0C3
(1542706029.607716) can0 0CFDD733#0100FFFFFFFFFFFF
(1542706029.608950) can0 0CFDD734#0100FFFFFFFFFFFF
(1542706029.618653) can0 0CFDD633#01000100FF00F0C3
(1542706029.621534) can0 628#0185E010E97BF81A
(1542706029.626959) can0 0CFDD634#01000100FF00F0C3
(1542706029.627726) can0 0CFDD733#0100FFFFFFFFFFFF
(1542706029.629986) can0 0CFDD734#0100FFFFFFFFFFFF
(1542706029.638607) can0 0CFDD633#01000100FF00F0C3
(1542706029.646896) can0 0CFDD634#01000100FF00F0C3
(1542706029.647663) can0 0CFDD733#0100FFFFFFFFFFFF
(1542706029.649897) can0 0CFDD734#0100FFFFFFFFFFFF
(1542706029.659602) can0 0CFDD633#01000100FF00F0C3
(1542706029.661612) can0 628#019DE042E925F71A
(1542706029.667871) can0 0CFDD634#01000100FF00F0C3
(1542706029.668583) can0 0CFDD733#0100FFFFFFFFFFFF
(1542706029.669820) can0 0CFDD734#0100FFFFFFFFFFFF
(1542706029.679568) can0 0CFDD633#01000100FF00F0C3
(1542706029.687850) can0 0CFDD634#01000100FF00F0C3
(1542706029.688592) can0 0CFDD733#0100FFFFFFFFFFFF
(1542706029.689835) can0 0CFDD734#0100FFFFFFFFFFFF
(1542706029.700549) can0 0CFDD633#01000100FF00F0C3
(1542706029.701616) can0 628#01B3DF2AEA04F81A
(1542706029.708747) can0 0CFDD634#01000100FF00F0C3
(1542706029.709544) can0 0CFDD733#0100FFFFFFFFFFFF
(1542706029.710828) can0 0CFDD734#0100FFFFFFFFFFFF
(1542706029.720458) can0 0CFDD633#01000100FF00F0C3
(1542706029.727820) can0 18FECA34#00FF00000000FFFF
(1542706029.728751) can0 0CFDD634#01000100FF00F0C3
(1542706029.729485) can0 0CFDD733#0100FFFFFFFFFFFF
(1542706029.730732) can0 0CFDD734#0100FFFFFFFFFFFF
(1542706029.741386) can0 0CFDD633#01000100FF00F0C3
(1542706029.741883) can0 628#0180DF81EA7FF81A
(1542706029.749665) can0 0CFDD634#01000100FF00F0C3
(1542706029.750459) can0 0CFDD733#0100FFFFFFFFFFFF
(1542706029.751689) can0 0CFDD734#0100FFFFFFFFFFFF
(1542706029.761446) can0 0CFDD633#01000100FF00F0C3
(1542706029.770706) can0 0CFDD634#01000100FF00F0C3
(1542706029.771423) can0 0CFDD733#0100FFFFFFFFFFFF
(1542706029.772732) can0 0CFDD734#0100FFFFFFFFFFFF
(1542706029.781656) can0 628#013CDFD6EA75F81A
(1542706029.782439) can0 0CFDD633#01000100FF00F0C3
(1542706029.790641) can0 0CFDD634#01000100FF00F0C3
(1542706029.792463) can0 0CFDD733#0100FFFFFFFFFFFF
(1542706029.793692) can0 0CFDD734#0100FFFFFFFFFFFF
(1542706029.803411) can0 0CFDD633#01000100FF00F0C3
(1542706029.810641) can0 0CFDD634#01000100FF00F0C3
(1542706029.812411) can0 0CFDD733#0100FFFFFFFFFFFF
(1542706029.813630) can0 0CFDD734#0100FFFFFFFFFFFF
(1542706029.821630) can0 628#01E7DE5CEB81F81A
(1542706029.824305) can0 0CFDD633#01000100FF00F0C3
(1542706029.831577) can0 0CFDD634#01000100FF00F0C3
(1542706029.832370) can0 0CFDD733#0100FFFFFFFFFFFF
(1542706029.834614) can0 0CFDD734#0100FFFFFFFFFFFF
(1542706029.844234) can0 0CFDD633#01000100FF00F0C3
(1542706029.851465) can0 0CFDD634#01000100FF00F0C3
(1542706029.852280) can0 0CFDD733#0100FFFFFFFFFFFF
(1542706029.854491) can0 0CFDD734#0100FFFFFFFFFFFF
(1542706029.861622) can0 628#0197DEC9EB82F81A
(1542706029.865204) can0 0CFDD633#01000100FF00F0C3
(1542706029.872454) can0 0CFDD634#01000100FF00F0C3
(1542706029.873233) can0 0CFDD733#0100FFFFFFFFFFFF
(1542706029.874486) can0 0CFDD734#0100FFFFFFFFFFFF
(1542706029.885258) can0 0CFDD633#01000100FF00F0C3
(1542706029.892465) can0 0CFDD634#01000100FF00F0C3
(1542706029.893254) can0 0CFDD733#0100FFFFFFFFFFFF
(1542706029.894466) can0 0CFDD734#0100FFFFFFFFFFFF
(1542706029.901634) can0 628#015DDE4EEC7EF81A
(1542706029.906157) can0 0CFDD633#01000100FF00F0C3
(1542706029.913398) can0 0CFDD634#01000100FF00F0C3
(1542706029.914200) can0 0CFDD733#0100FFFFFFFFFFFF
(1542706029.915463) can0 0CFDD734#0100FFFFFFFFFFFF
(1542706029.926139) can0 0CFDD633#01000100FF00F0C3
(1542706029.933382) can0 0CFDD634#01000100FF00F0C3
(1542706029.934155) can0 0CFDD733#0100FFFFFFFFFFFF
(1542706029.935365) can0 0CFDD734#0100FFFFFFFFFFFF
(1542706029.941648) can0 628#011DDEC1EC86F81A
(1542706029.947126) can0 0CFDD633#01000100FF00F0C3
(1542706029.954340) can0 0CFDD634#01000100FF00F0C3
(1542706029.955125) can0 0CFDD733#0100FFFFFFFFFFFF
(1542706029.956397) can0 0CFDD734#0100FFFFFFFFFFFF
(1542706029.967073) can0 0CFDD633#01000100FF00F0C3
(1542706029.974292) can0 0CFDD634#01000100FF00F0C3
(1542706029.975080) can0 0CFDD733#0100FFFFFFFFFFFF
(1542706029.976316) can0 0CFDD734#0100FFFFFFFFFFFF
(1542706029.981663) can0 628#01CCDD3FED88F81A
(1542706029.988016) can0 0CFDD633#01000100FF00F0C3
(1542706029.995278) can0 0CFDD634#01000100FF00F0C3
(1542706029.996057) can0 0CFDD733#0100FFFFFFFFFFFF
(1542706029.997332) can0 0CFDD734#0100FFFFFFFFFFFF
(1542706030.008073) can0 0CFDD633#01000100FF00F0C3
(1542706030.015253) can0 0CFDD634#01000100FF00F0C3
(1542706030.016063) can0 0CFDD733#0100FFFFFFFFFFFF
(1542706030.018234) can0 0CFDD734#0100FFFFFFFFFFFF
(1542706030.021647) can0 628#0196DDB6ED89F81A
(1542706030.028954) can0 0CFDD633#01000100FF00F0C3
(1542706030.036158) can0 0CFDD634#01000100FF00F0C3
(1542706030.036985) can0 0CFDD733#0100FFFFFFFFFFFF
(1542706030.038188) can0 0CFDD734#0100FFFFFFFFFFFF
(1542706030.048924) can0 0CFDD633#01000100FF00F0C3
(1542706030.056183) can0 0CFDD634#01000100FF00F0C3
(1542706030.056994) can0 0CFDD733#0100FFFFFFFFFFFF
(1542706030.058174) can0 0CFDD734#0100FFFFFFFFFFFF
(1542706030.061738) can0 628#0151DD16EE81F81A
(1542706030.069893) can0 0CFDD633#01000100FF00F0C3
(1542706030.077215) can0 0CFDD634#01000100FF00F0C3
(1542706030.077939) can0 0CFDD733#0100FFFFFFFFFFFF
(1542706030.079147) can0 0CFDD734#0100FFFFFFFFFFFF
(1542706030.089901) can0 0CFDD633#01000100FF00F0C3
(1542706030.098094) can0 0CFDD634#01000100FF00F0C3
(1542706030.098929) can0 0CFDD733#0100FFFFFFFFFFFF
(1542706030.100129) can0 0CFDD734#0100FFFFFFFFFFFF
(1542706030.101747) can0 628#01E9DCC5EE88F81A
(1542706030.110876) can0 0CFDD633#01000100FF00F0C3
(1542706030.118040) can0 0CFDD634#01000100FF00F0C3
(1542706030.119848) can0 0CFDD733#0100FFFFFFFFFFFF
(1542706030.121110) can0 0CFDD734#0100FFFFFFFFFFFF
(1542706030.130912) can0 0CFDD633#01000100FF00F0C3
(1542706030.139058) can0 0CFDD634#01000100FF00F0C3
(1542706030.139834) can0 0CFDD733#0100FFFFFFFFFFFF
(1542706030.141121) can0 0CFDD734#0100FFFFFFFFFFFF
(1542706030.141737) can0 628#01C3DC1FEF88F81A
(1542706030.150826) can0 0CFDD633#01000100FF00F0C3
(1542706030.159043) can0 0CFDD634#01000100FF00F0C3
(1542706030.160917) can0 0CFDD733#0100FFFFFFFFFFFF
(1542706030.162032) can0 0CFDD734#0100FFFFFFFFFFFF
(1542706030.170799) can0 0CFDD633#01000100FF00F0C3
(1542706030.179016) can0 0CFDD634#01000100FF00F0C3
(1542706030.180767) can0 0CFDD733#0100FFFFFFFFFFFF
(1542706030.181876) can0 628#0195DC99EF83F81A
(1542706030.182436) can0 0CFDD734#0100FFFFFFFFFFFF
(1542706030.191800) can0 0CFDD633#01000100FF00F0C3
(1542706030.199952) can0 0CFDD634#01000100FF00F0C3
(1542706030.200812) can0 0CFDD733#0100FFFFFFFFFFFF
(1542706030.202956) can0 0CFDD734#0100FFFFFFFFFFFF
(1542706030.211749) can0 0CFDD633#01000100FF00F0C3
(1542706030.219879) can0 0CFDD634#01000100FF00F0C3
(1542706030.220738) can0 0CFDD733#0100FFFFFFFFFFFF
(1542706030.221742) can0 628#0149DC22F081F81A
(1542706030.222917) can0 0CFDD734#0100FFFFFFFFFFFF
(1542706030.232697) can0 0CFDD633#01000100FF00F0C3
(1542706030.240914) can0 0CFDD634#01000100FF00F0C3
(1542706030.241724) can0 0CFDD733#0100FFFFFFFFFFFF
(1542706030.243888) can0 0CFDD734#0100FFFFFFFFFFFF
(1542706030.252638) can0 0CFDD633#01000100FF00F0C3
(1542706030.261913) can0 0CFDD634#01000100FF00F0C3
(1542706030.262277) can0 628#0121DCA5F087F81A
(1542706030.262904) can0 0CFDD733#0100FFFFFFFFFFFF
(1542706030.263864) can0 0CFDD734#0100FFFFFFFFFFFF
(1542706030.273624) can0 0CFDD633#01000100FF00F0C3
(1542706030.281913) can0 0CFDD634#01000100FF00F0C3
(1542706030.283609) can0 0CFDD733#0100FFFFFFFFFFFF
(1542706030.284915) can0 0CFDD734#0100FFFFFFFFFFFF
(1542706030.293619) can0 0CFDD633#01000100FF00F0C3
(1542706030.301801) can0 0CFDD634#01000100FF00F0C3
(1542706030.302258) can0 628#01F5DB1BF180F81A
(1542706030.303585) can0 0CFDD733#0100FFFFFFFFFFFF
(1542706030.304915) can0 0CFDD734#0100FFFFFFFFFFFF
(1542706030.314573) can0 0CFDD633#01000100FF00F0C3
(1542706030.322777) can0 0CFDD634#01000100FF00F0C3
(1542706030.323548) can0 0CFDD733#0100FFFFFFFFFFFF
(1542706030.325802) can0 0CFDD734#0100FFFFFFFFFFFF
(1542706030.334543) can0 0CFDD633#01000100FF00F0C3
(1542706030.341802) can0 628#01A8DBA3F179F81A
(1542706030.342719) can0 0CFDD634#01000100FF00F0C3
(1542706030.343521) can0 0CFDD733#0100FFFFFFFFFFFF
(1542706030.345750) can0 0CFDD734#0100FFFFFFFFFFFF
(1542706030.355484) can0 0CFDD633#01000100FF00F0C3
(1542706030.363701) can0 0CFDD634#01000100FF00F0C3
(1542706030.364466) can0 0CFDD733#0100FFFFFFFFFFFF
(1542706030.365686) can0 0CFDD734#0100FFFFFFFFFFFF
(1542706030.375468) can0 0CFDD633#01000100FF00F0C3
(1542706030.381785) can0 628#0168DB2DF27AF81A
(1542706030.383673) can0 0CFDD634#01000100FF00F0C3
(1542706030.384452) can0 0CFDD733#0100FFFFFFFFFFFF
(1542706030.385699) can0 0CFDD734#0100FFFFFFFFFFFF
(1542706030.396406) can0 0CFDD633#01000100FF00F0C3
(1542706030.404532) can0 0CFDD634#01000100FF00F0C3
(1542706030.405395) can0 0CFDD733#0100FFFFFFFFFFFF
(1542706030.406636) can0 0CFDD734#0100FFFFFFFFFFFF
(1542706030.416373) can0 0CFDD633#01000100FF00F0C3
(1542706030.421829) can0 628#0145DB99F27EF81A
(1542706030.424548) can0 0CFDD634#01000100FF00F0C3
(1542706030.425377) can0 0CFDD733#0100FFFFFFFFFFFF
(1542706030.426611) can0 0CFDD734#0100FFFFFFFFFFFF
(1542706030.437358) can0 0CFDD633#01000100FF00F0C3
(1542706030.445569) can0 0CFDD634#01000100FF00F0C3
(1542706030.446379) can0 0CFDD733#0100FFFFFFFFFFFF
(1542706030.447503) can0 0CFDD734#0100FFFFFFFFFFFF
(1542706030.457262) can0 0CFDD633#01000100FF00F0C3
(1542706030.461869) can0 628#011EDB1FF360F81A
(1542706030.465459) can0 0CFDD634#01000100FF00F0C3
(1542706030.466348) can0 0CFDD733#0100FFFFFFFFFFFF
(1542706030.467508) can0 0CFDD734#0100FFFFFFFFFFFF
(1542706030.478238) can0 0CFDD633#01000100FF00F0C3
(1542706030.486481) can0 0CFDD634#01000100FF00F0C3
(1542706030.487296) can0 0CFDD733#0100FFFFFFFFFFFF
(1542706030.488457) can0 0CFDD734#0100FFFFFFFFFFFF
(1542706030.498220) can0 0CFDD633#01000100FF00F0C3
(1542706030.501916) can0 628#01C8DAC3F353F71A
(1542706030.507466) can0 0CFDD634#01000100FF00F0C3
(1542706030.508311) can0 0CFDD733#0100FFFFFFFFFFFF
(1542706030.509408) can0 0CFDD734#0100FFFFFFFFFFFF
(1542706030.519193) can0 0CFDD633#01000100FF00F0C3
(1542706030.527377) can0 0CFDD634#01000100FF00F0C3
(1542706030.529205) can0 0CFDD733#0100FFFFFFFFFFFF
(1542706030.530405) can0 0CFDD734#0100FFFFFFFFFFFF
(1542706030.539166) can0 0CFDD633#01000100FF00F0C3
(1542706030.541917) can0 628#01B2DA50F48CF81A
(1542706030.547386) can0 0CFDD634#01000100FF00F0C3
(1542706030.549159) can0 0CFDD733#0100FFFFFFFFFFFF
(1542706030.550415) can0 0CFDD734#0100FFFFFFFFFFFF
(1542706030.551255) can0 18FECA33#00FF00000000FFFF
(1542706030.560179) can0 0CFDD633#01000100FF00F0C3
(1542706030.568370) can0 0CFDD634#01000100FF00F0C3
(1542706030.569156) can0 0CFDD733#0100FFFFFFFFFFFF
(1542706030.571359) can0 0CFDD734#0100FFFFFFFFFFFF
(1542706030.580093) can0 0CFDD633#01000100FF00F0C3
(1542706030.581881) can0 628#0194DAB6F486F81A
(1542706030.588265) can0 0CFDD634#01000100FF00F0C3
(1542706030.589132) can0 0CFDD733#0100FFFFFFFFFFFF
(1542706030.591296) can0 0CFDD734#0100FFFFFFFFFFFF
(1542706030.601079) can0 0CFDD633#01000100FF00F0C3
(1542706030.609245) can0 0CFDD634#01000100FF00F0C3
(1542706030.610115) can0 0CFDD733#0100FFFFFFFFFFFF
(1542706030.611309) can0 0CFDD734#0100FFFFFFFFFFFF
(1542706030.621040) can0 0CFDD633#01000100FF00F0C3
(1542706030.621959) can0 628#0161DA5CF57EF81A
(1542706030.629282) can0 0CFDD634#01000100FF00F0C3
(1542706030.631101) can0 0CFDD733#0100FFFFFFFFFFFF
(1542706030.632288) can0 0CFDD734#0100FFFFFFFFFFFF
(1542706030.642003) can0 0CFDD633#01000100FF00F0C3
(1542706030.650157) can0 0CFDD634#01000100FF00F0C3
(1542706030.651100) can0 0CFDD733#0100FFFFFFFFFFFF
(1542706030.653236) can0 0CFDD734#0100FFFFFFFFFFFF
(1542706030.661920) can0 628#013BDADDF58BF81A
(1542706030.662399) can0 0CFDD633#01000100FF00F0C3
(1542706030.670143) can0 0CFDD634#01000100FF00F0C3
(1542706030.671997) can0 0CFDD733#0100FFFFFFFFFFFF
(1542706030.673205) can0 0CFDD734#0100FFFFFFFFFFFF
(1542706030.682970) can0 0CFDD633#01000100FF00F0C3
(1542706030.691117) can0 0CFDD634#01000100FF00F0C3
(1542706030.691933) can0 0CFDD733#0100FFFFFFFFFFFF
(1542706030.694154) can0 0CFDD734#0100FFFFFFFFFFFF
(1542706030.701919) can0 628#011FDA47F682F81A
(1542706030.702945) can0 0CFDD633#01000100FF00F0C3
(1542706030.711059) can0 0CFDD634#01000100FF00F0C3
(1542706030.712910) can0 0CFDD733#0100FFFFFFFFFFFF
(1542706030.714093) can0 0CFDD734#0100FFFFFFFFFFFF
(1542706030.723881) can0 0CFDD633#01000100FF00F0C3
(1542706030.726071) can0 18FECA34#00FF00000000FFFF
(1542706030.732082) can0 0CFDD634#01000100FF00F0C3
(1542706030.732945) can0 0CFDD733#0100FFFFFFFFFFFF
(1542706030.735067) can0 0CFDD734#0100FFFFFFFFFFFF
(1542706030.741882) can0 628#01ECD9F2F67AF81A
(1542706030.743873) can0 0CFDD633#01000100FF00F0C3
(1542706030.752028) can0 0CFDD634#01000100FF00F0C3
(1542706030.753921) can0 0CFDD733#0100FFFFFFFFFFFF
(1542706030.754986) can0 0CFDD734#0100FFFFFFFFFFFF
(1542706030.764781) can0 0CFDD633#01000100FF00F0C3
(1542706030.772954) can0 0CFDD634#01000100FF00F0C3
(1542706030.773874) can0 0CFDD733#0100FFFFFFFFFFFF
(1542706030.775987) can0 0CFDD734#0100FFFFFFFFFFFF
(1542706030.781909) can0 628#01C1D963F793F81A
(1542706030.784770) can0 0CFDD633#01000100FF00F0C3
(1542706030.792936) can0 0CFDD634#01000100FF00F0C3
(1542706030.793755) can0 0CFDD733#0100FFFFFFFFFFFF
(1542706030.795999) can0 0CFDD734#0100FFFFFFFFFFFF
(1542706030.805721) can0 0CFDD633#01000100FF00F0C3
(1542706030.813951) can0 0CFDD634#01000100FF00F0C3
(1542706030.814793) can0 0CFDD733#0100FFFFFFFFFFFF
(1542706030.815938) can0 0CFDD734#0100FFFFFFFFFFFF
(1542706030.821947) can0 628#01C2D9E1F77EF81A
(1542706030.825692) can0 0CFDD633#01000100FF00F0C3
(1542706030.834884) can0 0CFDD634#01000100FF00F0C3
(1542706030.835765) can0 0CFDD733#0100FFFFFFFFFFFF
(1542706030.836885) can0 0CFDD734#0100FFFFFFFFFFFF
(1542706030.846639) can0 0CFDD633#01000100FF00F0C3
(1542706030.854920) can0 0CFDD634#01000100FF00F0C3
(1542706030.856705) can0 0CFDD733#0100FFFFFFFFFFFF
(1542706030.857876) can0 0CFDD734#0100FFFFFFFFFFFF
(1542706030.861977) can0 628#0199D97EF886F81A
(1542706030.866630) can0 0CFDD633#01000100FF00F0C3
(1542706030.874839) can0 0CFDD634#01000100FF00F0C3
(1542706030.876630) can0 0CFDD733#0100FFFFFFFFFFFF
(1542706030.877885) can0 0CFDD734#0100FFFFFFFFFFFF
(1542706030.887652) can0 0CFDD633#01000100FF00F0C3
(1542706030.895810) can0 0CFDD634#01000100FF00F0C3
(1542706030.896647) can0 0CFDD733#0100FFFFFFFFFFFF
(1542706030.898762) can0 0CFDD734#0100FFFFFFFFFFFF
(1542706030.902025) can0 628#0179D9FDF814F81A
(1542706030.907626) can0 0CFDD633#01000100FF00F0C3
(1542706030.916710) can0 0CFDD634#01000100FF00F0C3
(1542706030.917632) can0 0CFDD733#0100FFFFFFFFFFFF
(1542706030.918736) can0 0CFDD734#0100FFFFFFFFFFFF
(1542706030.928515) can0 0CFDD633#01000100FF00F0C3
(1542706030.936731) can0 0CFDD634#01000100FF00F0C3
(1542706030.937533) can0 0CFDD733#0100FFFFFFFFFFFF
(1542706030.939694) can0 0CFDD734#0100FFFFFFFFFFFF
(1542706030.941936) can0 628#016CD990F988F81A
(1542706030.948489) can0 0CFDD633#01000100FF00F0C3
(1542706030.956685) can0 0CFDD634#01000100FF00F0C3
(1542706030.957527) can0 0CFDD733#0100FFFFFFFFFFFF
(1542706030.959706) can0 0CFDD734#0100FFFFFFFFFFFF
(1542706030.969452) can0 0CFDD633#01000100FF00F0C3
(1542706030.977616) can0 0CFDD634#01000100FF00F0C3
(1542706030.978487) can0 0CFDD733#0100FFFFFFFFFFFF
(1542706030.979642) can0 0CFDD734#0100FFFFFFFFFFFF
(1542706030.981963) can0 628#0153D91FFA92F81A
(1542706030.989471) can0 0CFDD633#01000100FF00F0C3
(1542706030.997632) can0 0CFDD634#01000100FF00F0C3
(1542706030.998461) can0 0CFDD733#0100FFFFFFFFFFFF
(1542706030.999591) can0 0CFDD734#0100FFFFFFFFFFFF
(1542706031.010427) can0 0CFDD633#01000100FF00F0C3
(1542706031.018521) can0 0CFDD634#01000100FF00F0C3
(1542706031.019410) can0 0CFDD733#0100FFFFFFFFFFFF
(1542706031.020602) can0 0CFDD734#0100FFFFFFFFFFFF
(1542706031.022001) can0 628#013CD9A6FA92F81A
(1542706031.030419) can0 0CFDD633#01000100FF00F0C3
(1542706031.038507) can0 0CFDD634#01000100FF00F0C3
(1542706031.039353) can0 0CFDD733#0100FFFFFFFFFFFF
(1542706031.040539) can0 0CFDD734#0100FFFFFFFFFFFF
(1542706031.051310) can0 0CFDD633#01000100FF00F0C3
(1542706031.059456) can0 0CFDD634#01000100FF00F0C3
(1542706031.060329) can0 0CFDD733#0100FFFFFFFFFFFF
(1542706031.061437) can0 0CFDD734#0100FFFFFFFFFFFF
(1542706031.061967) can0 628#0119D932FBA4F81A
(1542706031.071302) can0 0CFDD633#01000100FF00F0C3
(1542706031.079435) can0 0CFDD634#01000100FF00F0C3
(1542706031.080326) can0 0CFDD733#0100FFFFFFFFFFFF
(1542706031.081463) can0 0CFDD734#0100FFFFFFFFFFFF
(1542706031.092271) can0 0CFDD633#01000100FF00F0C3
(1542706031.100409) can0 0CFDD634#01000100FF00F0C3
(1542706031.101278) can0 0CFDD733#0100FFFFFFFFFFFF
(1542706031.101978) can0 628#011FD9B4FB91F81A
(1542706031.102565) can0 0CFDD734#0100FFFFFFFFFFFF
(1542706031.112241) can0 0CFDD633#01000100FF00F0C3
(1542706031.120335) can0 0CFDD634#01000100FF00F0C3
(1542706031.121252) can0 0CFDD733#0100FFFFFFFFFFFF
(1542706031.122328) can0 0CFDD734#0100FFFFFFFFFFFF
(1542706031.133183) can0 0CFDD633#01000100FF00F0C3
(1542706031.141342) can0 0CFDD634#01000100FF00F0C3
(1542706031.141961) can0 628#0105D93DFC8CF81A
(1542706031.142563) can0 0CFDD733#0100FFFFFFFFFFFF
(1542706031.143368) can0 0CFDD734#0100FFFFFFFFFFFF
(1542706031.153207) can0 0CFDD633#01000100FF00F0C3
(1542706031.161341) can0 0CFDD634#01000100FF00F0C3
(1542706031.162234) can0 0CFDD733#0100FFFFFFFFFFFF
(1542706031.164315) can0 0CFDD734#0100FFFFFFFFFFFF
(1542706031.174123) can0 0CFDD633#01000100FF00F0C3
(1542706031.182054) can0 628#014AD7F6FB92F91A
(1542706031.182564) can0 0CFDD634#01000100FF00F0C3
(1542706031.183168) can0 0CFDD733#0100FFFFFFFFFFFF
(1542706031.184257) can0 0CFDD734#0100FFFFFFFFFFFF
(1542706031.194095) can0 0CFDD633#01000100FF00F0C3
(1542706031.202263) can0 0CFDD634#01000100FF00F0C3
(1542706031.203123) can0 0CFDD733#0100FFFFFFFFFFFF
(1542706031.204216) can0 0CFDD734#0100FFFFFFFFFFFF
(1542706031.215070) can0 0CFDD633#01000100FF00F0C3
(1542706031.222162) can0 628#019DD5E8FD73FC1A
(1542706031.223237) can0 0CFDD634#01000100FF00F0C3
(1542706031.224076) can0 0CFDD733#0100FFFFFFFFFFFF
(1542706031.225226) can0 0CFDD734#0100FFFFFFFFFFFF
(1542706031.235086) can0 0CFDD633#01000100FF00F0C3
(1542706031.244174) can0 0CFDD634#01000100FF00F0C3
(1542706031.245055) can0 0CFDD733#0100FFFFFFFFFFFF
(1542706031.246201) can0 0CFDD734#0100FFFFFFFFFFFF
(1542706031.256060) can0 0CFDD633#01000100FF00F0C3
(1542706031.262056) can0 628#01C7D5E4FD1B001A
(1542706031.264123) can0 0CFDD634#01000100FF00F0C3
(1542706031.265020) can0 0CFDD733#0100FFFFFFFFFFFF
(1542706031.266185) can0 0CFDD734#0100FFFFFFFFFFFF
(1542706031.276008) can0 0CFDD633#01000100FF00F0C3
(1542706031.284096) can0 0CFDD634#01000100FF00F0C3
(1542706031.285032) can0 0CFDD733#0100FFFFFFFFFFFF
(1542706031.287134) can0 0CFDD734#0100FFFFFFFFFFFF
(1542706031.296945) can0 0CFDD633#01000100FF00F0C3
(1542706031.302021) can0 628#01FCD84EFC7F001A
(1542706031.305110) can0 0CFDD634#01000100FF00F0C3
(1542706031.305967) can0 0CFDD733#0100FFFFFFFFFFFF
(1542706031.307074) can0 0CFDD734#0100FFFFFFFFFFFF
(1542706031.316915) can0 0CFDD633#01000100FF00F0C3
(1542706031.326019) can0 0CFDD634#01000100FF00F0C3
(1542706031.326887) can0 0CFDD733#0100FFFFFFFFFFFF
(1542706031.328048) can0 0CFDD734#0100FFFFFFFFFFFF
(1542706031.337929) can0 0CFDD633#01000100FF00F0C3
(1542706031.342051) can0 628#0129D907FD17001A
(1542706031.346030) can0 0CFDD634#01000100FF00F0C3
(1542706031.346869) can0 0CFDD733#0100FFFFFFFFFFFF
(1542706031.349057) can0 0CFDD734#0100FFFFFFFFFFFF
(1542706031.357895) can0 0CFDD633#01000100FF00F0C3
(1542706031.365986) can0 0CFDD634#01000100FF00F0C3
(1542706031.366927) can0 0CFDD733#0100FFFFFFFFFFFF
(1542706031.369005) can0 0CFDD734#0100FFFFFFFFFFFF
(1542706031.378802) can0 0CFDD633#01000100FF00F0C3
(1542706031.382021) can0 628#0198D861FE92001A
(1542706031.386892) can0 0CFDD634#01000100FF00F0C3
(1542706031.387810) can0 0CFDD733#0100FFFFFFFFFFFF
(1542706031.388979) can0 0CFDD734#0100FFFFFFFFFFFF
(1542706031.398777) can0 0CFDD633#01000100FF00F0C3
(1542706031.407890) can0 0CFDD634#01000100FF00F0C3
(1542706031.408775) can0 0CFDD733#0100FFFFFFFFFFFF
(1542706031.409918) can0 0CFDD734#0100FFFFFFFFFFFF
(1542706031.419735) can0 0CFDD633#01000100FF00F0C3
(1542706031.422135) can0 628#011FD97AFC80001A
(1542706031.427885) can0 0CFDD634#01000100FF00F0C3
(1542706031.428771) can0 0CFDD733#0100FFFFFFFFFFFF
(1542706031.430929) can0 0CFDD734#0100FFFFFFFFFFFF
(1542706031.439765) can0 0CFDD633#01000100FF00F0C3
(1542706031.447840) can0 0CFDD634#01000100FF00F0C3
(1542706031.448682) can0 0CFDD733#0100FFFFFFFFFFFF
(1542706031.450928) can0 0CFDD734#0100FFFFFFFFFFFF
(1542706031.460737) can0 0CFDD633#01000100FF00F0C3
(1542706031.462099) can0 628#0182D8B7FC65001A
(1542706031.468764) can0 0CFDD634#01000100FF00F0C3
(1542706031.469705) can0 0CFDD733#0100FFFFFFFFFFFF
(1542706031.470799) can0 0CFDD734#0100FFFFFFFFFFFF
(1542706031.480647) can0 0CFDD633#01000100FF00F0C3
(1542706031.488698) can0 0CFDD634#01000100FF00F0C3
(1542706031.489711) can0 0CFDD733#0100FFFFFFFFFFFF
(1542706031.490757) can0 0CFDD734#0100FFFFFFFFFFFF
(1542706031.501585) can0 0CFDD633#01000100FF00F0C3
(1542706031.502069) can0 628#0189D500FE5B031A
(1542706031.509701) can0 0CFDD634#01000100FF00F0C3
(1542706031.510614) can0 0CFDD733#0100FFFFFFFFFFFF
(1542706031.511714) can0 0CFDD734#0100FFFFFFFFFFFF
(1542706031.521632) can0 0CFDD633#01000100FF00F0C3
(1542706031.530712) can0 0CFDD634#01000100FF00F0C3
(1542706031.531602) can0 0CFDD733#0100FFFFFFFFFFFF
(1542706031.532738) can0 0CFDD734#0100FFFFFFFFFFFF
(1542706031.542138) can0 628#019AD54CFDCF061A
(1542706031.542657) can0 0CFDD633#01000100FF00F0C3
(1542706031.549571) can0 18FECA33#00FF00000000FFFF
(1542706031.550649) can0 0CFDD634#01000100FF00F0C3
(1542706031.551535) can0 0CFDD733#0100FFFFFFFFFFFF
(1542706031.553686) can0 0CFDD734#0100FFFFFFFFFFFF
(1542706031.562553) can0 0CFDD633#01000100FF00F0C3
(1542706031.571631) can0 0CFDD634#01000100FF00F0C3
(1542706031.572519) can0 0CFDD733#0100FFFFFFFFFFFF
(1542706031.573650) can0 0CFDD734#0100FFFFFFFFFFFF
(1542706031.582163) can0 628#012FD84DFC5D081A
(1542706031.583482) can0 0CFDD633#01000100FF00F0C3
(1542706031.591609) can0 0CFDD634#01000100FF00F0C3
(1542706031.592531) can0 0CFDD733#0100FFFFFFFFFFFF
(1542706031.594635) can0 0CFDD734#0100FFFFFFFFFFFF
(1542706031.604440) can0 0CFDD633#01000100FF00F0C3
(1542706031.611519) can0 0CFDD634#01000100FF00F0C3
(1542706031.612509) can0 0CFDD733#0100FFFFFFFFFFFF
(1542706031.614609) can0 0CFDD734#0100FFFFFFFFFFFF
(1542706031.622163) can0 628#01FBD89AFB3C081A
(1542706031.625460) can0 0CFDD633#01000100FF00F0C3
(1542706031.632530) can0 0CFDD634#01000100FF00F0C3
(1542706031.633480) can0 0CFDD733#0100FFFFFFFFFFFF
(1542706031.634583) can0 0CFDD734#0100FFFFFFFFFFFF
(1542706031.645390) can0 0CFDD633#01000100FF00F0C3
(1542706031.652509) can0 0CFDD634#01000100FF00F0C3
(1542706031.653406) can0 0CFDD733#0100FFFFFFFFFFFF
(1542706031.654531) can0 0CFDD734#0100FFFFFFFFFFFF
(1542706031.662204) can0 628#011DD9E3FB3A081A
(1542706031.666336) can0 0CFDD633#01000100FF00F0C3
(1542706031.673457) can0 0CFDD634#01000100FF00F0C3
(1542706031.674303) can0 0CFDD733#0100FFFFFFFFFFFF
(1542706031.675479) can0 0CFDD734#0100FFFFFFFFFFFF
(1542706031.686254) can0 0CFDD633#01000100FF00F0C3
(1542706031.694433) can0 0CFDD634#01000100FF00F0C3
(1542706031.695315) can0 0CFDD733#0100FFFFFFFFFFFF
(1542706031.696433) can0 0CFDD734#0100FFFFFFFFFFFF
(1542706031.702171) can0 628#0131D906FB66081A
(1542706031.707308) can0 0CFDD633#01000100FF00F0C3
(1542706031.714416) can0 0CFDD634#01000100FF00F0C3
(1542706031.715273) can0 0CFDD733#0100FFFFFFFFFFFF
(1542706031.717379) can0 0CFDD734#0100FFFFFFFFFFFF
(1542706031.724384) can0 18FECA34#00FF00000000FFFF
(1542706031.727255) can0 0CFDD633#01000100FF00F0C3
(1542706031.735369) can0 0CFDD634#01000100FF00F0C3
(1542706031.736242) can0 0CFDD733#0100FFFFFFFFFFFF
(1542706031.737360) can0 0CFDD734#0100FFFFFFFFFFFF
(1542706031.742188) can0 628#0155D92CFA3D081A
(1542706031.748205) can0 0CFDD633#01000100FF00F0C3
(1542706031.755321) can0 0CFDD634#01000100FF00F0C3
(1542706031.756275) can0 0CFDD733#0100FFFFFFFFFFFF
(1542706031.758265) can0 0CFDD734#0100FFFFFFFFFFFF
(1542706031.768156) can0 0CFDD633#01000100FF00F0C3
(1542706031.775299) can0 0CFDD634#01000100FF00F0C3
(1542706031.776209) can0 0CFDD733#0100FFFFFFFFFFFF
(1542706031.778229) can0 0CFDD734#0100FFFFFFFFFFFF
(1542706031.782206) can0 628#0131D91FFA40081A
(1542706031.789191) can0 0CFDD633#01000100FF00F0C3
(1542706031.796274) can0 0CFDD634#01000100FF00F0C3
(1542706031.797157) can0 0CFDD733#0100FFFFFFFFFFFF
(1542706031.798204) can0 0CFDD734#0100FFFFFFFFFFFF
(1542706031.809109) can0 0CFDD633#01000100FF00F0C3
(1542706031.816223) can0 0CFDD634#01000100FF00F0C3
(1542706031.817144) can0 0CFDD733#0100FFFFFFFFFFFF
(1542706031.818154) can0 0CFDD734#0100FFFFFFFFFFFF
(1542706031.822218) can0 628#0155D970F965081A
(1542706031.830114) can0 0CFDD633#01000100FF00F0C3
(1542706031.837192) can0 0CFDD634#01000100FF00F0C3
(1542706031.838067) can0 0CFDD733#0100FFFFFFFFFFFF
(1542706031.839181) can0 0CFDD734#0100FFFFFFFFFFFF
(1542706031.850088) can0 0CFDD633#01000100FF00F0C3
(1542706031.857141) can0 0CFDD634#01000100FF00F0C3
(1542706031.858024) can0 0CFDD733#0100FFFFFFFFFFFF
(1542706031.860081) can0 0CFDD734#0100FFFFFFFFFFFF
(1542706031.862164) can0 628#019DD992F840081A
(1542706031.871025) can0 0CFDD633#01000100FF00F0C3
(1542706031.878028) can0 0CFDD634#01000100FF00F0C3
(1542706031.879052) can0 0CFDD733#0100FFFFFFFFFFFF
(1542706031.880053) can0 0CFDD734#0100FFFFFFFFFFFF
(1542706031.890999) can0 0CFDD633#01000100FF00F0C3
(1542706031.897999) can0 0CFDD634#01000100FF00F0C3
(1542706031.899028) can0 0CFDD733#0100FFFFFFFFFFFF
(1542706031.900130) can0 0CFDD734#0100FFFFFFFFFFFF
(1542706031.902207) can0 628#018CD981F84A081A
(1542706031.911923) can0 0CFDD633#01000100FF00F0C3
(1542706031.919000) can0 0CFDD634#01000100FF00F0C3
(1542706031.919951) can0 0CFDD733#0100FFFFFFFFFFFF
(1542706031.921009) can0 0CFDD734#0100FFFFFFFFFFFF
(1542706031.931959) can0 0CFDD633#01000100FF00F0C3
(1542706031.938974) can0 0CFDD634#01000100FF00F0C3
(1542706031.939933) can0 0CFDD733#0100FFFFFFFFFFFF
(1542706031.941037) can0 0CFDD734#0100FFFFFFFFFFFF
(1542706031.942233) can0 628#01ACD9C8F75A081A
(1542706031.952937) can0 0CFDD633#01000100FF00F0C3
(1542706031.959901) can0 0CFDD634#01000100FF00F0C3
(1542706031.960896) can0 0CFDD733#0100FFFFFFFFFFFF
(1542706031.961975) can0 0CFDD734#0100FFFFFFFFFFFF
(1542706031.972933) can0 0CFDD633#01000100FF00F0C3
(1542706031.980898) can0 0CFDD634#01000100FF00F0C3
(1542706031.981883) can0 0CFDD733#0100FFFFFFFFFFFF
(1542706031.982313) can0 628#01FDD917F741081A
(1542706031.982950) can0 0CFDD734#0100FFFFFFFFFFFF
(1542706031.992846) can0 0CFDD633#01000100FF00F0C3
(1542706032.000845) can0 0CFDD634#01000100FF00F0C3
(1542706032.001884) can0 0CFDD733#0100FFFFFFFFFFFF
(1542706032.003887) can0 0CFDD734#0100FFFFFFFFFFFF
(1542706032.012820) can0 0CFDD633#01000100FF00F0C3
(1542706032.021935) can0 0CFDD634#01000100FF00F0C3
(1542706032.022261) can0 628#01EFD9DAF643081A
(1542706032.022897) can0 0CFDD733#0100FFFFFFFFFFFF
(1542706032.023864) can0 0CFDD734#0100FFFFFFFFFFFF
(1542706032.033765) can0 0CFDD633#01000100FF00F0C3
(1542706032.041847) can0 0CFDD634#01000100FF00F0C3
(1542706032.042789) can0 0CFDD733#0100FFFFFFFFFFFF
(1542706032.044804) can0 0CFDD734#0100FFFFFFFFFFFF
(1542706032.053774) can0 0CFDD633#01000100FF00F0C3
(1542706032.061752) can0 0CFDD634#01000100FF00F0C3
(1542706032.062210) can0 628#0110DA3AF659081A
(1542706032.062935) can0 0CFDD733#0100FFFFFFFFFFFF
(1542706032.064821) can0 0CFDD734#0100FFFFFFFFFFFF
(1542706032.074722) can0 0CFDD633#01000100FF00F0C3
(1542706032.082770) can0 0CFDD634#01000100FF00F0C3
(1542706032.083688) can0 0CFDD733#0100FFFFFFFFFFFF
(1542706032.084796) can0 0CFDD734#0100FFFFFFFFFFFF
(1542706032.094691) can0 0CFDD633#01000100FF00F0C3
(1542706032.102382) can0 628#0146DA9FF549081A
(1542706032.103720) can0 0CFDD733#0100FFFFFFFFFFFF
(1542706032.104227) can0 0CFDD634#01000100FF00F0C3
(1542706032.104935) can0 0CFDD734#0100FFFFFFFFFFFF
(1542706032.115666) can0 0CFDD633#01000100FF00F0C3
(1542706032.124605) can0 0CFDD733#0100FFFFFFFFFFFF
(1542706032.125160) can0 0CFDD634#01000100FF00F0C3
(1542706032.125776) can0 0CFDD734#0100FFFFFFFFFFFF
(1542706032.135640) can0 0CFDD633#01000100FF00F0C3
(1542706032.142301) can0 628#015BDA1EF53D081A
(1542706032.144555) can0 0CFDD733#0100FFFFFFFFFFFF
(1542706032.145630) can0 0CFDD634#01000100FF00F0C3
(1542706032.146572) can0 0CFDD734#0100FFFFFFFFFFFF
(1542706032.156616) can0 0CFDD633#01000100FF00F0C3
(1542706032.164527) can0 0CFDD733#0100FFFFFFFFFFFF
(1542706032.165603) can0 0CFDD634#01000100FF00F0C3
(1542706032.166580) can0 0CFDD734#0100FFFFFFFFFFFF
(1542706032.176566) can0 0CFDD633#01000100FF00F0C3
(1542706032.182254) can0 628#0176DAC6F454081A
(1542706032.185563) can0 0CFDD733#0100FFFFFFFFFFFF
(1542706032.186589) can0 0CFDD634#01000100FF00F0C3
(1542706032.187614) can0 0CFDD734#0100FFFFFFFFFFFF
(1542706032.197514) can0 0CFDD633#01000100FF00F0C3
(1542706032.205537) can0 0CFDD733#0100FFFFFFFFFFFF
(1542706032.206563) can0 0CFDD634#01000100FF00F0C3
(1542706032.207563) can0 0CFDD734#0100FFFFFFFFFFFF
(1542706032.217511) can0 0CFDD633#01000100FF00F0C3
(1542706032.222326) can0 628#01D1DAFDF336081A
(1542706032.226425) can0 0CFDD733#0100FFFFFFFFFFFF
(1542706032.227442) can0 0CFDD634#01000100FF00F0C3
(1542706032.228483) can0 0CFDD734#0100FFFFFFFFFFFF
(1542706032.238438) can0 0CFDD633#01000100FF00F0C3
(1542706032.246449) can0 0CFDD733#0100FFFFFFFFFFFF
(1542706032.247448) can0 0CFDD634#01000100FF00F0C3
(1542706032.248417) can0 0CFDD734#0100FFFFFFFFFFFF
(1542706032.258408) can0 0CFDD633#01000100FF00F0C3
(1542706032.262347) can0 628#01EADA8EF343081A
(1542706032.267366) can0 0CFDD733#0100FFFFFFFFFFFF
(1542706032.268402) can0 0CFDD634#01000100FF00F0C3
(1542706032.269405) can0 0CFDD734#0100FFFFFFFFFFFF
(1542706032.279361) can0 0CFDD633#01000100FF00F0C3
(1542706032.287406) can0 0CFDD733#0100FFFFFFFFFFFF
(1542706032.288346) can0 0CFDD634#01000100FF00F0C3
(1542706032.289436) can0 0CFDD734#0100FFFFFFFFFFFF
(1542706032.299317) can0 0CFDD633#01000100FF00F0C3
(1542706032.302316) can0 628#01FADA4DF346081A
(1542706032.308294) can0 0CFDD733#0100FFFFFFFFFFFF
(1542706032.309378) can0 0CFDD634#01000100FF00F0C3
(1542706032.310370) can0 0CFDD734#0100FFFFFFFFFFFF
(1542706032.320291) can0 0CFDD633#01000100FF00F0C3
(1542706032.328264) can0 0CFDD733#0100FFFFFFFFFFFF
(1542706032.329304) can0 0CFDD634#01000100FF00F0C3
(1542706032.330353) can0 0CFDD734#0100FFFFFFFFFFFF
(1542706032.340250) can0 0CFDD633#01000100FF00F0C3
(1542706032.342328) can0 628#0151DB76F250081A
(1542706032.349267) can0 0CFDD733#0100FFFFFFFFFFFF
(1542706032.350328) can0 0CFDD634#01000100FF00F0C3
(1542706032.351329) can0 0CFDD734#0100FFFFFFFFFFFF
(1542706032.361255) can0 0CFDD633#01000100FF00F0C3
(1542706032.369276) can0 0CFDD733#0100FFFFFFFFFFFF
(1542706032.370215) can0 0CFDD634#01000100FF00F0C3
(1542706032.371253) can0 0CFDD734#0100FFFFFFFFFFFF
(1542706032.381225) can0 0CFDD633#01000100FF00F0C3
(1542706032.382358) can0 628#017BDB11F23E081A
(1542706032.390226) can0 0CFDD733#0100FFFFFFFFFFFF
(1542706032.391249) can0 0CFDD634#01000100FF00F0C3
(1542706032.392255) can0 0CFDD734#0100FFFFFFFFFFFF
(1542706032.402163) can0 0CFDD633#01000100FF00F0C3
(1542706032.410199) can0 0CFDD733#0100FFFFFFFFFFFF
(1542706032.411224) can0 0CFDD634#01000100FF00F0C3
(1542706032.413252) can0 0CFDD734#0100FFFFFFFFFFFF
(1542706032.422192) can0 0CFDD633#01000100FF00F0C3
(1542706032.422546) can0 628#0192DBA6F14F081A
(1542706032.431175) can0 0CFDD733#0100FFFFFFFFFFFF
(1542706032.432142) can0 0CFDD634#01000100FF00F0C3
(1542706032.433163) can0 0CFDD734#0100FFFFFFFFFFFF
(1542706032.443089) can0 0CFDD633#01000100FF00F0C3
(1542706032.451147) can0 0CFDD733#0100FFFFFFFFFFFF
(1542706032.452151) can0 0CFDD634#01000100FF00F0C3
(1542706032.454147) can0 0CFDD734#0100FFFFFFFFFFFF
(1542706032.462404) can0 628#01E4DB0EF143081A
(1542706032.463109) can0 0CFDD633#01000100FF00F0C3
(1542706032.472126) can0 0CFDD733#0100FFFFFFFFFFFF
(1542706032.473121) can0 0CFDD634#01000100FF00F0C3
(1542706032.475123) can0 0CFDD734#0100FFFFFFFFFFFF
(1542706032.484084) can0 0CFDD633#01000100FF00F0C3
(1542706032.492038) can0 0CFDD733#0100FFFFFFFFFFFF
(1542706032.493060) can0 0CFDD634#01000100FF00F0C3
(1542706032.495033) can0 0CFDD734#0100FFFFFFFFFFFF
(1542706032.502411) can0 628#0127DC72F02E081A
(1542706032.504007) can0 0CFDD633#01000100FF00F0C3
(1542706032.512979) can0 0CFDD733#0100FFFFFFFFFFFF
(1542706032.514007) can0 0CFDD634#01000100FF00F0C3
(1542706032.515009) can0 0CFDD734#0100FFFFFFFFFFFF
(1542706032.524954) can0 0CFDD633#01000100FF00F0C3
(1542706032.533019) can0 0CFDD733#0100FFFFFFFFFFFF
(1542706032.533982) can0 0CFDD634#01000100FF00F0C3
(1542706032.534971) can0 0CFDD734#0100FFFFFFFFFFFF
(1542706032.542462) can0 628#0138DC2BF040081A
(1542706032.544930) can0 0CFDD633#01000100FF00F0C3
(1542706032.547935) can0 18FECA33#00FF00000000FFFF
(1542706032.553970) can0 0CFDD733#0100FFFFFFFFFFFF
(1542706032.554929) can0 0CFDD634#01000100FF00F0C3
(1542706032.555921) can0 0CFDD734#0100FFFFFFFFFFFF
(1542706032.565939) can0 0CFDD633#01000100FF00F0C3
(1542706032.573903) can0 0CFDD733#0100FFFFFFFFFFFF
(1542706032.574940) can0 0CFDD634#01000100FF00F0C3
(1542706032.575941) can0 0CFDD734#0100FFFFFFFFFFFF
(1542706032.582405) can0 628#0182DC9BEF49081A
(1542706032.585870) can0 0CFDD633#01000100FF00F0C3
(1542706032.594876) can0 0CFDD733#0100FFFFFFFFFFFF
(1542706032.595870) can0 0CFDD634#01000100FF00F0C3
(1542706032.596871) can0 0CFDD734#0100FFFFFFFFFFFF
(1542706032.606940) can0 0CFDD633#01000100FF00F0C3
(1542706032.614905) can0 0CFDD733#0100FFFFFFFFFFFF
(1542706032.615827) can0 0CFDD634#01000100FF00F0C3
(1542706032.616822) can0 0CFDD734#0100FFFFFFFFFFFF
(1542706032.622402) can0 628#01E7DC03EF3B081A
(1542706032.626853) can0 0CFDD633#01000100FF00F0C3
(1542706032.635771) can0 0CFDD733#0100FFFFFFFFFFFF
(1542706032.636766) can0 0CFDD634#01000100FF00F0C3
(1542706032.637785) can0 0CFDD734#0100FFFFFFFFFFFF
(1542706032.647751) can0 0CFDD633#01000100FF00F0C3
(1542706032.655807) can0 0CFDD733#0100FFFFFFFFFFFF
(1542706032.656754) can0 0CFDD634#01000100FF00F0C3
(1542706032.657765) can0 0CFDD734#0100FFFFFFFFFFFF
(1542706032.662442) can0 628#01FCDCA8EE3E081A
(1542706032.667740) can0 0CFDD633#01000100FF00F0C3
(1542706032.676780) can0 0CFDD733#0100FFFFFFFFFFFF
(1542706032.677698) can0 0CFDD634#01000100FF00F0C3
(1542706032.678693) can0 0CFDD734#0100FFFFFFFFFFFF
(1542706032.688724) can0 0CFDD633#01000100FF00F0C3
(1542706032.696719) can0 0CFDD733#0100FFFFFFFFFFFF
(1542706032.697688) can0 0CFDD634#01000100FF00F0C3
(1542706032.698688) can0 0CFDD734#0100FFFFFFFFFFFF
(1542706032.702546) can0 628#013CDD2DEE57081A
(1542706032.708638) can0 0CFDD633#01000100FF00F0C3
(1542706032.717729) can0 0CFDD733#0100FFFFFFFFFFFF
(1542706032.718668) can0 0CFDD634#01000100FF00F0C3
(1542706032.719651) can0 0CFDD734#0100FFFFFFFFFFFF
(1542706032.722699) can0 18FECA34#00FF00000000FFFF
(1542706032.729624) can0 0CFDD633#01000100FF00F0C3
(1542706032.737675) can0 0CFDD733#0100FFFFFFFFFFFF
(1542706032.738610) can0 0CFDD634#01000100FF00F0C3
(1542706032.739636) can0 0CFDD734#0100FFFFFFFFFFFF
(1542706032.742465) can0 628#019BDDA0ED3B081A
(1542706032.749576) can0 0CFDD633#01000100FF00F0C3
(1542706032.758610) can0 0CFDD733#0100FFFFFFFFFFFF
(1542706032.759584) can0 0CFDD634#01000100FF00F0C3
(1542706032.760585) can0 0CFDD734#0100FFFFFFFFFFFF
(1542706032.770596) can0 0CFDD633#01000100FF00F0C3
(1542706032.778585) can0 0CFDD733#0100FFFFFFFFFFFF
(1542706032.779560) can0 0CFDD634#01000100FF00F0C3
(1542706032.780600) can0 0CFDD734#0100FFFFFFFFFFFF
(1542706032.782454) can0 628#01E1DD10ED32081A
(1542706032.790569) can0 0CFDD633#01000100FF00F0C3
(1542706032.799533) can0 0CFDD733#0100FFFFFFFFFFFF
(1542706032.800547) can0 0CFDD634#01000100FF00F0C3
(1542706032.801533) can0 0CFDD734#0100FFFFFFFFFFFF
(1542706032.811543) can0 0CFDD633#01000100FF00F0C3
(1542706032.819508) can0 0CFDD733#0100FFFFFFFFFFFF
(1542706032.820486) can0 0CFDD634#01000100FF00F0C3
(1542706032.821483) can0 0CFDD734#0100FFFFFFFFFFFF
(1542706032.822444) can0 628#01FDDDC6EC3F081A
(1542706032.831519) can0 0CFDD633#01000100FF00F0C3
(1542706032.840522) can0 0CFDD733#0100FFFFFFFFFFFF
(1542706032.841457) can0 0CFDD634#01000100FF00F0C3
(1542706032.842446) can0 0CFDD734#0100FFFFFFFFFFFF
(1542706032.852470) can0 0CFDD633#01000100FF00F0C3
(1542706032.860412) can0 0CFDD733#0100FFFFFFFFFFFF
(1542706032.861355) can0 0CFDD634#01000100FF00F0C3
(1542706032.862388) can0 0CFDD734#0100FFFFFFFFFFFF
(1542706032.862845) can0 628#014BDE45EC47081A
(1542706032.872358) can0 0CFDD633#01000100FF00F0C3
(1542706032.881443) can0 0CFDD733#0100FFFFFFFFFFFF
(1542706032.882394) can0 0CFDD634#01000100FF00F0C3
(1542706032.883363) can0 0CFDD734#0100FFFFFFFFFFFF
(1542706032.893417) can0 0CFDD633#01000100FF00F0C3
(1542706032.901418) can0 0CFDD733#0100FFFFFFFFFFFF
(1542706032.902349) can0 0CFDD634#01000100FF00F0C3
(1542706032.902818) can0 628#01BFDEA2EB48081A
(1542706032.903378) can0 0CFDD734#0100FFFFFFFFFFFF
(1542706032.913303) can0 0CFDD633#01000100FF00F0C3
(1542706032.922386) can0 0CFDD733#0100FFFFFFFFFFFF
(1542706032.923275) can0 0CFDD634#01000100FF00F0C3
(1542706032.924311) can0 0CFDD734#0100FFFFFFFFFFFF
(1542706032.934335) can0 0CFDD633#01000100FF00F0C3
(1542706032.942334) can0 0CFDD733#0100FFFFFFFFFFFF
(1542706032.942750) can0 628#01EBDE5AEB32081A
(1542706032.943349) can0 0CFDD634#01000100FF00F0C3
(1542706032.944302) can0 0CFDD734#0100FFFFFFFFFFFF
(1542706032.954288) can0 0CFDD633#01000100FF00F0C3
(1542706032.963297) can0 0CFDD733#0100FFFFFFFFFFFF
(1542706032.964193) can0 0CFDD634#01000100FF00F0C3
(1542706032.965271) can0 0CFDD734#0100FFFFFFFFFFFF
(1542706032.975239) can0 0CFDD633#01000100FF00F0C3
(1542706032.982542) can0 628#0131DFE3EA4A081A
(1542706032.983217) can0 0CFDD733#0100FFFFFFFFFFFF
(1542706032.985188) can0 0CFDD634#01000100FF00F0C3
(1542706032.986257) can0 0CFDD734#0100FFFFFFFFFFFF
(1542706032.995260) can0 0CFDD633#01000100FF00F0C3
(1542706033.004204) can0 0CFDD733#0100FFFFFFFFFFFF
(1542706033.005205) can0 0CFDD634#01000100FF00F0C3
(1542706033.006205) can0 0CFDD734#0100FFFFFFFFFFFF
(1542706033.016209) can0 0CFDD633#01000100FF00F0C3
(1542706033.022545) can0 628#01A5DF57EA4E081A
(1542706033.025206) can0 0CFDD733#0100FFFFFFFFFFFF
(1542706033.026115) can0 0CFDD634#01000100FF00F0C3
(1542706033.027133) can0 0CFDD734#0100FFFFFFFFFFFF
(1542706033.036184) can0 0CFDD633#01000100FF00F0C3
(1542706033.045138) can0 0CFDD733#0100FFFFFFFFFFFF
(1542706033.047091) can0 0CFDD634#01000100FF00F0C3
(1542706033.048065) can0 0CFDD734#0100FFFFFFFFFFFF
(1542706033.057158) can0 0CFDD633#01000100FF00F0C3
(1542706033.062552) can0 628#01ECDFE4E931081A
(1542706033.065155) can0 0CFDD733#0100FFFFFFFFFFFF
(1542706033.067076) can0 0CFDD634#01000100FF00F0C3
(1542706033.068019) can0 0CFDD734#0100FFFFFFFFFFFF
(1542706033.077092) can0 0CFDD633#01000100FF00F0C3
(1542706033.086129) can0 0CFDD733#0100FFFFFFFFFFFF
(1542706033.087050) can0 0CFDD634#01000100FF00F0C3
(1542706033.087962) can0 0CFDD734#0100FFFFFFFFFFFF
(1542706033.098017) can0 0CFDD633#01000100FF00F0C3
(1542706033.102577) can0 628#011DE091E931081A
(1542706033.106076) can0 0CFDD733#0100FFFFFFFFFFFF
(1542706033.107024) can0 0CFDD634#01000100FF00F0C3
(1542706033.109024) can0 0CFDD734#0100FFFFFFFFFFFF
(1542706033.117990) can0 0CFDD633#01000100FF00F0C3
(1542706033.127024) can0 0CFDD733#0100FFFFFFFFFFFF
(1542706033.127911) can0 0CFDD634#01000100FF00F0C3
(1542706033.128962) can0 0CFDD734#0100FFFFFFFFFFFF
(1542706033.138961) can0 0CFDD633#01000100FF00F0C3
(1542706033.142641) can0 628#0188E0FFE836081A
(1542706033.146990) can0 0CFDD733#0100FFFFFFFFFFFF
(1542706033.147885) can0 0CFDD634#01000100FF00F0C3
(1542706033.148892) can0 0CFDD734#0100FFFFFFFFFFFF
(1542706033.158884) can0 0CFDD633#01000100FF00F0C3
(1542706033.167911) can0 0CFDD733#0100FFFFFFFFFFFF
(1542706033.168946) can0 0CFDD634#01000100FF00F0C3
(1542706033.169947) can0 0CFDD734#0100FFFFFFFFFFFF
(1542706033.179864) can0 0CFDD633#01000100FF00F0C3
(1542706033.182602) can0 628#01E4E08BE835081A
(1542706033.187864) can0 0CFDD733#0100FFFFFFFFFFFF
(1542706033.188947) can0 0CFDD634#01000100FF00F0C3
(1542706033.189947) can0 0CFDD734#0100FFFFFFFFFFFF
(1542706033.199863) can0 0CFDD633#01000100FF00F0C3
(1542706033.208899) can0 0CFDD733#0100FFFFFFFFFFFF
(1542706033.209808) can0 0CFDD634#01000100FF00F0C3
(1542706033.210829) can0 0CFDD734#0100FFFFFFFFFFFF
(1542706033.220823) can0 0CFDD633#01000100FF00F0C3
(1542706033.222563) can0 628#011FE133E829081A
(1542706033.228911) can0 0CFDD733#0100FFFFFFFFFFFF
(1542706033.229774) can0 0CFDD634#01000100FF00F0C3
(1542706033.230779) can0 0CFDD734#0100FFFFFFFFFFFF
(1542706033.240840) can0 0CFDD633#01000100FF00F0C3
(1542706033.249826) can0 0CFDD733#0100FFFFFFFFFFFF
(1542706033.250757) can0 0CFDD634#01000100FF00F0C3
(1542706033.251789) can0 0CFDD734#0100FFFFFFFFFFFF
(1542706033.261813) can0 0CFDD633#01000100FF00F0C3
(1542706033.262589) can0 628#0180E1C7E73A081A
(1542706033.269809) can0 0CFDD733#0100FFFFFFFFFFFF
(1542706033.270757) can0 0CFDD634#01000100FF00F0C3
(1542706033.272725) can0 0CFDD734#0100FFFFFFFFFFFF
(1542706033.281789) can0 0CFDD633#01000100FF00F0C3
(1542706033.290789) can0 0CFDD733#0100FFFFFFFFFFFF
(1542706033.291730) can0 0CFDD634#01000100FF00F0C3
(1542706033.292710) can0 0CFDD734#0100FFFFFFFFFFFF
(1542706033.302761) can0 0CFDD633#01000100FF00F0C3
(1542706033.303149) can0 628#01F9E143E72F081A
(1542706033.310757) can0 0CFDD733#0100FFFFFFFFFFFF
(1542706033.311684) can0 0CFDD634#01000100FF00F0C3
(1542706033.312681) can0 0CFDD734#0100FFFFFFFFFFFF
(1542706033.322615) can0 0CFDD633#01000100FF00F0C3
(1542706033.331754) can0 0CFDD733#0100FFFFFFFFFFFF
(1542706033.332595) can0 0CFDD634#01000100FF00F0C3
(1542706033.333617) can0 0CFDD734#0100FFFFFFFFFFFF
(1542706033.342627) can0 628#013BE2F1E626081A
(1542706033.343643) can0 0CFDD633#01000100FF00F0C3
(1542706033.351645) can0 0CFDD733#0100FFFFFFFFFFFF
(1542706033.352591) can0 0CFDD634#01000100FF00F0C3
(1542706033.353565) can0 0CFDD734#0100FFFFFFFFFFFF
(1542706033.364565) can0 0CFDD633#01000100FF00F0C3
(1542706033.372613) can0 0CFDD733#0100FFFFFFFFFFFF
(1542706033.373528) can0 0CFDD634#01000100FF00F0C3
(1542706033.374576) can0 0CFDD734#0100FFFFFFFFFFFF
(1542706033.382633) can0 628#0195E28CE62F081A
(1542706033.384551) can0 0CFDD633#01000100FF00F0C3
(1542706033.392629) can0 0CFDD733#0100FFFFFFFFFFFF
(1542706033.393524) can0 0CFDD634#01000100FF00F0C3
(1542706033.394513) can0 0CFDD734#0100FFFFFFFFFFFF
(1542706033.404533) can0 0CFDD633#01000100FF00F0C3
(1542706033.413580) can0 0CFDD733#0100FFFFFFFFFFFF
(1542706033.414441) can0 0CFDD634#01000100FF00F0C3
(1542706033.415498) can0 0CFDD734#0100FFFFFFFFFFFF
(1542706033.422655) can0 628#0114E307E623081A
(1542706033.425551) can0 0CFDD633#01000100FF00F0C3
(1542706033.433555) can0 0CFDD733#0100FFFFFFFFFFFF
(1542706033.434474) can0 0CFDD634#01000100FF00F0C3
(1542706033.435473) can0 0CFDD734#0100FFFFFFFFFFFF
(1542706033.445463) can0 0CFDD633#01000100FF00F0C3
(1542706033.454529) can0 0CFDD733#0100FFFFFFFFFFFF
(1542706033.455418) can0 0CFDD634#01000100FF00F0C3
(1542706033.456449) can0 0CFDD734#0100FFFFFFFFFFFF
(1542706033.462698) can0 628#0143E3B3E53C081A
(1542706033.466414) can0 0CFDD633#01000100FF00F0C3
(1542706033.474444) can0 0CFDD733#0100FFFFFFFFFFFF
(1542706033.475373) can0 0CFDD634#01000100FF00F0C3
(1542706033.476386) can0 0CFDD734#0100FFFFFFFFFFFF
(1542706033.486473) can0 0CFDD633#01000100FF00F0C3
(1542706033.495452) can0 0CFDD733#0100FFFFFFFFFFFF
(1542706033.496321) can0 0CFDD634#01000100FF00F0C3
(1542706033.497331) can0 0CFDD734#0100FFFFFFFFFFFF
(1542706033.502686) can0 628#01A4E34EE548081A
(1542706033.507357) can0 0CFDD633#01000100FF00F0C3
(1542706033.515419) can0 0CFDD733#0100FFFFFFFFFFFF
(1542706033.516345) can0 0CFDD634#01000100FF00F0C3
(1542706033.517315) can0 0CFDD734#0100FFFFFFFFFFFF
(1542706033.527332) can0 0CFDD633#01000100FF00F0C3
(1542706033.536393) can0 0CFDD733#0100FFFFFFFFFFFF
(1542706033.537289) can0 0CFDD634#01000100FF00F0C3
(1542706033.538204) can0 0CFDD734#0100FFFFFFFFFFFF
(1542706033.542645) can0 628#0129E4D1E443081A
(1542706033.546356) can0 18FECA33#00FF00000000FFFF
(1542706033.548297) can0 0CFDD633#01000100FF00F0C3
(1542706033.556371) can0 0CFDD733#0100FFFFFFFFFFFF
(1542706033.557262) can0 0CFDD634#01000100FF00F0C3
(1542706033.558186) can0 0CFDD734#0100FFFFFFFFFFFF
(1542706033.568283) can0 0CFDD633#01000100FF00F0C3
(1542706033.577320) can0 0CFDD733#0100FFFFFFFFFFFF
(1542706033.578123) can0 0CFDD634#01000100FF00F0C3
(1542706033.579188) can0 0CFDD734#0100FFFFFFFFFFFF
(1542706033.582676) can0 628#0184E47CE447081A
(1542706033.589258) can0 0CFDD633#01000100FF00F0C3
(1542706033.598221) can0 0CFDD733#0100FFFFFFFFFFFF
(1542706033.599148) can0 0CFDD634#01000100FF00F0C3
(1542706033.600153) can0 0CFDD734#0100FFFFFFFFFFFF
(1542706033.609237) can0 0CFDD633#01000100FF00F0C3
(1542706033.618205) can0 0CFDD733#0100FFFFFFFFFFFF
(1542706033.619160) can0 0CFDD634#01000100FF00F0C3
(1542706033.620128) can0 0CFDD734#0100FFFFFFFFFFFF
(1542706033.622662) can0 628#01E4E428E455081A
(1542706033.630175) can0 0CFDD633#01000100FF00F0C3
(1542706033.638178) can0 0CFDD733#0100FFFFFFFFFFFF
(1542706033.639097) can0 0CFDD634#01000100FF00F0C3
(1542706033.640077) can0 0CFDD734#0100FFFFFFFFFFFF
(1542706033.650150) can0 0CFDD633#01000100FF00F0C3
(1542706033.659150) can0 0CFDD733#0100FFFFFFFFFFFF
(1542706033.660051) can0 0CFDD634#01000100FF00F0C3
(1542706033.661058) can0 0CFDD734#0100FFFFFFFFFFFF
(1542706033.662673) can0 628#015FE5B1E361081A
(1542706033.671098) can0 0CFDD633#01000100FF00F0C3
(1542706033.679124) can0 0CFDD733#0100FFFFFFFFFFFF
(1542706033.680013) can0 0CFDD634#01000100FF00F0C3
(1542706033.681981) can0 0CFDD734#0100FFFFFFFFFFFF
(1542706033.691058) can0 0CFDD633#01000100FF00F0C3
(1542706033.700050) can0 0CFDD733#0100FFFFFFFFFFFF
(1542706033.701022) can0 0CFDD634#01000100FF00F0C3
(1542706033.701986) can0 0CFDD734#0100FFFFFFFFFFFF
(1542706033.702652) can0 628#01C3E55EE319081A
(1542706033.712087) can0 0CFDD633#01000100FF00F0C3
(1542706033.720058) can0 0CFDD733#0100FFFFFFFFFFFF
(1542706033.720968) can0 0CFDD634#01000100FF00F0C3
(1542706033.721504) can0 18FECA34#00FF00000000FFFF
(1542706033.722093) can0 0CFDD734#0100FFFFFFFFFFFF
(1542706033.731972) can0 0CFDD633#01000100FF00F0C3
(1542706033.741057) can0 0CFDD733#0100FFFFFFFFFFFF
(1542706033.741916) can0 0CFDD634#01000100FF00F0C3
(1542706033.742726) can0 628#0111E60DE337081A
(1542706033.743310) can0 0CFDD734#0100FFFFFFFFFFFF
(1542706033.753007) can0 0CFDD633#01000100FF00F0C3
(1542706033.761049) can0 0CFDD733#0100FFFFFFFFFFFF
(1542706033.761953) can0 0CFDD634#01000100FF00F0C3
(1542706033.762918) can0 0CFDD734#0100FFFFFFFFFFFF
(1542706033.772947) can0 0CFDD633#01000100FF00F0C3
(1542706033.781981) can0 0CFDD733#0100FFFFFFFFFFFF
(1542706033.782709) can0 628#0195E691E22C081A
(1542706033.783280) can0 0CFDD634#01000100FF00F0C3
(1542706033.783890) can0 0CFDD734#0100FFFFFFFFFFFF
(1542706033.793958) can0 0CFDD633#01000100FF00F0C3
(1542706033.801958) can0 0CFDD733#0100FFFFFFFFFFFF
(1542706033.802815) can0 0CFDD634#01000100FF00F0C3
(1542706033.804804) can0 0CFDD734#0100FFFFFFFFFFFF
(1542706033.813958) can0 0CFDD633#01000100FF00F0C3
(1542706033.822790) can0 628#01F7E640E222081A
(1542706033.823345) can0 0CFDD733#0100FFFFFFFFFFFF
(1542706033.823902) can0 0CFDD634#01000100FF00F0C3
(1542706033.824826) can0 0CFDD734#0100FFFFFFFFFFFF
(1542706033.834954) can0 0CFDD633#01000100FF00F0C3
(1542706033.842958) can0 0CFDD733#0100FFFFFFFFFFFF
(1542706033.843680) can0 0CFDD634#01000100FF00F0C3
(1542706033.845764) can0 0CFDD734#0100FFFFFFFFFFFF
(1542706033.854871) can0 0CFDD633#01000100FF00F0C3
(1542706033.862763) can0 628#0158E7E9E13C081A
(1542706033.863790) can0 0CFDD733#0100FFFFFFFFFFFF
(1542706033.864707) can0 0CFDD634#01000100FF00F0C3
(1542706033.865687) can0 0CFDD734#0100FFFFFFFFFFFF
(1542706033.875805) can0 0CFDD633#01000100FF00F0C3
(1542706033.884818) can0 0CFDD733#0100FFFFFFFFFFFF
(1542706033.885649) can0 0CFDD634#01000100FF00F0C3
(1542706033.886663) can0 0CFDD734#0100FFFFFFFFFFFF
(1542706033.895784) can0 0CFDD633#01000100FF00F0C3
(1542706033.902872) can0 628#01E2E793E12C081A
(1542706033.904730) can0 0CFDD733#0100FFFFFFFFFFFF
(1542706033.905593) can0 0CFDD634#01000100FF00F0C3
(1542706033.906660) can0 0CFDD734#0100FFFFFFFFFFFF
(1542706033.916765) can0 0CFDD633#01000100FF00F0C3
(1542706033.924699) can0 0CFDD733#0100FFFFFFFFFFFF
(1542706033.925563) can0 0CFDD634#01000100FF00F0C3
(1542706033.926587) can0 0CFDD734#0100FFFFFFFFFFFF
(1542706033.936738) can0 0CFDD633#01000100FF00F0C3
(1542706033.942790) can0 628#0151E831E149081A
(1542706033.945739) can0 0CFDD733#0100FFFFFFFFFFFF
(1542706033.946550) can0 0CFDD634#01000100FF00F0C3
(1542706033.947513) can0 0CFDD734#0100FFFFFFFFFFFF
(1542706033.957692) can0 0CFDD633#01000100FF00F0C3
(1542706033.965713) can0 0CFDD733#0100FFFFFFFFFFFF
(1542706033.967441) can0 0CFDD634#01000100FF00F0C3
(1542706033.968546) can0 0CFDD734#0100FFFFFFFFFFFF
(1542706033.977624) can0 0CFDD633#01000100FF00F0C3
(1542706033.982817) can0 628#01AAE8F8E040081A
(1542706033.986601) can0 0CFDD733#0100FFFFFFFFFFFF
(1542706033.987440) can0 0CFDD634#01000100FF00F0C3
(1542706033.988486) can0 0CFDD734#0100FFFFFFFFFFFF
(1542706033.998662) can0 0CFDD633#01000100FF00F0C3
(1542706034.006598) can0 0CFDD733#0100FFFFFFFFFFFF
(1542706034.007386) can0 0CFDD634#01000100FF00F0C3
(1542706034.008459) can0 0CFDD734#0100FFFFFFFFFFFF
(1542706034.018606) can0 0CFDD633#01000100FF00F0C3
(1542706034.022764) can0 628#0121E9A0E034081A
(1542706034.027493) can0 0CFDD733#0100FFFFFFFFFFFF
(1542706034.028382) can0 0CFDD634#01000100FF00F0C3
(1542706034.029385) can0 0CFDD734#0100FFFFFFFFFFFF
(1542706034.039557) can0 0CFDD633#01000100FF00F0C3
(1542706034.047465) can0 0CFDD733#0100FFFFFFFFFFFF
(1542706034.048331) can0 0CFDD634#01000100FF00F0C3
(1542706034.049345) can0 0CFDD734#0100FFFFFFFFFFFF
(1542706034.059466) can0 0CFDD633#01000100FF00F0C3
(1542706034.062957) can0 628#01B7E93AE024081A
(1542706034.068458) can0 0CFDD733#0100FFFFFFFFFFFF
(1542706034.069311) can0 0CFDD634#01000100FF00F0C3
(1542706034.070329) can0 0CFDD734#0100FFFFFFFFFFFF
(1542706034.080481) can0 0CFDD633#01000100FF00F0C3
(1542706034.088506) can0 0CFDD733#0100FFFFFFFFFFFF
(1542706034.089347) can0 0CFDD634#01000100FF00F0C3
(1542706034.090336) can0 0CFDD734#0100FFFFFFFFFFFF
(1542706034.100392) can0 0CFDD633#01000100FF00F0C3
(1542706034.102781) can0 628#0112EAF1DF23081A
(1542706034.109482) can0 0CFDD733#0100FFFFFFFFFFFF
(1542706034.110321) can0 0CFDD634#01000100FF00F0C3
(1542706034.111285) can0 0CFDD734#0100FFFFFFFFFFFF
(1542706034.121426) can0 0CFDD633#01000100FF00F0C3
(1542706034.129389) can0 0CFDD733#0100FFFFFFFFFFFF
(1542706034.130260) can0 0CFDD634#01000100FF00F0C3
(1542706034.131232) can0 0CFDD734#0100FFFFFFFFFFFF
(1542706034.141375) can0 0CFDD633#01000100FF00F0C3
(1542706034.142807) can0 628#0174EAABDF26081A
(1542706034.150363) can0 0CFDD733#0100FFFFFFFFFFFF
(1542706034.151197) can0 0CFDD634#01000100FF00F0C3
(1542706034.152170) can0 0CFDD734#0100FFFFFFFFFFFF
(1542706034.162300) can0 0CFDD633#01000100FF00F0C3
(1542706034.170330) can0 0CFDD733#0100FFFFFFFFFFFF
(1542706034.171218) can0 0CFDD634#01000100FF00F0C3
(1542706034.172223) can0 0CFDD734#0100FFFFFFFFFFFF
(1542706034.182326) can0 0CFDD633#01000100FF00F0C3
(1542706034.182907) can0 628#01F4EA5BDF7F081A
(1542706034.191291) can0 0CFDD733#0100FFFFFFFFFFFF
(1542706034.192135) can0 0CFDD634#01000100FF00F0C3
(1542706034.193166) can0 0CFDD734#0100FFFFFFFFFFFF
(1542706034.203300) can0 0CFDD633#01000100FF00F0C3
(1542706034.211298) can0 0CFDD733#0100FFFFFFFFFFFF
(1542706034.212075) can0 0CFDD634#01000100FF00F0C3
(1542706034.213105) can0 0CFDD734#0100FFFFFFFFFFFF
(1542706034.222872) can0 628#0196EBEADE81081A
(1542706034.223397) can0 0CFDD633#01000100FF00F0C3
(1542706034.232275) can0 0CFDD733#0100FFFFFFFFFFFF
(1542706034.233069) can0 0CFDD634#01000100FF00F0C3
(1542706034.234115) can0 0CFDD734#0100FFFFFFFFFFFF
(1542706034.244220) can0 0CFDD633#01000100FF00F0C3
(1542706034.252224) can0 0CFDD733#0100FFFFFFFFFFFF
(1542706034.253089) can0 0CFDD634#01000100FF00F0C3
(1542706034.254063) can0 0CFDD734#0100FFFFFFFFFFFF
(1542706034.262894) can0 628#01F1EBBFDE24081A
(1542706034.264159) can0 0CFDD633#01000100FF00F0C3
(1542706034.273221) can0 0CFDD733#0100FFFFFFFFFFFF
(1542706034.273999) can0 0CFDD634#01000100FF00F0C3
(1542706034.274954) can0 0CFDD734#0100FFFFFFFFFFFF
(1542706034.285124) can0 0CFDD633#01000100FF00F0C3
(1542706034.294173) can0 0CFDD733#0100FFFFFFFFFFFF
(1542706034.295012) can0 0CFDD634#01000100FF00F0C3
(1542706034.296012) can0 0CFDD734#0100FFFFFFFFFFFF
(1542706034.302879) can0 628#0176EC77DE1D081A
(1542706034.305105) can0 0CFDD633#01000100FF00F0C3
(1542706034.314147) can0 0CFDD733#0100FFFFFFFFFFFF
(1542706034.314950) can0 0CFDD634#01000100FF00F0C3
(1542706034.315908) can0 0CFDD734#0100FFFFFFFFFFFF
(1542706034.326052) can0 0CFDD633#01000100FF00F0C3
(1542706034.334090) can0 0CFDD733#0100FFFFFFFFFFFF
(1542706034.334960) can0 0CFDD634#01000100FF00F0C3
(1542706034.335924) can0 0CFDD734#0100FFFFFFFFFFFF
(1542706034.342879) can0 628#01FCEC26DE1E081A
(1542706034.346063) can0 0CFDD633#01000100FF00F0C3
(1542706034.355066) can0 0CFDD733#0100FFFFFFFFFFFF
(1542706034.355960) can0 0CFDD634#01000100FF00F0C3
(1542706034.356923) can0 0CFDD734#0100FFFFFFFFFFFF
(1542706034.366002) can0 0CFDD633#01000100FF00F0C3
(1542706034.375041) can0 0CFDD733#0100FFFFFFFFFFFF
(1542706034.375824) can0 0CFDD634#01000100FF00F0C3
(1542706034.377838) can0 0CFDD734#0100FFFFFFFFFFFF
(1542706034.382964) can0 628#0157EDF9DD2C081A
(1542706034.386977) can0 0CFDD633#01000100FF00F0C3
(1542706034.395986) can0 0CFDD733#0100FFFFFFFFFFFF
(1542706034.396795) can0 0CFDD634#01000100FF00F0C3
(1542706034.397776) can0 0CFDD734#0100FFFFFFFFFFFF
(1542706034.407918) can0 0CFDD633#01000100FF00F0C3
(1542706034.415941) can0 0CFDD733#0100FFFFFFFFFFFF
(1542706034.416714) can0 0CFDD634#01000100FF00F0C3
(1542706034.417700) can0 0CFDD734#0100FFFFFFFFFFFF
(1542706034.422868) can0 628#01E4EDA7DD2B081A
(1542706034.427866) can0 0CFDD633#01000100FF00F0C3
(1542706034.436876) can0 0CFDD733#0100FFFFFFFFFFFF
(1542706034.437730) can0 0CFDD634#01000100FF00F0C3
(1542706034.438721) can0 0CFDD734#0100FFFFFFFFFFFF
(1542706034.448910) can0 0CFDD633#01000100FF00F0C3
(1542706034.456924) can0 0CFDD733#0100FFFFFFFFFFFF
(1542706034.457715) can0 0CFDD634#01000100FF00F0C3
(1542706034.458674) can0 0CFDD734#0100FFFFFFFFFFFF
(1542706034.462961) can0 628#0174EE5ADD17081A
(1542706034.468784) can0 0CFDD633#01000100FF00F0C3
(1542706034.477829) can0 0CFDD733#0100FFFFFFFFFFFF
(1542706034.478650) can0 0CFDD634#01000100FF00F0C3
(1542706034.479624) can0 0CFDD734#0100FFFFFFFFFFFF
(1542706034.489826) can0 0CFDD633#01000100FF00F0C3
(1542706034.497827) can0 0CFDD733#0100FFFFFFFFFFFF
(1542706034.498630) can0 0CFDD634#01000100FF00F0C3
(1542706034.499620) can0 0CFDD734#0100FFFFFFFFFFFF
(1542706034.503008) can0 628#01D9EE1DDD23081A
(1542706034.509760) can0 0CFDD633#01000100FF00F0C3
(1542706034.518797) can0 0CFDD733#0100FFFFFFFFFFFF
(1542706034.519629) can0 0CFDD634#01000100FF00F0C3
(1542706034.520580) can0 0CFDD734#0100FFFFFFFFFFFF
(1542706034.530715) can0 0CFDD633#01000100FF00F0C3
(1542706034.538734) can0 0CFDD733#0100FFFFFFFFFFFF
(1542706034.539554) can0 0CFDD634#01000100FF00F0C3
(1542706034.540589) can0 0CFDD734#0100FFFFFFFFFFFF
(1542706034.542962) can0 628#013AEFF6DC26081A
(1542706034.544771) can0 18FECA33#00FF00000000FFFF
(1542706034.550701) can0 0CFDD633#01000100FF00F0C3
(1542706034.559747) can0 0CFDD733#0100FFFFFFFFFFFF
(1542706034.560569) can0 0CFDD634#01000100FF00F0C3
(1542706034.561563) can0 0CFDD734#0100FFFFFFFFFFFF
(1542706034.571693) can0 0CFDD633#01000100FF00F0C3
(1542706034.579682) can0 0CFDD733#0100FFFFFFFFFFFF
(1542706034.580537) can0 0CFDD634#01000100FF00F0C3
(1542706034.581476) can0 0CFDD734#0100FFFFFFFFFFFF
(1542706034.582924) can0 628#01ECEFA3DC26081A
(1542706034.591667) can0 0CFDD633#01000100FF00F0C3
(1542706034.600672) can0 0CFDD733#0100FFFFFFFFFFFF
(1542706034.601476) can0 0CFDD634#01000100FF00F0C3
(1542706034.602439) can0 0CFDD734#0100FFFFFFFFFFFF
(1542706034.612585) can0 0CFDD633#01000100FF00F0C3
(1542706034.620605) can0 0CFDD733#0100FFFFFFFFFFFF
(1542706034.621413) can0 0CFDD634#01000100FF00F0C3
(1542706034.622411) can0 0CFDD734#0100FFFFFFFFFFFF
(1542706034.622892) can0 628#0179F068DC29081A
(1542706034.632507) can0 0CFDD633#01000100FF00F0C3
(1542706034.641621) can0 0CFDD733#0100FFFFFFFFFFFF
(1542706034.642394) can0 0CFDD634#01000100FF00F0C3
(1542706034.643369) can0 0CFDD734#0100FFFFFFFFFFFF
(1542706034.653528) can0 0CFDD633#01000100FF00F0C3
(1542706034.661569) can0 0CFDD733#0100FFFFFFFFFFFF
(1542706034.662369) can0 0CFDD634#01000100FF00F0C3
(1542706034.663047) can0 628#01BDF057DC1B091A
(1542706034.663613) can0 0CFDD734#0100FFFFFFFFFFFF
(1542706034.673502) can0 0CFDD633#01000100FF00F0C3
(1542706034.682540) can0 0CFDD733#0100FFFFFFFFFFFF
(1542706034.683308) can0 0CFDD634#01000100FF00F0C3
(1542706034.684279) can0 0CFDD734#0100FFFFFFFFFFFF
(1542706034.694513) can0 0CFDD633#01000100FF00F0C3
(1542706034.702512) can0 0CFDD733#0100FFFFFFFFFFFF
(1542706034.702933) can0 628#0183F1E7DB30081A
(1542706034.703485) can0 0CFDD634#01000100FF00F0C3
(1542706034.704280) can0 0CFDD734#0100FFFFFFFFFFFF
(1542706034.714451) can0 0CFDD633#01000100FF00F0C3
(1542706034.719301) can0 18FECA34#00FF00000000FFFF
(1542706034.723374) can0 0CFDD733#0100FFFFFFFFFFFF
(1542706034.724227) can0 0CFDD634#01000100FF00F0C3
(1542706034.725288) can0 0CFDD734#0100FFFFFFFFFFFF
(1542706034.735395) can0 0CFDD633#01000100FF00F0C3
(1542706034.743016) can0 628#0100F2C8DB27081A
(1542706034.743527) can0 0CFDD733#0100FFFFFFFFFFFF
(1542706034.744228) can0 0CFDD634#01000100FF00F0C3
(1542706034.745225) can0 0CFDD734#0100FFFFFFFFFFFF
(1542706034.755406) can0 0CFDD633#01000100FF00F0C3
(1542706034.764393) can0 0CFDD733#0100FFFFFFFFFFFF
(1542706034.765224) can0 0CFDD634#01000100FF00F0C3
(1542706034.766163) can0 0CFDD734#0100FFFFFFFFFFFF
(1542706034.776355) can0 0CFDD633#01000100FF00F0C3
(1542706034.782925) can0 628#0191F28BDB13081A
(1542706034.784317) can0 0CFDD733#0100FFFFFFFFFFFF
(1542706034.785144) can0 0CFDD634#01000100FF00F0C3
(1542706034.786118) can0 0CFDD734#0100FFFFFFFFFFFF
(1542706034.796322) can0 0CFDD633#01000100FF00F0C3
(1542706034.805273) can0 0CFDD733#0100FFFFFFFFFFFF
(1542706034.806104) can0 0CFDD634#01000100FF00F0C3
(1542706034.807049) can0 0CFDD734#0100FFFFFFFFFFFF
(1542706034.817266) can0 0CFDD633#01000100FF00F0C3
(1542706034.823043) can0 628#01EEF262DB1B081A
(1542706034.825303) can0 0CFDD733#0100FFFFFFFFFFFF
(1542706034.826084) can0 0CFDD634#01000100FF00F0C3
(1542706034.827034) can0 0CFDD734#0100FFFFFFFFFFFF
(1542706034.837245) can0 0CFDD633#01000100FF00F0C3
(1542706034.846278) can0 0CFDD733#0100FFFFFFFFFFFF
(1542706034.847005) can0 0CFDD634#01000100FF00F0C3
(1542706034.848037) can0 0CFDD734#0100FFFFFFFFFFFF
(1542706034.858194) can0 0CFDD633#01000100FF00F0C3
(1542706034.863047) can0 628#017DF32FDB1A081A
(1542706034.867165) can0 0CFDD733#0100FFFFFFFFFFFF
(1542706034.868048) can0 0CFDD634#01000100FF00F0C3
(1542706034.869045) can0 0CFDD734#0100FFFFFFFFFFFF
(1542706034.878138) can0 0CFDD633#01000100FF00F0C3
(1542706034.887140) can0 0CFDD733#0100FFFFFFFFFFFF
(1542706034.888022) can0 0CFDD634#01000100FF00F0C3
(1542706034.889020) can0 0CFDD734#0100FFFFFFFFFFFF
(1542706034.899174) can0 0CFDD633#01000100FF00F0C3
(1542706034.903075) can0 628#0101F400DB1A081A
(1542706034.907086) can0 0CFDD733#0100FFFFFFFFFFFF
(1542706034.907932) can0 0CFDD634#01000100FF00F0C3
(1542706034.908930) can0 0CFDD734#0100FFFFFFFFFFFF
(1542706034.919148) can0 0CFDD633#01000100FF00F0C3
