(1542708716.706663) can0 628#01DF00E8D830001B
(1542708716.707097) can0 0CFDD734#0100FFFFFFFFFFFF
(1542708716.714615) can0 0CFDD733#0100FFFFFFFFFFFF
(1542708716.723958) can0 0CFDD634#01000100FF00F0C3
(1542708716.725559) can0 0CFDD633#01000100FF00F0C3
(1542708716.727022) can0 0CFDD734#0100FFFFFFFFFFFF
(1542708716.734594) can0 0CFDD733#0100FFFFFFFFFFFF
(1542708716.744976) can0 0CFDD634#01000100FF00F0C3
(1542708716.745537) can0 0CFDD633#01000100FF00F0C3
(1542708716.746558) can0 628#01DD00E7D83A001B
(1542708716.748004) can0 0CFDD734#0100FFFFFFFFFFFF
(1542708716.755581) can0 0CFDD733#0100FFFFFFFFFFFF
(1542708716.765916) can0 0CFDD634#01000100FF00F0C3
(1542708716.766488) can0 0CFDD633#01000100FF00F0C3
(1542708716.767929) can0 0CFDD734#0100FFFFFFFFFFFF
(1542708716.775460) can0 0CFDD733#0100FFFFFFFFFFFF
(1542708716.785901) can0 0CFDD634#01000100FF00F0C3
(1542708716.786510) can0 0CFDD633#01000100FF00F0C3
(1542708716.786955) can0 628#01DF00E8D83A001B
(1542708716.787911) can0 0CFDD734#0100FFFFFFFFFFFF
(1542708716.796521) can0 0CFDD733#0100FFFFFFFFFFFF
(1542708716.805918) can0 0CFDD634#01000100FF00F0C3
(1542708716.806449) can0 0CFDD633#01000100FF00F0C3
(1542708716.808885) can0 0CFDD734#0100FFFFFFFFFFFF
(1542708716.816410) can0 0CFDD733#0100FFFFFFFFFFFF
(1542708716.826632) can0 628#01DD00E7D83D001B
(1542708716.827211) can0 0CFDD634#01000100FF00F0C3
(1542708716.827723) can0 0CFDD633#01000100FF00F0C3
(1542708716.828818) can0 0CFDD734#0100FFFFFFFFFFFF
(1542708716.837486) can0 0CFDD733#0100FFFFFFFFFFFF
(1542708716.846833) can0 0CFDD634#01000100FF00F0C3
(1542708716.848457) can0 0CFDD633#01000100FF00F0C3
(1542708716.849820) can0 0CFDD734#0100FFFFFFFFFFFF
(1542708716.857369) can0 0CFDD733#0100FFFFFFFFFFFF
(1542708716.866597) can0 628#01DE00E9D831001B
(1542708716.867785) can0 0CFDD634#01000100FF00F0C3
(1542708716.869378) can0 0CFDD633#01000100FF00F0C3
(1542708716.870777) can0 0CFDD734#0100FFFFFFFFFFFF
(1542708716.878389) can0 0CFDD733#0100FFFFFFFFFFFF
(1542708716.888765) can0 0CFDD634#01000100FF00F0C3
(1542708716.889346) can0 0CFDD633#01000100FF00F0C3
(1542708716.890754) can0 0CFDD734#0100FFFFFFFFFFFF
(1542708716.898366) can0 0CFDD733#0100FFFFFFFFFFFF
(1542708716.906636) can0 628#01DE00E6D823001B
(1542708716.908738) can0 0CFDD634#01000100FF00F0C3
(1542708716.909324) can0 0CFDD633#01000100FF00F0C3
(1542708716.911764) can0 0CFDD734#0100FFFFFFFFFFFF
(1542708716.919279) can0 0CFDD733#0100FFFFFFFFFFFF
(1542708716.928649) can0 0CFDD634#01000100FF00F0C3
(1542708716.929271) can0 0CFDD633#01000100FF00F0C3
(1542708716.931677) can0 0CFDD734#0100FFFFFFFFFFFF
(1542708716.940247) can0 0CFDD733#0100FFFFFFFFFFFF
(1542708716.946599) can0 628#01DD00E9D83A001B
(1542708716.949652) can0 0CFDD634#01000100FF00F0C3
(1542708716.950179) can0 0CFDD633#01000100FF00F0C3
(1542708716.951650) can0 0CFDD734#0100FFFFFFFFFFFF
(1542708716.960211) can0 0CFDD733#0100FFFFFFFFFFFF
(1542708716.970175) can0 0CFDD633#01000100FF00F0C3
(1542708716.970740) can0 0CFDD634#01000100FF00F0C3
(1542708716.971623) can0 0CFDD734#0100FFFFFFFFFFFF
(1542708716.980169) can0 0CFDD733#0100FFFFFFFFFFFF
(1542708716.986763) can0 628#01E100E8D828001B
(1542708716.990539) can0 0CFDD634#01000100FF00F0C3
(1542708716.991147) can0 0CFDD633#01000100FF00F0C3
(1542708716.992560) can0 0CFDD734#0100FFFFFFFFFFFF
(1542708717.001148) can0 0CFDD733#0100FFFFFFFFFFFF
(1542708717.010508) can0 0CFDD634#01000100FF00F0C3
(1542708717.011119) can0 0CFDD633#01000100FF00F0C3
(1542708717.012588) can0 0CFDD734#0100FFFFFFFFFFFF
(1542708717.021157) can0 0CFDD733#0100FFFFFFFFFFFF
(1542708717.026687) can0 628#01DF00E5D834001B
(1542708717.031505) can0 0CFDD634#01000100FF00F0C3
(1542708717.032094) can0 0CFDD633#01000100FF00F0C3
(1542708717.033531) can0 0CFDD734#0100FFFFFFFFFFFF
(1542708717.042109) can0 0CFDD733#0100FFFFFFFFFFFF
(1542708717.049535) can0 18FECA34#00FF00000000FFFF
(1542708717.052509) can0 0CFDD634#01000100FF00F0C3
(1542708717.053062) can0 0CFDD633#01000100FF00F0C3
(1542708717.054504) can0 0CFDD734#0100FFFFFFFFFFFF
(1542708717.062043) can0 0CFDD733#0100FFFFFFFFFFFF
(1542708717.066685) can0 628#01DC00E8D82F001B
(1542708717.072504) can0 0CFDD634#01000100FF00F0C3
(1542708717.072976) can0 0CFDD633#01000100FF00F0C3
(1542708717.075414) can0 0CFDD734#0100FFFFFFFFFFFF
(1542708717.082986) can0 0CFDD733#0100FFFFFFFFFFFF
(1542708717.093361) can0 0CFDD634#01000100FF00F0C3
(1542708717.093965) can0 0CFDD633#01000100FF00F0C3
(1542708717.095466) can0 0CFDD734#0100FFFFFFFFFFFF
(1542708717.102965) can0 0CFDD733#0100FFFFFFFFFFFF
(1542708717.106712) can0 628#01DF00E6D832001B
(1542708717.113394) can0 0CFDD634#01000100FF00F0C3
(1542708717.113961) can0 0CFDD633#01000100FF00F0C3
(1542708717.116391) can0 0CFDD734#0100FFFFFFFFFFFF
(1542708717.119030) can0 18FECA33#00FF00000000FFFF
(1542708717.123913) can0 0CFDD733#0100FFFFFFFFFFFF
(1542708717.133248) can0 0CFDD634#01000100FF00F0C3
(1542708717.133875) can0 0CFDD633#01000100FF00F0C3
(1542708717.136268) can0 0CFDD734#0100FFFFFFFFFFFF
(1542708717.143879) can0 0CFDD733#0100FFFFFFFFFFFF
(1542708717.146650) can0 628#01DC00E7D83C001B
(1542708717.154293) can0 0CFDD634#01000100FF00F0C3
(1542708717.154872) can0 0CFDD633#01000100FF00F0C3
(1542708717.156240) can0 0CFDD734#0100FFFFFFFFFFFF
(1542708717.164848) can0 0CFDD733#0100FFFFFFFFFFFF
(1542708717.175214) can0 0CFDD634#01000100FF00F0C3
(1542708717.175849) can0 0CFDD633#01000100FF00F0C3
(1542708717.177304) can0 0CFDD734#0100FFFFFFFFFFFF
(1542708717.184823) can0 0CFDD733#0100FFFFFFFFFFFF
(1542708717.186707) can0 628#01DF00E7D82E001B
(1542708717.195196) can0 0CFDD634#01000100FF00F0C3
(1542708717.195821) can0 0CFDD633#01000100FF00F0C3
(1542708717.198223) can0 0CFDD734#0100FFFFFFFFFFFF
(1542708717.205840) can0 0CFDD733#0100FFFFFFFFFFFF
(1542708717.215183) can0 0CFDD634#01000100FF00F0C3
(1542708717.215788) can0 0CFDD633#01000100FF00F0C3
(1542708717.218207) can0 0CFDD734#0100FFFFFFFFFFFF
(1542708717.226756) can0 0CFDD733#0100FFFFFFFFFFFF
(1542708717.227216) can0 628#01DD00E7D832001B
(1542708717.236160) can0 0CFDD634#01000100FF00F0C3
(1542708717.236744) can0 0CFDD633#01000100FF00F0C3
(1542708717.238144) can0 0CFDD734#0100FFFFFFFFFFFF
(1542708717.246725) can0 0CFDD733#0100FFFFFFFFFFFF
(1542708717.256060) can0 0CFDD634#01000100FF00F0C3
(1542708717.256668) can0 0CFDD633#01000100FF00F0C3
(1542708717.258067) can0 0CFDD734#0100FFFFFFFFFFFF
(1542708717.266665) can0 0CFDD733#0100FFFFFFFFFFFF
(1542708717.267112) can0 628#01DD00E7D835001B
(1542708717.276981) can0 0CFDD634#01000100FF00F0C3
(1542708717.277653) can0 0CFDD633#01000100FF00F0C3
(1542708717.279030) can0 0CFDD734#0100FFFFFFFFFFFF
(1542708717.287655) can0 0CFDD733#0100FFFFFFFFFFFF
(1542708717.297039) can0 0CFDD634#01000100FF00F0C3
(1542708717.297634) can0 0CFDD633#01000100FF00F0C3
(1542708717.299008) can0 0CFDD734#0100FFFFFFFFFFFF
(1542708717.306687) can0 628#01E000E7D82E001B
(1542708717.307637) can0 0CFDD733#0100FFFFFFFFFFFF
(1542708717.317965) can0 0CFDD634#01000100FF00F0C3
(1542708717.318635) can0 0CFDD633#01000100FF00F0C3
(1542708717.319958) can0 0CFDD734#0100FFFFFFFFFFFF
(1542708717.328621) can0 0CFDD733#0100FFFFFFFFFFFF
(1542708717.338916) can0 0CFDD634#01000100FF00F0C3
(1542708717.339544) can0 0CFDD633#01000100FF00F0C3
(1542708717.340915) can0 0CFDD734#0100FFFFFFFFFFFF
(1542708717.346761) can0 628#01DF00E7D83D001B
(1542708717.349545) can0 0CFDD733#0100FFFFFFFFFFFF
(1542708717.358926) can0 0CFDD634#01000100FF00F0C3
(1542708717.359510) can0 0CFDD633#01000100FF00F0C3
(1542708717.361961) can0 0CFDD734#0100FFFFFFFFFFFF
(1542708717.369495) can0 0CFDD733#0100FFFFFFFFFFFF
(1542708717.379820) can0 0CFDD634#01000100FF00F0C3
(1542708717.380456) can0 0CFDD633#01000100FF00F0C3
(1542708717.381848) can0 0CFDD734#0100FFFFFFFFFFFF
(1542708717.386667) can0 628#01DC00E6D829001B
(1542708717.389431) can0 0CFDD733#0100FFFFFFFFFFFF
(1542708717.399794) can0 0CFDD634#01000100FF00F0C3
(1542708717.401430) can0 0CFDD633#01000100FF00F0C3
(1542708717.402820) can0 0CFDD734#0100FFFFFFFFFFFF
(1542708717.410404) can0 0CFDD733#0100FFFFFFFFFFFF
(1542708717.419740) can0 0CFDD634#01000100FF00F0C3
(1542708717.421453) can0 0CFDD633#01000100FF00F0C3
(1542708717.422791) can0 0CFDD734#0100FFFFFFFFFFFF
(1542708717.426742) can0 628#01DF00E6D82B001B
(1542708717.430426) can0 0CFDD733#0100FFFFFFFFFFFF
(1542708717.440741) can0 0CFDD634#01000100FF00F0C3
(1542708717.441408) can0 0CFDD633#01000100FF00F0C3
(1542708717.443731) can0 0CFDD734#0100FFFFFFFFFFFF
(1542708717.451441) can0 0CFDD733#0100FFFFFFFFFFFF
(1542708717.460678) can0 0CFDD634#01000100FF00F0C3
(1542708717.462335) can0 0CFDD633#01000100FF00F0C3
(1542708717.463692) can0 0CFDD734#0100FFFFFFFFFFFF
(1542708717.466693) can0 628#01DE00E6D837001B
(1542708717.471300) can0 0CFDD733#0100FFFFFFFFFFFF
(1542708717.481641) can0 0CFDD634#01000100FF00F0C3
(1542708717.482336) can0 0CFDD633#01000100FF00F0C3
(1542708717.484642) can0 0CFDD734#0100FFFFFFFFFFFF
(1542708717.492289) can0 0CFDD733#0100FFFFFFFFFFFF
(1542708717.501618) can0 0CFDD634#01000100FF00F0C3
(1542708717.503238) can0 0CFDD633#01000100FF00F0C3
(1542708717.504618) can0 0CFDD734#0100FFFFFFFFFFFF
(1542708717.506691) can0 628#01E000E7D820001B
(1542708717.512265) can0 0CFDD733#0100FFFFFFFFFFFF
(1542708717.522567) can0 0CFDD634#01000100FF00F0C3
(1542708717.523248) can0 0CFDD633#01000100FF00F0C3
(1542708717.525619) can0 0CFDD734#0100FFFFFFFFFFFF
(1542708717.533247) can0 0CFDD733#0100FFFFFFFFFFFF
(1542708717.542532) can0 0CFDD634#01000100FF00F0C3
(1542708717.544191) can0 0CFDD633#01000100FF00F0C3
(1542708717.545606) can0 0CFDD734#0100FFFFFFFFFFFF
(1542708717.546751) can0 628#01DC00E6D82E001B
(1542708717.553234) can0 0CFDD733#0100FFFFFFFFFFFF
(1542708717.563528) can0 0CFDD634#01000100FF00F0C3
(1542708717.564208) can0 0CFDD633#01000100FF00F0C3
(1542708717.566506) can0 0CFDD734#0100FFFFFFFFFFFF
(1542708717.574227) can0 0CFDD733#0100FFFFFFFFFFFF
(1542708717.583531) can0 0CFDD634#01000100FF00F0C3
(1542708717.585156) can0 0CFDD633#01000100FF00F0C3
(1542708717.586537) can0 0CFDD734#0100FFFFFFFFFFFF
(1542708717.587009) can0 628#01DF00E6D83B001B
(1542708717.594126) can0 0CFDD733#0100FFFFFFFFFFFF
(1542708717.604492) can0 0CFDD634#01000100FF00F0C3
(1542708717.605146) can0 0CFDD633#01000100FF00F0C3
(1542708717.606459) can0 0CFDD734#0100FFFFFFFFFFFF
(1542708717.615178) can0 0CFDD733#0100FFFFFFFFFFFF
(1542708717.625525) can0 0CFDD634#01000100FF00F0C3
(1542708717.626126) can0 0CFDD633#01000100FF00F0C3
(1542708717.626775) can0 628#01DE00E8D837001B
(1542708717.627489) can0 0CFDD734#0100FFFFFFFFFFFF
(1542708717.635099) can0 0CFDD733#0100FFFFFFFFFFFF
(1542708717.645463) can0 0CFDD634#01000100FF00F0C3
(1542708717.646095) can0 0CFDD633#01000100FF00F0C3
(1542708717.648503) can0 0CFDD734#0100FFFFFFFFFFFF
(1542708717.656064) can0 0CFDD733#0100FFFFFFFFFFFF
(1542708717.666370) can0 0CFDD634#01000100FF00F0C3
(1542708717.666821) can0 628#01DC00E6D83C001B
(1542708717.667463) can0 0CFDD633#01000100FF00F0C3
(1542708717.668503) can0 0CFDD734#0100FFFFFFFFFFFF
(1542708717.676078) can0 0CFDD733#0100FFFFFFFFFFFF
(1542708717.686359) can0 0CFDD634#01000100FF00F0C3
(1542708717.686987) can0 0CFDD633#01000100FF00F0C3
(1542708717.689390) can0 0CFDD734#0100FFFFFFFFFFFF
(1542708717.697027) can0 0CFDD733#0100FFFFFFFFFFFF
(1542708717.706843) can0 628#01E000E8D82E001B
(1542708717.707450) can0 0CFDD634#01000100FF00F0C3
(1542708717.707983) can0 0CFDD633#01000100FF00F0C3
(1542708717.709323) can0 0CFDD734#0100FFFFFFFFFFFF
(1542708717.716951) can0 0CFDD733#0100FFFFFFFFFFFF
(1542708717.727271) can0 0CFDD634#01000100FF00F0C3
(1542708717.727969) can0 0CFDD633#01000100FF00F0C3
(1542708717.730260) can0 0CFDD734#0100FFFFFFFFFFFF
(1542708717.737936) can0 0CFDD733#0100FFFFFFFFFFFF
(1542708717.746779) can0 628#01E000E8D81F001B
(1542708717.748249) can0 0CFDD634#01000100FF00F0C3
(1542708717.748903) can0 0CFDD633#01000100FF00F0C3
(1542708717.750192) can0 0CFDD734#0100FFFFFFFFFFFF
(1542708717.758865) can0 0CFDD733#0100FFFFFFFFFFFF
(1542708717.769169) can0 0CFDD634#01000100FF00F0C3
(1542708717.769864) can0 0CFDD633#01000100FF00F0C3
(1542708717.771218) can0 0CFDD734#0100FFFFFFFFFFFF
(1542708717.778829) can0 0CFDD733#0100FFFFFFFFFFFF
(1542708717.786830) can0 628#01DD00E7D836001B
(1542708717.790093) can0 0CFDD634#01000100FF00F0C3
(1542708717.790887) can0 0CFDD633#01000100FF00F0C3
(1542708717.792171) can0 0CFDD734#0100FFFFFFFFFFFF
(1542708717.799862) can0 0CFDD733#0100FFFFFFFFFFFF
(1542708717.810086) can0 0CFDD634#01000100FF00F0C3
(1542708717.810812) can0 0CFDD633#01000100FF00F0C3
(1542708717.813083) can0 0CFDD734#0100FFFFFFFFFFFF
(1542708717.819776) can0 0CFDD733#0100FFFFFFFFFFFF
(1542708717.826847) can0 628#01DE00E7D82D001B
(1542708717.831098) can0 0CFDD634#01000100FF00F0C3
(1542708717.831835) can0 0CFDD633#01000100FF00F0C3
(1542708717.833151) can0 0CFDD734#0100FFFFFFFFFFFF
(1542708717.839748) can0 0CFDD733#0100FFFFFFFFFFFF
(1542708717.851016) can0 0CFDD634#01000100FF00F0C3
(1542708717.851714) can0 0CFDD633#01000100FF00F0C3
(1542708717.854098) can0 0CFDD734#0100FFFFFFFFFFFF
(1542708717.860723) can0 0CFDD733#0100FFFFFFFFFFFF
(1542708717.866857) can0 628#01DD00E7D83E001B
(1542708717.871985) can0 0CFDD634#01000100FF00F0C3
(1542708717.872707) can0 0CFDD633#01000100FF00F0C3
(1542708717.874003) can0 0CFDD734#0100FFFFFFFFFFFF
(1542708717.880728) can0 0CFDD733#0100FFFFFFFFFFFF
(1542708717.891933) can0 0CFDD634#01000100FF00F0C3
(1542708717.892645) can0 0CFDD633#01000100FF00F0C3
(1542708717.894928) can0 0CFDD734#0100FFFFFFFFFFFF
(1542708717.901614) can0 0CFDD733#0100FFFFFFFFFFFF
(1542708717.906790) can0 628#01DC00E7D83B001B
(1542708717.912898) can0 0CFDD634#01000100FF00F0C3
(1542708717.913601) can0 0CFDD633#01000100FF00F0C3
(1542708717.914913) can0 0CFDD734#0100FFFFFFFFFFFF
(1542708717.921594) can0 0CFDD733#0100FFFFFFFFFFFF
(1542708717.932860) can0 0CFDD634#01000100FF00F0C3
(1542708717.933604) can0 0CFDD633#01000100FF00F0C3
(1542708717.935880) can0 0CFDD734#0100FFFFFFFFFFFF
(1542708717.942546) can0 0CFDD733#0100FFFFFFFFFFFF
(1542708717.946828) can0 628#01DF00E7D82D001B
(1542708717.952833) can0 0CFDD634#01000100FF00F0C3
(1542708717.954492) can0 0CFDD633#01000100FF00F0C3
(1542708717.955853) can0 0CFDD734#0100FFFFFFFFFFFF
(1542708717.962484) can0 0CFDD733#0100FFFFFFFFFFFF
(1542708717.972808) can0 0CFDD634#01000100FF00F0C3
(1542708717.974500) can0 0CFDD633#01000100FF00F0C3
(1542708717.976795) can0 0CFDD734#0100FFFFFFFFFFFF
(1542708717.983473) can0 0CFDD733#0100FFFFFFFFFFFF
(1542708717.986809) can0 628#01DA00E9D836001B
(1542708717.992757) can0 0CFDD634#01000100FF00F0C3
(1542708717.995442) can0 0CFDD633#01000100FF00F0C3
(1542708717.996769) can0 0CFDD734#0100FFFFFFFFFFFF
(1542708718.003475) can0 0CFDD733#0100FFFFFFFFFFFF
(1542708718.013725) can0 0CFDD634#01000100FF00F0C3
(1542708718.015405) can0 0CFDD633#01000100FF00F0C3
(1542708718.017764) can0 0CFDD734#0100FFFFFFFFFFFF
(1542708718.024430) can0 0CFDD733#0100FFFFFFFFFFFF
(1542708718.026926) can0 628#01E000E6D828001B
(1542708718.034662) can0 0CFDD634#01000100FF00F0C3
(1542708718.035395) can0 0CFDD633#01000100FF00F0C3
(1542708718.037696) can0 0CFDD734#0100FFFFFFFFFFFF
(1542708718.044408) can0 0CFDD733#0100FFFFFFFFFFFF
(1542708718.047687) can0 18FECA34#00FF00000000FFFF
(1542708718.054667) can0 0CFDD634#01000100FF00F0C3
(1542708718.055450) can0 0CFDD633#01000100FF00F0C3
(1542708718.058644) can0 0CFDD734#0100FFFFFFFFFFFF
(1542708718.065325) can0 0CFDD733#0100FFFFFFFFFFFF
(1542708718.066867) can0 628#01DC00E7D832001B
(1542708718.074669) can0 0CFDD634#01000100FF00F0C3
(1542708718.076298) can0 0CFDD633#01000100FF00F0C3
(1542708718.078621) can0 0CFDD734#0100FFFFFFFFFFFF
(1542708718.085289) can0 0CFDD733#0100FFFFFFFFFFFF
(1542708718.095578) can0 0CFDD634#01000100FF00F0C3
(1542708718.096302) can0 0CFDD633#01000100FF00F0C3
(1542708718.099603) can0 0CFDD734#0100FFFFFFFFFFFF
(1542708718.106305) can0 0CFDD733#0100FFFFFFFFFFFF
(1542708718.106885) can0 628#01DE00E8D833001B
(1542708718.115544) can0 0CFDD634#01000100FF00F0C3
(1542708718.117271) can0 0CFDD633#01000100FF00F0C3
(1542708718.117849) can0 18FECA33#00FF00000000FFFF
(1542708718.119558) can0 0CFDD734#0100FFFFFFFFFFFF
(1542708718.126237) can0 0CFDD733#0100FFFFFFFFFFFF
(1542708718.136477) can0 0CFDD634#01000100FF00F0C3
(1542708718.137320) can0 0CFDD633#01000100FF00F0C3
(1542708718.140541) can0 0CFDD734#0100FFFFFFFFFFFF
(1542708718.146925) can0 628#01E100E7D838001B
(1542708718.147473) can0 0CFDD733#0100FFFFFFFFFFFF
(1542708718.156450) can0 0CFDD634#01000100FF00F0C3
(1542708718.158153) can0 0CFDD633#01000100FF00F0C3
(1542708718.160481) can0 0CFDD734#0100FFFFFFFFFFFF
(1542708718.168195) can0 0CFDD733#0100FFFFFFFFFFFF
(1542708718.177454) can0 0CFDD634#01000100FF00F0C3
(1542708718.178176) can0 0CFDD633#01000100FF00F0C3
(1542708718.181444) can0 0CFDD734#0100FFFFFFFFFFFF
(1542708718.186914) can0 628#01DD00E9D834001B
(1542708718.188176) can0 0CFDD733#0100FFFFFFFFFFFF
(1542708718.198422) can0 0CFDD634#01000100FF00F0C3
(1542708718.199115) can0 0CFDD633#01000100FF00F0C3
(1542708718.201439) can0 0CFDD734#0100FFFFFFFFFFFF
(1542708718.209103) can0 0CFDD733#0100FFFFFFFFFFFF
(1542708718.218458) can0 0CFDD634#01000100FF00F0C3
(1542708718.219114) can0 0CFDD633#01000100FF00F0C3
(1542708718.222409) can0 0CFDD734#0100FFFFFFFFFFFF
(1542708718.226868) can0 628#01DC00E8D829001B
(1542708718.229102) can0 0CFDD733#0100FFFFFFFFFFFF
(1542708718.238396) can0 0CFDD634#01000100FF00F0C3
(1542708718.240049) can0 0CFDD633#01000100FF00F0C3
(1542708718.242410) can0 0CFDD734#0100FFFFFFFFFFFF
(1542708718.249044) can0 0CFDD733#0100FFFFFFFFFFFF
(1542708718.259287) can0 0CFDD634#01000100FF00F0C3
(1542708718.260042) can0 0CFDD633#01000100FF00F0C3
(1542708718.263299) can0 0CFDD734#0100FFFFFFFFFFFF
(1542708718.266925) can0 628#01DF00E6D82E001B
(1542708718.269999) can0 0CFDD733#0100FFFFFFFFFFFF
(1542708718.279245) can0 0CFDD634#01000100FF00F0C3
(1542708718.280953) can0 0CFDD633#01000100FF00F0C3
(1542708718.283261) can0 0CFDD734#0100FFFFFFFFFFFF
(1542708718.289999) can0 0CFDD733#0100FFFFFFFFFFFF
(1542708718.300226) can0 0CFDD634#01000100FF00F0C3
(1542708718.300988) can0 0CFDD633#01000100FF00F0C3
(1542708718.304239) can0 0CFDD734#0100FFFFFFFFFFFF
(1542708718.307001) can0 628#01DD00E9D828001B
(1542708718.310926) can0 0CFDD733#0100FFFFFFFFFFFF
(1542708718.321215) can0 0CFDD634#01000100FF00F0C3
(1542708718.321966) can0 0CFDD633#01000100FF00F0C3
(1542708718.324221) can0 0CFDD734#0100FFFFFFFFFFFF
(1542708718.330915) can0 0CFDD733#0100FFFFFFFFFFFF
(1542708718.341179) can0 0CFDD634#01000100FF00F0C3
(1542708718.341907) can0 0CFDD633#01000100FF00F0C3
(1542708718.344138) can0 0CFDD734#0100FFFFFFFFFFFF
(1542708718.346915) can0 628#01CE00F6D809001B
(1542708718.351892) can0 0CFDD733#0100FFFFFFFFFFFF
(1542708718.362119) can0 0CFDD634#01000100FF00F0C3
(1542708718.362846) can0 0CFDD633#01000100FF00F0C3
(1542708718.364136) can0 0CFDD734#0100FFFFFFFFFFFF
(1542708718.371900) can0 0CFDD733#0100FFFFFFFFFFFF
(1542708718.382052) can0 0CFDD634#01000100FF00F0C3
(1542708718.382808) can0 0CFDD633#01000100FF00F0C3
(1542708718.385071) can0 0CFDD734#0100FFFFFFFFFFFF
(1542708718.386932) can0 628#01A80201D930FE1B
(1542708718.392801) can0 0CFDD733#0100FFFFFFFFFFFF
(1542708718.402043) can0 0CFDD634#01000100FF00F0C3
(1542708718.403734) can0 0CFDD633#01000100FF00F0C3
(1542708718.405094) can0 0CFDD734#0100FFFFFFFFFFFF
(1542708718.412755) can0 0CFDD733#0100FFFFFFFFFFFF
(1542708718.423034) can0 0CFDD634#01000100FF00F0C3
(1542708718.423760) can0 0CFDD633#01000100FF00F0C3
(1542708718.426013) can0 0CFDD734#0100FFFFFFFFFFFF
(1542708718.426920) can0 628#01090612D975FA1B
(1542708718.433789) can0 0CFDD733#0100FFFFFFFFFFFF
(1542708718.443950) can0 0CFDD634#01000100FF00F0C3
(1542708718.444710) can0 0CFDD633#01000100FF00F0C3
(1542708718.445990) can0 0CFDD734#0100FFFFFFFFFFFF
(1542708718.453711) can0 0CFDD733#0100FFFFFFFFFFFF
(1542708718.463930) can0 0CFDD634#01000100FF00F0C3
(1542708718.464687) can0 0CFDD633#01000100FF00F0C3
(1542708718.466972) can0 0CFDD734#0100FFFFFFFFFFFF
(1542708718.467412) can0 628#01CB02D8D8C5F71B
(1542708718.474707) can0 0CFDD733#0100FFFFFFFFFFFF
(1542708718.483878) can0 0CFDD634#01000100FF00F0C3
(1542708718.485657) can0 0CFDD633#01000100FF00F0C3
(1542708718.486963) can0 0CFDD734#0100FFFFFFFFFFFF
(1542708718.495635) can0 0CFDD733#0100FFFFFFFFFFFF
(1542708718.504859) can0 0CFDD634#01000100FF00F0C3
(1542708718.505664) can0 0CFDD633#01000100FF00F0C3
(1542708718.507004) can0 628#0105FD5AD92CF81B
(1542708718.507928) can0 0CFDD734#0100FFFFFFFFFFFF
(1542708718.515599) can0 0CFDD733#0100FFFFFFFFFFFF
(1542708718.524841) can0 0CFDD634#01000100FF00F0C3
(1542708718.526551) can0 0CFDD633#01000100FF00F0C3
(1542708718.527839) can0 0CFDD734#0100FFFFFFFFFFFF
(1542708718.535528) can0 0CFDD733#0100FFFFFFFFFFFF
(1542708718.545820) can0 0CFDD634#01000100FF00F0C3
(1542708718.546566) can0 0CFDD633#01000100FF00F0C3
(1542708718.547035) can0 628#010CFE29D9E8F81B
(1542708718.547846) can0 0CFDD734#0100FFFFFFFFFFFF
(1542708718.556569) can0 0CFDD733#0100FFFFFFFFFFFF
(1542708718.565784) can0 0CFDD634#01000100FF00F0C3
(1542708718.567481) can0 0CFDD633#01000100FF00F0C3
(1542708718.568806) can0 0CFDD734#0100FFFFFFFFFFFF
(1542708718.577486) can0 0CFDD733#0100FFFFFFFFFFFF
(1542708718.586751) can0 0CFDD634#01000100FF00F0C3
(1542708718.587211) can0 628#012901B4D845F81B
(1542708718.587752) can0 0CFDD633#01000100FF00F0C3
(1542708718.588767) can0 0CFDD734#0100FFFFFFFFFFFF
(1542708718.597471) can0 0CFDD733#0100FFFFFFFFFFFF
(1542708718.607756) can0 0CFDD634#01000100FF00F0C3
(1542708718.608421) can0 0CFDD633#01000100FF00F0C3
(1542708718.609681) can0 0CFDD734#0100FFFFFFFFFFFF
(1542708718.617452) can0 0CFDD733#0100FFFFFFFFFFFF
(1542708718.626974) can0 628#01F4FDF6D8E0F71B
(1542708718.627654) can0 0CFDD634#01000100FF00F0C3
(1542708718.628422) can0 0CFDD633#01000100FF00F0C3
(1542708718.630688) can0 0CFDD734#0100FFFFFFFFFFFF
(1542708718.638418) can0 0CFDD733#0100FFFFFFFFFFFF
(1542708718.648634) can0 0CFDD634#01000100FF00F0C3
(1542708718.649445) can0 0CFDD633#01000100FF00F0C3
(1542708718.650678) can0 0CFDD734#0100FFFFFFFFFFFF
(1542708718.658396) can0 0CFDD733#0100FFFFFFFFFFFF
(1542708718.666999) can0 628#013FFB9AD9A3F81B
(1542708718.668605) can0 0CFDD634#01000100FF00F0C3
(1542708718.669425) can0 0CFDD633#01000100FF00F0C3
(1542708718.671618) can0 0CFDD734#0100FFFFFFFFFFFF
(1542708718.679319) can0 0CFDD733#0100FFFFFFFFFFFF
(1542708718.689569) can0 0CFDD634#01000100FF00F0C3
(1542708718.690321) can0 0CFDD633#01000100FF00F0C3
(1542708718.691555) can0 0CFDD734#0100FFFFFFFFFFFF
(1542708718.699299) can0 0CFDD733#0100FFFFFFFFFFFF
(1542708718.707034) can0 628#017CFD03D9B2F81B
(1542708718.709475) can0 0CFDD634#01000100FF00F0C3
(1542708718.710297) can0 0CFDD633#01000100FF00F0C3
(1542708718.712527) can0 0CFDD734#0100FFFFFFFFFFFF
(1542708718.720278) can0 0CFDD733#0100FFFFFFFFFFFF
(1542708718.729506) can0 0CFDD634#01000100FF00F0C3
(1542708718.731263) can0 0CFDD633#01000100FF00F0C3
(1542708718.732533) can0 0CFDD734#0100FFFFFFFFFFFF
(1542708718.740305) can0 0CFDD733#0100FFFFFFFFFFFF
(1542708718.747108) can0 628#01F9FDD0D8F2F71B
(1542708718.750460) can0 0CFDD634#01000100FF00F0C3
(1542708718.751273) can0 0CFDD633#01000100FF00F0C3
(1542708718.753480) can0 0CFDD734#0100FFFFFFFFFFFF
(1542708718.761273) can0 0CFDD733#0100FFFFFFFFFFFF
(1542708718.770490) can0 0CFDD634#01000100FF00F0C3
(1542708718.772197) can0 0CFDD633#01000100FF00F0C3
(1542708718.773444) can0 0CFDD734#0100FFFFFFFFFFFF
(1542708718.781155) can0 0CFDD733#0100FFFFFFFFFFFF
(1542708718.787117) can0 628#019BFA8ED92EF81B
(1542708718.791443) can0 0CFDD634#01000100FF00F0C3
(1542708718.792230) can0 0CFDD633#01000100FF00F0C3
(1542708718.794455) can0 0CFDD734#0100FFFFFFFFFFFF
(1542708718.802200) can0 0CFDD733#0100FFFFFFFFFFFF
(1542708718.811378) can0 0CFDD634#01000100FF00F0C3
(1542708718.813145) can0 0CFDD633#01000100FF00F0C3
(1542708718.814454) can0 0CFDD734#0100FFFFFFFFFFFF
(1542708718.822169) can0 0CFDD733#0100FFFFFFFFFFFF
(1542708718.827080) can0 628#0144FA90D9B6F81B
(1542708718.832383) can0 0CFDD634#01000100FF00F0C3
(1542708718.833148) can0 0CFDD633#01000100FF00F0C3
(1542708718.835376) can0 0CFDD734#0100FFFFFFFFFFFF
(1542708718.843121) can0 0CFDD733#0100FFFFFFFFFFFF
(1542708718.852329) can0 0CFDD634#01000100FF00F0C3
(1542708718.854092) can0 0CFDD633#01000100FF00F0C3
(1542708718.855353) can0 0CFDD734#0100FFFFFFFFFFFF
(1542708718.863095) can0 0CFDD733#0100FFFFFFFFFFFF
(1542708718.867142) can0 628#011EFC03D961F81B
(1542708718.873304) can0 0CFDD634#01000100FF00F0C3
(1542708718.874057) can0 0CFDD633#01000100FF00F0C3
(1542708718.875278) can0 0CFDD734#0100FFFFFFFFFFFF
(1542708718.884026) can0 0CFDD733#0100FFFFFFFFFFFF
(1542708718.894247) can0 0CFDD634#01000100FF00F0C3
(1542708718.894949) can0 0CFDD633#01000100FF00F0C3
(1542708718.896266) can0 0CFDD734#0100FFFFFFFFFFFF
(1542708718.903921) can0 0CFDD733#0100FFFFFFFFFFFF
(1542708718.907171) can0 628#0165FA77D90AF81B
(1542708718.914220) can0 0CFDD634#01000100FF00F0C3
(1542708718.914976) can0 0CFDD633#01000100FF00F0C3
(1542708718.917211) can0 0CFDD734#0100FFFFFFFFFFFF
(1542708718.924902) can0 0CFDD733#0100FFFFFFFFFFFF
(1542708718.934198) can0 0CFDD634#01000100FF00F0C3
(1542708718.935957) can0 0CFDD633#01000100FF00F0C3
(1542708718.937220) can0 0CFDD734#0100FFFFFFFFFFFF
(1542708718.944906) can0 0CFDD733#0100FFFFFFFFFFFF
(1542708718.947105) can0 628#0166F8F8D977F81B
(1542708718.955141) can0 0CFDD634#01000100FF00F0C3
(1542708718.955985) can0 0CFDD633#01000100FF00F0C3
(1542708718.958133) can0 0CFDD734#0100FFFFFFFFFFFF
(1542708718.965932) can0 0CFDD733#0100FFFFFFFFFFFF
(1542708718.976120) can0 0CFDD634#01000100FF00F0C3
(1542708718.976905) can0 0CFDD633#01000100FF00F0C3
(1542708718.978144) can0 0CFDD734#0100FFFFFFFFFFFF
(1542708718.986879) can0 0CFDD733#0100FFFFFFFFFFFF
(1542708718.987270) can0 628#0159F984D991F81B
(1542708718.996057) can0 0CFDD634#01000100FF00F0C3
(1542708718.996785) can0 0CFDD633#01000100FF00F0C3
(1542708718.999003) can0 0CFDD734#0100FFFFFFFFFFFF
(1542708719.006853) can0 0CFDD733#0100FFFFFFFFFFFF
(1542708719.017041) can0 0CFDD634#01000100FF00F0C3
(1542708719.017805) can0 0CFDD633#01000100FF00F0C3
(1542708719.018968) can0 0CFDD734#0100FFFFFFFFFFFF
(1542708719.026753) can0 0CFDD733#0100FFFFFFFFFFFF
(1542708719.027213) can0 628#01AFF991D92CF81B
(1542708719.037015) can0 0CFDD634#01000100FF00F0C3
(1542708719.037825) can0 0CFDD633#01000100FF00F0C3
(1542708719.039975) can0 0CFDD734#0100FFFFFFFFFFFF
(1542708719.045975) can0 18FECA34#00FF00000000FFFF
(1542708719.046777) can0 0CFDD733#0100FFFFFFFFFFFF
(1542708719.056988) can0 0CFDD634#01000100FF00F0C3
(1542708719.058663) can0 0CFDD633#01000100FF00F0C3
(1542708719.059895) can0 0CFDD734#0100FFFFFFFFFFFF
(1542708719.067208) can0 628#0152F72BDA38F81B
(1542708719.067754) can0 0CFDD733#0100FFFFFFFFFFFF
(1542708719.077934) can0 0CFDD634#01000100FF00F0C3
(1542708719.078659) can0 0CFDD633#01000100FF00F0C3
(1542708719.080906) can0 0CFDD734#0100FFFFFFFFFFFF
(1542708719.088681) can0 0CFDD733#0100FFFFFFFFFFFF
(1542708719.097842) can0 0CFDD634#01000100FF00F0C3
(1542708719.099634) can0 0CFDD633#01000100FF00F0C3
(1542708719.100888) can0 0CFDD734#0100FFFFFFFFFFFF
(1542708719.107186) can0 628#01E7F61CDA93F81B
(1542708719.108645) can0 0CFDD733#0100FFFFFFFFFFFF
(1542708719.115697) can0 18FECA33#00FF00000000FFFF
(1542708719.118803) can0 0CFDD634#01000100FF00F0C3
(1542708719.119587) can0 0CFDD633#01000100FF00F0C3
(1542708719.121828) can0 0CFDD734#0100FFFFFFFFFFFF
(1542708719.129655) can0 0CFDD733#0100FFFFFFFFFFFF
(1542708719.139790) can0 0CFDD634#01000100FF00F0C3
(1542708719.140643) can0 0CFDD633#01000100FF00F0C3
(1542708719.141816) can0 0CFDD734#0100FFFFFFFFFFFF
(1542708719.147157) can0 628#01CCF7F0D965F81B
(1542708719.149581) can0 0CFDD733#0100FFFFFFFFFFFF
(1542708719.159762) can0 0CFDD634#01000100FF00F0C3
(1542708719.160580) can0 0CFDD633#01000100FF00F0C3
(1542708719.162763) can0 0CFDD734#0100FFFFFFFFFFFF
(1542708719.170565) can0 0CFDD733#0100FFFFFFFFFFFF
(1542708719.179704) can0 0CFDD634#01000100FF00F0C3
(1542708719.181506) can0 0CFDD633#01000100FF00F0C3
(1542708719.182727) can0 0CFDD734#0100FFFFFFFFFFFF
(1542708719.187181) can0 628#0184F654DA2CF81B
(1542708719.190540) can0 0CFDD733#0100FFFFFFFFFFFF
(1542708719.200721) can0 0CFDD634#01000100FF00F0C3
(1542708719.201528) can0 0CFDD633#01000100FF00F0C3
(1542708719.203634) can0 0CFDD734#0100FFFFFFFFFFFF
(1542708719.211513) can0 0CFDD733#0100FFFFFFFFFFFF
(1542708719.220699) can0 0CFDD634#01000100FF00F0C3
(1542708719.222486) can0 0CFDD633#01000100FF00F0C3
(1542708719.223638) can0 0CFDD734#0100FFFFFFFFFFFF
(1542708719.227182) can0 628#012AF59BDA6CF81B
(1542708719.231487) can0 0CFDD733#0100FFFFFFFFFFFF
(1542708719.241610) can0 0CFDD634#01000100FF00F0C3
(1542708719.242451) can0 0CFDD633#01000100FF00F0C3
(1542708719.244574) can0 0CFDD734#0100FFFFFFFFFFFF
(1542708719.252487) can0 0CFDD733#0100FFFFFFFFFFFF
(1542708719.261616) can0 0CFDD634#01000100FF00F0C3
(1542708719.263315) can0 0CFDD633#01000100FF00F0C3
(1542708719.264549) can0 0CFDD734#0100FFFFFFFFFFFF
(1542708719.267139) can0 628#019FF587DA83F81B
(1542708719.272366) can0 0CFDD733#0100FFFFFFFFFFFF
(1542708719.282561) can0 0CFDD634#01000100FF00F0C3
(1542708719.283361) can0 0CFDD633#01000100FF00F0C3
(1542708719.285538) can0 0CFDD734#0100FFFFFFFFFFFF
(1542708719.293338) can0 0CFDD733#0100FFFFFFFFFFFF
(1542708719.302499) can0 0CFDD634#01000100FF00F0C3
(1542708719.304300) can0 0CFDD633#01000100FF00F0C3
(1542708719.305554) can0 0CFDD734#0100FFFFFFFFFFFF
(1542708719.307197) can0 628#017FF598DA3DF81B
(1542708719.313258) can0 0CFDD733#0100FFFFFFFFFFFF
(1542708719.323470) can0 0CFDD634#01000100FF00F0C3
(1542708719.324308) can0 0CFDD633#01000100FF00F0C3
(1542708719.326475) can0 0CFDD734#0100FFFFFFFFFFFF
(1542708719.334326) can0 0CFDD733#0100FFFFFFFFFFFF
(1542708719.344441) can0 0CFDD634#01000100FF00F0C3
(1542708719.345256) can0 0CFDD633#01000100FF00F0C3
(1542708719.346449) can0 0CFDD734#0100FFFFFFFFFFFF
(1542708719.347207) can0 628#01DBF304DB65F81B
(1542708719.354269) can0 0CFDD733#0100FFFFFFFFFFFF
(1542708719.364436) can0 0CFDD634#01000100FF00F0C3
(1542708719.366243) can0 0CFDD633#01000100FF00F0C3
(1542708719.367449) can0 0CFDD734#0100FFFFFFFFFFFF
(1542708719.375269) can0 0CFDD733#0100FFFFFFFFFFFF
(1542708719.384363) can0 0CFDD634#01000100FF00F0C3
(1542708719.387216) can0 0CFDD633#01000100FF00F0C3
(1542708719.387574) can0 628#018FF32DDB7FF81B
(1542708719.388453) can0 0CFDD734#0100FFFFFFFFFFFF
(1542708719.396222) can0 0CFDD733#0100FFFFFFFFFFFF
(1542708719.405373) can0 0CFDD634#01000100FF00F0C3
(1542708719.407190) can0 0CFDD633#01000100FF00F0C3
(1542708719.409376) can0 0CFDD734#0100FFFFFFFFFFFF
(1542708719.416169) can0 0CFDD733#0100FFFFFFFFFFFF
(1542708719.426322) can0 0CFDD634#01000100FF00F0C3
(1542708719.427128) can0 0CFDD633#01000100FF00F0C3
(1542708719.427576) can0 628#01D7F31DDB61F81B
(1542708719.429351) can0 0CFDD734#0100FFFFFFFFFFFF
(1542708719.436106) can0 0CFDD733#0100FFFFFFFFFFFF
(1542708719.446257) can0 0CFDD634#01000100FF00F0C3
(1542708719.448079) can0 0CFDD633#01000100FF00F0C3
(1542708719.449260) can0 0CFDD734#0100FFFFFFFFFFFF
(1542708719.457117) can0 0CFDD733#0100FFFFFFFFFFFF
(1542708719.466205) can0 0CFDD634#01000100FF00F0C3
(1542708719.467231) can0 628#01C6F275DB40F81B
(1542708719.468080) can0 0CFDD633#01000100FF00F0C3
(1542708719.469230) can0 0CFDD734#0100FFFFFFFFFFFF
(1542708719.477023) can0 0CFDD733#0100FFFFFFFFFFFF
(1542708719.487216) can0 0CFDD634#01000100FF00F0C3
(1542708719.489002) can0 0CFDD633#01000100FF00F0C3
(1542708719.490202) can0 0CFDD734#0100FFFFFFFFFFFF
(1542708719.497946) can0 0CFDD733#0100FFFFFFFFFFFF
(1542708719.507150) can0 0CFDD634#01000100FF00F0C3
(1542708719.507571) can0 628#01EEF1D4DB75F81B
(1542708719.508964) can0 0CFDD633#01000100FF00F0C3
(1542708719.510169) can0 0CFDD734#0100FFFFFFFFFFFF
(1542708719.517975) can0 0CFDD733#0100FFFFFFFFFFFF
(1542708719.528155) can0 0CFDD634#01000100FF00F0C3
(1542708719.528946) can0 0CFDD633#01000100FF00F0C3
(1542708719.531164) can0 0CFDD734#0100FFFFFFFFFFFF
(1542708719.538933) can0 0CFDD733#0100FFFFFFFFFFFF
(1542708719.547293) can0 628#01F9F1CADB6DF81B
(1542708719.548146) can0 0CFDD634#01000100FF00F0C3
(1542708719.548935) can0 0CFDD633#01000100FF00F0C3
(1542708719.551068) can0 0CFDD734#0100FFFFFFFFFFFF
(1542708719.558876) can0 0CFDD733#0100FFFFFFFFFFFF
(1542708719.569048) can0 0CFDD634#01000100FF00F0C3
(1542708719.569877) can0 0CFDD633#01000100FF00F0C3
(1542708719.571048) can0 0CFDD734#0100FFFFFFFFFFFF
(1542708719.579864) can0 0CFDD733#0100FFFFFFFFFFFF
(1542708719.587256) can0 628#0177F1E4DB4FF81B
(1542708719.589997) can0 0CFDD634#01000100FF00F0C3
(1542708719.590874) can0 0CFDD633#01000100FF00F0C3
(1542708719.592063) can0 0CFDD734#0100FFFFFFFFFFFF
(1542708719.599874) can0 0CFDD733#0100FFFFFFFFFFFF
(1542708719.610027) can0 0CFDD634#01000100FF00F0C3
(1542708719.610847) can0 0CFDD633#01000100FF00F0C3
(1542708719.613002) can0 0CFDD734#0100FFFFFFFFFFFF
(1542708719.620788) can0 0CFDD733#0100FFFFFFFFFFFF
(1542708719.627345) can0 628#0172F064DC58F81B
(1542708719.630891) can0 0CFDD634#01000100FF00F0C3
(1542708719.631726) can0 0CFDD633#01000100FF00F0C3
(1542708719.632884) can0 0CFDD734#0100FFFFFFFFFFFF
(1542708719.640748) can0 0CFDD733#0100FFFFFFFFFFFF
(1542708719.650890) can0 0CFDD634#01000100FF00F0C3
(1542708719.651770) can0 0CFDD633#01000100FF00F0C3
(1542708719.653952) can0 0CFDD734#0100FFFFFFFFFFFF
(1542708719.661774) can0 0CFDD733#0100FFFFFFFFFFFF
(1542708719.667320) can0 628#0146F07FDC6BF81B
(1542708719.670899) can0 0CFDD634#01000100FF00F0C3
(1542708719.672747) can0 0CFDD633#01000100FF00F0C3
(1542708719.673889) can0 0CFDD734#0100FFFFFFFFFFFF
(1542708719.681670) can0 0CFDD733#0100FFFFFFFFFFFF
(1542708719.691811) can0 0CFDD634#01000100FF00F0C3
(1542708719.692680) can0 0CFDD633#01000100FF00F0C3
(1542708719.694830) can0 0CFDD734#0100FFFFFFFFFFFF
(1542708719.702680) can0 0CFDD733#0100FFFFFFFFFFFF
(1542708719.707297) can0 628#01FEEF8CDC4AF81B
(1542708719.712784) can0 0CFDD634#01000100FF00F0C3
(1542708719.713572) can0 0CFDD633#01000100FF00F0C3
(1542708719.714837) can0 0CFDD734#0100FFFFFFFFFFFF
(1542708719.722667) can0 0CFDD733#0100FFFFFFFFFFFF
(1542708719.732799) can0 0CFDD634#01000100FF00F0C3
(1542708719.733638) can0 0CFDD633#01000100FF00F0C3
(1542708719.735795) can0 0CFDD734#0100FFFFFFFFFFFF
(1542708719.743592) can0 0CFDD733#0100FFFFFFFFFFFF
(1542708719.747307) can0 628#0112EF10DD67F81B
(1542708719.752742) can0 0CFDD634#01000100FF00F0C3
(1542708719.754613) can0 0CFDD633#01000100FF00F0C3
(1542708719.755758) can0 0CFDD734#0100FFFFFFFFFFFF
(1542708719.764576) can0 0CFDD733#0100FFFFFFFFFFFF
(1542708719.773721) can0 0CFDD634#01000100FF00F0C3
(1542708719.774586) can0 0CFDD633#01000100FF00F0C3
(1542708719.776717) can0 0CFDD734#0100FFFFFFFFFFFF
(1542708719.784552) can0 0CFDD733#0100FFFFFFFFFFFF
(1542708719.787448) can0 628#019FEE4ADD81F81B
(1542708719.793691) can0 0CFDD634#01000100FF00F0C3
(1542708719.794562) can0 0CFDD633#01000100FF00F0C3
(1542708719.796691) can0 0CFDD734#0100FFFFFFFFFFFF
(1542708719.805508) can0 0CFDD733#0100FFFFFFFFFFFF
(1542708719.814617) can0 0CFDD634#01000100FF00F0C3
(1542708719.815471) can0 0CFDD633#01000100FF00F0C3
(1542708719.816664) can0 0CFDD734#0100FFFFFFFFFFFF
(1542708719.825508) can0 0CFDD733#0100FFFFFFFFFFFF
(1542708719.827310) can0 628#0186EE4FDD6AF81B
(1542708719.834638) can0 0CFDD634#01000100FF00F0C3
(1542708719.836484) can0 0CFDD633#01000100FF00F0C3
(1542708719.837638) can0 0CFDD734#0100FFFFFFFFFFFF
(1542708719.845425) can0 0CFDD733#0100FFFFFFFFFFFF
(1542708719.855586) can0 0CFDD634#01000100FF00F0C3
(1542708719.856486) can0 0CFDD633#01000100FF00F0C3
(1542708719.858503) can0 0CFDD734#0100FFFFFFFFFFFF
(1542708719.866482) can0 0CFDD733#0100FFFFFFFFFFFF
(1542708719.867343) can0 628#01D9EDB6DD53F81B
(1542708719.875528) can0 0CFDD634#01000100FF00F0C3
(1542708719.876358) can0 0CFDD633#01000100FF00F0C3
(1542708719.878476) can0 0CFDD734#0100FFFFFFFFFFFF
(1542708719.886359) can0 0CFDD733#0100FFFFFFFFFFFF
(1542708719.896513) can0 0CFDD634#01000100FF00F0C3
(1542708719.897317) can0 0CFDD633#01000100FF00F0C3
(1542708719.898443) can0 0CFDD734#0100FFFFFFFFFFFF
(1542708719.907369) can0 0CFDD733#0100FFFFFFFFFFFF
(1542708719.907756) can0 628#0105ED0DDE73F81B
(1542708719.916485) can0 0CFDD634#01000100FF00F0C3
(1542708719.918256) can0 0CFDD633#01000100FF00F0C3
(1542708719.919420) can0 0CFDD734#0100FFFFFFFFFFFF
(1542708719.927317) can0 0CFDD733#0100FFFFFFFFFFFF
(1542708719.937485) can0 0CFDD634#01000100FF00F0C3
(1542708719.938236) can0 0CFDD633#01000100FF00F0C3
(1542708719.940416) can0 0CFDD734#0100FFFFFFFFFFFF
(1542708719.947470) can0 628#01E8EC2CDE7DF81B
(1542708719.948290) can0 0CFDD733#0100FFFFFFFFFFFF
(1542708719.958333) can0 0CFDD634#01000100FF00F0C3
(1542708719.959225) can0 0CFDD633#01000100FF00F0C3
(1542708719.960444) can0 0CFDD734#0100FFFFFFFFFFFF
(1542708719.969229) can0 0CFDD733#0100FFFFFFFFFFFF
(1542708719.978282) can0 0CFDD634#01000100FF00F0C3
(1542708719.979195) can0 0CFDD633#01000100FF00F0C3
(1542708719.981331) can0 0CFDD734#0100FFFFFFFFFFFF
(1542708719.987359) can0 628#0192EC6FDE69F81B
(1542708719.989176) can0 0CFDD733#0100FFFFFFFFFFFF
(1542708719.998227) can0 0CFDD634#01000100FF00F0C3
(1542708720.000086) can0 0CFDD633#01000100FF00F0C3
(1542708720.001244) can0 0CFDD734#0100FFFFFFFFFFFF
(1542708720.009100) can0 0CFDD733#0100FFFFFFFFFFFF
(1542708720.019230) can0 0CFDD634#01000100FF00F0C3
(1542708720.020180) can0 0CFDD633#01000100FF00F0C3
(1542708720.022244) can0 0CFDD734#0100FFFFFFFFFFFF
(1542708720.027472) can0 628#01ACEBE3DE6CF81B
(1542708720.030152) can0 0CFDD733#0100FFFFFFFFFFFF
(1542708720.039212) can0 0CFDD634#01000100FF00F0C3
(1542708720.041059) can0 0CFDD633#01000100FF00F0C3
(1542708720.042172) can0 0CFDD734#0100FFFFFFFFFFFF
(1542708720.044199) can0 18FECA34#00FF00000000FFFF
(1542708720.050108) can0 0CFDD733#0100FFFFFFFFFFFF
(1542708720.060122) can0 0CFDD634#01000100FF00F0C3
(1542708720.061108) can0 0CFDD633#01000100FF00F0C3
(1542708720.063201) can0 0CFDD734#0100FFFFFFFFFFFF
(1542708720.067480) can0 628#0157EB1EDF77F81B
(1542708720.071082) can0 0CFDD733#0100FFFFFFFFFFFF
(1542708720.080191) can0 0CFDD634#01000100FF00F0C3
(1542708720.081971) can0 0CFDD633#01000100FF00F0C3
(1542708720.083118) can0 0CFDD734#0100FFFFFFFFFFFF
(1542708720.090990) can0 0CFDD733#0100FFFFFFFFFFFF
(1542708720.101122) can0 0CFDD634#01000100FF00F0C3
(1542708720.101982) can0 0CFDD633#01000100FF00F0C3
(1542708720.104070) can0 0CFDD734#0100FFFFFFFFFFFF
(1542708720.107433) can0 628#0128EB4FDF65F81B
(1542708720.111993) can0 0CFDD733#0100FFFFFFFFFFFF
(1542708720.113981) can0 18FECA33#00FF00000000FFFF
(1542708720.121103) can0 0CFDD634#01000100FF00F0C3
(1542708720.122937) can0 0CFDD633#01000100FF00F0C3
(1542708720.124069) can0 0CFDD734#0100FFFFFFFFFFFF
(1542708720.131940) can0 0CFDD733#0100FFFFFFFFFFFF
(1542708720.142082) can0 0CFDD634#01000100FF00F0C3
(1542708720.142900) can0 0CFDD633#01000100FF00F0C3
(1542708720.145041) can0 0CFDD734#0100FFFFFFFFFFFF
(1542708720.147419) can0 628#0174EAA9DF57F81B
(1542708720.152948) can0 0CFDD733#0100FFFFFFFFFFFF
(1542708720.163028) can0 0CFDD634#01000100FF00F0C3
(1542708720.163878) can0 0CFDD633#01000100FF00F0C3
(1542708720.165002) can0 0CFDD734#0100FFFFFFFFFFFF
(1542708720.172901) can0 0CFDD733#0100FFFFFFFFFFFF
(1542708720.183002) can0 0CFDD634#01000100FF00F0C3
(1542708720.184868) can0 0CFDD633#01000100FF00F0C3
(1542708720.186028) can0 0CFDD734#0100FFFFFFFFFFFF
(1542708720.187442) can0 628#01E2E911E06EF81B
(1542708720.193839) can0 0CFDD733#0100FFFFFFFFFFFF
(1542708720.202958) can0 0CFDD634#01000100FF00F0C3
(1542708720.205788) can0 0CFDD633#01000100FF00F0C3
(1542708720.206965) can0 0CFDD734#0100FFFFFFFFFFFF
(1542708720.214785) can0 0CFDD733#0100FFFFFFFFFFFF
(1542708720.223892) can0 0CFDD634#01000100FF00F0C3
(1542708720.225767) can0 0CFDD633#01000100FF00F0C3
(1542708720.227485) can0 628#01ADE940E069F81B
(1542708720.228051) can0 0CFDD734#0100FFFFFFFFFFFF
(1542708720.234813) can0 0CFDD733#0100FFFFFFFFFFFF
(1542708720.244856) can0 0CFDD634#01000100FF00F0C3
(1542708720.245736) can0 0CFDD633#01000100FF00F0C3
(1542708720.247812) can0 0CFDD734#0100FFFFFFFFFFFF
(1542708720.254795) can0 0CFDD733#0100FFFFFFFFFFFF
(1542708720.264844) can0 0CFDD634#01000100FF00F0C3
(1542708720.265765) can0 0CFDD633#01000100FF00F0C3
(1542708720.267443) can0 628#0121E985E05EF81B
(1542708720.268025) can0 0CFDD734#0100FFFFFFFFFFFF
(1542708720.275740) can0 0CFDD733#0100FFFFFFFFFFFF
(1542708720.285741) can0 0CFDD634#01000100FF00F0C3
(1542708720.286677) can0 0CFDD633#01000100FF00F0C3
(1542708720.287759) can0 0CFDD734#0100FFFFFFFFFFFF
(1542708720.295650) can0 0CFDD733#0100FFFFFFFFFFFF
(1542708720.305760) can0 0CFDD634#01000100FF00F0C3
(1542708720.306686) can0 0CFDD633#01000100FF00F0C3
(1542708720.307467) can0 628#0189E80BE173F81B
(1542708720.308782) can0 0CFDD734#0100FFFFFFFFFFFF
(1542708720.316624) can0 0CFDD733#0100FFFFFFFFFFFF
(1542708720.325766) can0 0CFDD634#01000100FF00F0C3
(1542708720.327598) can0 0CFDD633#01000100FF00F0C3
(1542708720.328755) can0 0CFDD734#0100FFFFFFFFFFFF
(1542708720.337634) can0 0CFDD733#0100FFFFFFFFFFFF
(1542708720.346670) can0 0CFDD634#01000100FF00F0C3
(1542708720.347452) can0 628#0144E853E17DF81B
(1542708720.348045) can0 0CFDD633#01000100FF00F0C3
(1542708720.348730) can0 0CFDD734#0100FFFFFFFFFFFF
(1542708720.357519) can0 0CFDD733#0100FFFFFFFFFFFF
(1542708720.366685) can0 0CFDD634#01000100FF00F0C3
(1542708720.368544) can0 0CFDD633#01000100FF00F0C3
(1542708720.369651) can0 0CFDD734#0100FFFFFFFFFFFF
(1542708720.377542) can0 0CFDD733#0100FFFFFFFFFFFF
(1542708720.387635) can0 0CFDD634#01000100FF00F0C3
(1542708720.388033) can0 628#01E6E78CE168F81B
(1542708720.388623) can0 0CFDD633#01000100FF00F0C3
(1542708720.389647) can0 0CFDD734#0100FFFFFFFFFFFF
(1542708720.398468) can0 0CFDD733#0100FFFFFFFFFFFF
(1542708720.408570) can0 0CFDD634#01000100FF00F0C3
(1542708720.409456) can0 0CFDD633#01000100FF00F0C3
(1542708720.410585) can0 0CFDD734#0100FFFFFFFFFFFF
(1542708720.418433) can0 0CFDD733#0100FFFFFFFFFFFF
(1542708720.427503) can0 628#015BE712E26EF81B
(1542708720.428583) can0 0CFDD634#01000100FF00F0C3
(1542708720.429440) can0 0CFDD633#01000100FF00F0C3
(1542708720.431581) can0 0CFDD734#0100FFFFFFFFFFFF
(1542708720.439436) can0 0CFDD733#0100FFFFFFFFFFFF
(1542708720.449492) can0 0CFDD634#01000100FF00F0C3
(1542708720.450477) can0 0CFDD633#01000100FF00F0C3
(1542708720.451558) can0 0CFDD734#0100FFFFFFFFFFFF
(1542708720.459479) can0 0CFDD733#0100FFFFFFFFFFFF
(1542708720.467529) can0 628#01EDE64AE27FF81B
(1542708720.469471) can0 0CFDD634#01000100FF00F0C3
(1542708720.470425) can0 0CFDD633#01000100FF00F0C3
(1542708720.472508) can0 0CFDD734#0100FFFFFFFFFFFF
(1542708720.480481) can0 0CFDD733#0100FFFFFFFFFFFF
(1542708720.489482) can0 0CFDD634#01000100FF00F0C3
(1542708720.491328) can0 0CFDD633#01000100FF00F0C3
(1542708720.492424) can0 0CFDD734#0100FFFFFFFFFFFF
(1542708720.500369) can0 0CFDD733#0100FFFFFFFFFFFF
(1542708720.507492) can0 628#0186E6A4E276F81B
(1542708720.510477) can0 0CFDD634#01000100FF00F0C3
(1542708720.511349) can0 0CFDD633#01000100FF00F0C3
(1542708720.513482) can0 0CFDD734#0100FFFFFFFFFFFF
(1542708720.521338) can0 0CFDD733#0100FFFFFFFFFFFF
(1542708720.530390) can0 0CFDD634#01000100FF00F0C3
(1542708720.532316) can0 0CFDD633#01000100FF00F0C3
(1542708720.533440) can0 0CFDD734#0100FFFFFFFFFFFF
(1542708720.541317) can0 0CFDD733#0100FFFFFFFFFFFF
(1542708720.547597) can0 628#0115E6F8E272F81B
(1542708720.551364) can0 0CFDD634#01000100FF00F0C3
(1542708720.552238) can0 0CFDD633#01000100FF00F0C3
(1542708720.554363) can0 0CFDD734#0100FFFFFFFFFFFF
(1542708720.562223) can0 0CFDD733#0100FFFFFFFFFFFF
(1542708720.572316) can0 0CFDD634#01000100FF00F0C3
(1542708720.573259) can0 0CFDD633#01000100FF00F0C3
(1542708720.574343) can0 0CFDD734#0100FFFFFFFFFFFF
(1542708720.582238) can0 0CFDD733#0100FFFFFFFFFFFF
(1542708720.587556) can0 628#019EE56FE381F81B
(1542708720.592246) can0 0CFDD634#01000100FF00F0C3
(1542708720.594171) can0 0CFDD633#01000100FF00F0C3
(1542708720.595311) can0 0CFDD734#0100FFFFFFFFFFFF
(1542708720.603239) can0 0CFDD733#0100FFFFFFFFFFFF
(1542708720.612263) can0 0CFDD634#01000100FF00F0C3
(1542708720.615155) can0 0CFDD633#01000100FF00F0C3
(1542708720.616230) can0 0CFDD734#0100FFFFFFFFFFFF
(1542708720.624111) can0 0CFDD733#0100FFFFFFFFFFFF
(1542708720.627554) can0 628#0159E5BFE36CF81B
(1542708720.633236) can0 0CFDD634#01000100FF00F0C3
(1542708720.635130) can0 0CFDD633#01000100FF00F0C3
(1542708720.637238) can0 0CFDD734#0100FFFFFFFFFFFF
(1542708720.644085) can0 0CFDD733#0100FFFFFFFFFFFF
(1542708720.654185) can0 0CFDD634#01000100FF00F0C3
(1542708720.655102) can0 0CFDD633#01000100FF00F0C3
(1542708720.657182) can0 0CFDD734#0100FFFFFFFFFFFF
(1542708720.664057) can0 0CFDD733#0100FFFFFFFFFFFF
(1542708720.667570) can0 628#01F9E428E46CF81B
(1542708720.674129) can0 0CFDD634#01000100FF00F0C3
(1542708720.675040) can0 0CFDD633#01000100FF00F0C3
(1542708720.678067) can0 0CFDD734#0100FFFFFFFFFFFF
(1542708720.685026) can0 0CFDD733#0100FFFFFFFFFFFF
(1542708720.694103) can0 0CFDD634#01000100FF00F0C3
(1542708720.696054) can0 0CFDD633#01000100FF00F0C3
(1542708720.698043) can0 0CFDD734#0100FFFFFFFFFFFF
(1542708720.704998) can0 0CFDD733#0100FFFFFFFFFFFF
(1542708720.707542) can0 628#0189E48DE4D4F71B
(1542708720.715078) can0 0CFDD634#01000100FF00F0C3
(1542708720.715988) can0 0CFDD633#01000100FF00F0C3
(1542708720.719050) can0 0CFDD734#0100FFFFFFFFFFFF
(1542708720.725908) can0 0CFDD733#0100FFFFFFFFFFFF
(1542708720.734928) can0 0CFDD634#01000100FF00F0C3
(1542708720.736972) can0 0CFDD633#01000100FF00F0C3
(1542708720.739005) can0 0CFDD734#0100FFFFFFFFFFFF
(1542708720.745935) can0 0CFDD733#0100FFFFFFFFFFFF
(1542708720.747541) can0 628#0100E4FBE481F81B
(1542708720.755998) can0 0CFDD634#01000100FF00F0C3
(1542708720.756943) can0 0CFDD633#01000100FF00F0C3
(1542708720.759953) can0 0CFDD734#0100FFFFFFFFFFFF
(1542708720.766944) can0 0CFDD733#0100FFFFFFFFFFFF
(1542708720.775935) can0 0CFDD634#01000100FF00F0C3
(1542708720.777802) can0 0CFDD633#01000100FF00F0C3
(1542708720.779973) can0 0CFDD734#0100FFFFFFFFFFFF
(1542708720.786855) can0 0CFDD733#0100FFFFFFFFFFFF
(1542708720.787557) can0 628#01ABE362E565F81B
(1542708720.796918) can0 0CFDD634#01000100FF00F0C3
(1542708720.797773) can0 0CFDD633#01000100FF00F0C3
(1542708720.800917) can0 0CFDD734#0100FFFFFFFFFFFF
(1542708720.807805) can0 0CFDD733#0100FFFFFFFFFFFF
(1542708720.816889) can0 0CFDD634#01000100FF00F0C3
(1542708720.818747) can0 0CFDD633#01000100FF00F0C3
(1542708720.820888) can0 0CFDD734#0100FFFFFFFFFFFF
(1542708720.827656) can0 628#0152E3B3E56AF81B
(1542708720.828179) can0 0CFDD733#0100FFFFFFFFFFFF
(1542708720.837754) can0 0CFDD634#01000100FF00F0C3
(1542708720.838812) can0 0CFDD633#01000100FF00F0C3
(1542708720.841870) can0 0CFDD734#0100FFFFFFFFFFFF
(1542708720.848732) can0 0CFDD733#0100FFFFFFFFFFFF
(1542708720.858812) can0 0CFDD634#01000100FF00F0C3
(1542708720.859786) can0 0CFDD633#01000100FF00F0C3
(1542708720.861840) can0 0CFDD734#0100FFFFFFFFFFFF
(1542708720.867630) can0 628#01E1E228E673F81B
(1542708720.868717) can0 0CFDD733#0100FFFFFFFFFFFF
(1542708720.878786) can0 0CFDD634#01000100FF00F0C3
(1542708720.879734) can0 0CFDD633#01000100FF00F0C3
(1542708720.881788) can0 0CFDD734#0100FFFFFFFFFFFF
(1542708720.889719) can0 0CFDD733#0100FFFFFFFFFFFF
(1542708720.899670) can0 0CFDD634#01000100FF00F0C3
(1542708720.900633) can0 0CFDD633#01000100FF00F0C3
(1542708720.901714) can0 0CFDD734#0100FFFFFFFFFFFF
(1542708720.907587) can0 628#0196E288E675F81B
(1542708720.909669) can0 0CFDD733#0100FFFFFFFFFFFF
(1542708720.919661) can0 0CFDD634#01000100FF00F0C3
(1542708720.920627) can0 0CFDD633#01000100FF00F0C3
(1542708720.922695) can0 0CFDD734#0100FFFFFFFFFFFF
(1542708720.930655) can0 0CFDD733#0100FFFFFFFFFFFF
(1542708720.939638) can0 0CFDD634#01000100FF00F0C3
(1542708720.941596) can0 0CFDD633#01000100FF00F0C3
(1542708720.942664) can0 0CFDD734#0100FFFFFFFFFFFF
(1542708720.947613) can0 628#013EE2FBE673F81B
(1542708720.950587) can0 0CFDD733#0100FFFFFFFFFFFF
(1542708720.960629) can0 0CFDD634#01000100FF00F0C3
(1542708720.961567) can0 0CFDD633#01000100FF00F0C3
(1542708720.963596) can0 0CFDD734#0100FFFFFFFFFFFF
(1542708720.971541) can0 0CFDD733#0100FFFFFFFFFFFF
(1542708720.981603) can0 0CFDD634#01000100FF00F0C3
(1542708720.982540) can0 0CFDD633#01000100FF00F0C3
(1542708720.983564) can0 0CFDD734#0100FFFFFFFFFFFF
(1542708720.987763) can0 628#01E2E16BE76BF81B
(1542708720.991552) can0 0CFDD733#0100FFFFFFFFFFFF
(1542708721.001577) can0 0CFDD634#01000100FF00F0C3
(1542708721.003489) can0 0CFDD633#01000100FF00F0C3
(1542708721.004545) can0 0CFDD734#0100FFFFFFFFFFFF
(1542708721.012530) can0 0CFDD733#0100FFFFFFFFFFFF
(1542708721.021525) can0 0CFDD634#01000100FF00F0C3
(1542708721.024440) can0 0CFDD633#01000100FF00F0C3
(1542708721.025552) can0 0CFDD734#0100FFFFFFFFFFFF
(1542708721.027656) can0 628#0185E1CEE772F81B
(1542708721.033477) can0 0CFDD733#0100FFFFFFFFFFFF
(1542708721.042455) can0 0CFDD634#01000100FF00F0C3
(1542708721.043043) can0 18FECA34#00FF00000000FFFF
(1542708721.044435) can0 0CFDD633#01000100FF00F0C3
(1542708721.046464) can0 0CFDD734#0100FFFFFFFFFFFF
(1542708721.053424) can0 0CFDD733#0100FFFFFFFFFFFF
(1542708721.063434) can0 0CFDD634#01000100FF00F0C3
(1542708721.064418) can0 0CFDD633#01000100FF00F0C3
(1542708721.066436) can0 0CFDD734#0100FFFFFFFFFFFF
(1542708721.067616) can0 628#0120E152E888F81B
(1542708721.073472) can0 0CFDD733#0100FFFFFFFFFFFF
(1542708721.083473) can0 0CFDD634#01000100FF00F0C3
(1542708721.084346) can0 0CFDD633#01000100FF00F0C3
(1542708721.087385) can0 0CFDD734#0100FFFFFFFFFFFF
(1542708721.094288) can0 0CFDD733#0100FFFFFFFFFFFF
(1542708721.103385) can0 0CFDD634#01000100FF00F0C3
(1542708721.105359) can0 0CFDD633#01000100FF00F0C3
(1542708721.107339) can0 0CFDD734#0100FFFFFFFFFFFF
(1542708721.107775) can0 628#01EBE08EE83FF81B
(1542708721.112326) can0 18FECA33#00FF00000000FFFF
(1542708721.114359) can0 0CFDD733#0100FFFFFFFFFFFF
(1542708721.124321) can0 0CFDD634#01000100FF00F0C3
(1542708721.125292) can0 0CFDD633#01000100FF00F0C3
(1542708721.128315) can0 0CFDD734#0100FFFFFFFFFFFF
(1542708721.135263) can0 0CFDD733#0100FFFFFFFFFFFF
(1542708721.144271) can0 0CFDD634#01000100FF00F0C3
(1542708721.145249) can0 0CFDD633#01000100FF00F0C3
(1542708721.147644) can0 628#016AE03FE91EF81B
(1542708721.148298) can0 0CFDD734#0100FFFFFFFFFFFF
(1542708721.155222) can0 0CFDD733#0100FFFFFFFFFFFF
(1542708721.165281) can0 0CFDD634#01000100FF00F0C3
(1542708721.166223) can0 0CFDD633#01000100FF00F0C3
(1542708721.169244) can0 0CFDD734#0100FFFFFFFFFFFF
(1542708721.176220) can0 0CFDD733#0100FFFFFFFFFFFF
(1542708721.185218) can0 0CFDD634#01000100FF00F0C3
(1542708721.187228) can0 0CFDD633#01000100FF00F0C3
(1542708721.187611) can0 628#0124E084E987F81B
(1542708721.189223) can0 0CFDD734#0100FFFFFFFFFFFF
(1542708721.196181) can0 0CFDD733#0100FFFFFFFFFFFF
(1542708721.206162) can0 0CFDD634#01000100FF00F0C3
(1542708721.207156) can0 0CFDD633#01000100FF00F0C3
(1542708721.210228) can0 0CFDD734#0100FFFFFFFFFFFF
(1542708721.217203) can0 0CFDD733#0100FFFFFFFFFFFF
(1542708721.227176) can0 0CFDD634#01000100FF00F0C3
(1542708721.227667) can0 628#01C9DF0CEA80F81B
(1542708721.228259) can0 0CFDD633#01000100FF00F0C3
(1542708721.230203) can0 0CFDD734#0100FFFFFFFFFFFF
(1542708721.237119) can0 0CFDD733#0100FFFFFFFFFFFF
(1542708721.247113) can0 0CFDD634#01000100FF00F0C3
(1542708721.248090) can0 0CFDD633#01000100FF00F0C3
(1542708721.251115) can0 0CFDD734#0100FFFFFFFFFFFF
(1542708721.258034) can0 0CFDD733#0100FFFFFFFFFFFF
(1542708721.267098) can0 0CFDD634#01000100FF00F0C3
(1542708721.267747) can0 628#0181DF7EEA8DF81B
(1542708721.269039) can0 0CFDD633#01000100FF00F0C3
(1542708721.271089) can0 0CFDD734#0100FFFFFFFFFFFF
(1542708721.277987) can0 0CFDD733#0100FFFFFFFFFFFF
(1542708721.288024) can0 0CFDD634#01000100FF00F0C3
(1542708721.289010) can0 0CFDD633#01000100FF00F0C3
(1542708721.291074) can0 0CFDD734#0100FFFFFFFFFFFF
(1542708721.299002) can0 0CFDD733#0100FFFFFFFFFFFF
(1542708721.307773) can0 628#0144DFECEA75F81B
(1542708721.308279) can0 0CFDD634#01000100FF00F0C3
(1542708721.309014) can0 0CFDD633#01000100FF00F0C3
(1542708721.311048) can0 0CFDD734#0100FFFFFFFFFFFF
(1542708721.318964) can0 0CFDD733#0100FFFFFFFFFFFF
(1542708721.328960) can0 0CFDD634#01000100FF00F0C3
(1542708721.330019) can0 0CFDD633#01000100FF00F0C3
(1542708721.330994) can0 0CFDD734#0100FFFFFFFFFFFF
(1542708721.339968) can0 0CFDD733#0100FFFFFFFFFFFF
(1542708721.347700) can0 628#01E9DE81EB71F81B
(1542708721.348935) can0 0CFDD634#01000100FF00F0C3
(1542708721.350903) can0 0CFDD633#01000100FF00F0C3
(1542708721.351957) can0 0CFDD734#0100FFFFFFFFFFFF
(1542708721.359932) can0 0CFDD733#0100FFFFFFFFFFFF
(1542708721.369850) can0 0CFDD634#01000100FF00F0C3
(1542708721.370875) can0 0CFDD633#01000100FF00F0C3
(1542708721.372939) can0 0CFDD734#0100FFFFFFFFFFFF
(1542708721.380912) can0 0CFDD733#0100FFFFFFFFFFFF
(1542708721.387797) can0 628#01A7DED4EB7BF81B
(1542708721.389837) can0 0CFDD634#01000100FF00F0C3
(1542708721.391886) can0 0CFDD633#01000100FF00F0C3
(1542708721.392875) can0 0CFDD734#0100FFFFFFFFFFFF
(1542708721.400854) can0 0CFDD733#0100FFFFFFFFFFFF
(1542708721.410835) can0 0CFDD634#01000100FF00F0C3
(1542708721.411887) can0 0CFDD633#01000100FF00F0C3
(1542708721.412860) can0 0CFDD734#0100FFFFFFFFFFFF
(1542708721.421860) can0 0CFDD733#0100FFFFFFFFFFFF
(1542708721.427814) can0 628#0144DE5AEC77F81B
(1542708721.430807) can0 0CFDD634#01000100FF00F0C3
(1542708721.431834) can0 0CFDD633#01000100FF00F0C3
(1542708721.433834) can0 0CFDD734#0100FFFFFFFFFFFF
(1542708721.442812) can0 0CFDD733#0100FFFFFFFFFFFF
(1542708721.451782) can0 0CFDD634#01000100FF00F0C3
(1542708721.452695) can0 0CFDD633#01000100FF00F0C3
(1542708721.453720) can0 0CFDD734#0100FFFFFFFFFFFF
(1542708721.462729) can0 0CFDD733#0100FFFFFFFFFFFF
(1542708721.467786) can0 628#0106DEC5EC7AF81B
(1542708721.472641) can0 0CFDD634#01000100FF00F0C3
(1542708721.473719) can0 0CFDD633#01000100FF00F0C3
(1542708721.474710) can0 0CFDD734#0100FFFFFFFFFFFF
(1542708721.482737) can0 0CFDD733#0100FFFFFFFFFFFF
(1542708721.492709) can0 0CFDD634#01000100FF00F0C3
(1542708721.493683) can0 0CFDD633#01000100FF00F0C3
(1542708721.495668) can0 0CFDD734#0100FFFFFFFFFFFF
(1542708721.503612) can0 0CFDD733#0100FFFFFFFFFFFF
(1542708721.507737) can0 628#01C5DD45ED81F81B
(1542708721.513673) can0 0CFDD634#01000100FF00F0C3
(1542708721.514632) can0 0CFDD633#01000100FF00F0C3
(1542708721.515658) can0 0CFDD734#0100FFFFFFFFFFFF
(1542708721.523618) can0 0CFDD733#0100FFFFFFFFFFFF
(1542708721.533656) can0 0CFDD634#01000100FF00F0C3
(1542708721.534650) can0 0CFDD633#01000100FF00F0C3
(1542708721.536615) can0 0CFDD734#0100FFFFFFFFFFFF
(1542708721.544616) can0 0CFDD733#0100FFFFFFFFFFFF
(1542708721.547780) can0 628#018BDDAEED1BF81B
(1542708721.554600) can0 0CFDD634#01000100FF00F0C3
(1542708721.555578) can0 0CFDD633#01000100FF00F0C3
(1542708721.556625) can0 0CFDD734#0100FFFFFFFFFFFF
(1542708721.564563) can0 0CFDD733#0100FFFFFFFFFFFF
(1542708721.574546) can0 0CFDD634#01000100FF00F0C3
(1542708721.575536) can0 0CFDD633#01000100FF00F0C3
(1542708721.577512) can0 0CFDD734#0100FFFFFFFFFFFF
(1542708721.585573) can0 0CFDD733#0100FFFFFFFFFFFF
(1542708721.587782) can0 628#0134DD47EE0AF81B
(1542708721.594482) can0 0CFDD634#01000100FF00F0C3
(1542708721.596509) can0 0CFDD633#01000100FF00F0C3
(1542708721.597487) can0 0CFDD734#0100FFFFFFFFFFFF
(1542708721.606546) can0 0CFDD733#0100FFFFFFFFFFFF
(1542708721.615458) can0 0CFDD634#01000100FF00F0C3
(1542708721.616524) can0 0CFDD633#01000100FF00F0C3
(1542708721.618434) can0 0CFDD734#0100FFFFFFFFFFFF
(1542708721.626494) can0 0CFDD733#0100FFFFFFFFFFFF
(1542708721.627779) can0 628#01FADCD8EE8AF81B
(1542708721.635473) can0 0CFDD634#01000100FF00F0C3
(1542708721.637407) can0 0CFDD633#01000100FF00F0C3
(1542708721.638375) can0 0CFDD734#0100FFFFFFFFFFFF
(1542708721.646431) can0 0CFDD733#0100FFFFFFFFFFFF
(1542708721.656460) can0 0CFDD634#01000100FF00F0C3
(1542708721.657398) can0 0CFDD633#01000100FF00F0C3
(1542708721.659410) can0 0CFDD734#0100FFFFFFFFFFFF
(1542708721.667460) can0 0CFDD733#0100FFFFFFFFFFFF
(1542708721.667800) can0 628#01C5DC27EF8CF81B
(1542708721.677332) can0 0CFDD634#01000100FF00F0C3
(1542708721.678414) can0 0CFDD633#01000100FF00F0C3
(1542708721.679418) can0 0CFDD734#0100FFFFFFFFFFFF
(1542708721.687468) can0 0CFDD733#0100FFFFFFFFFFFF
(1542708721.697313) can0 0CFDD634#01000100FF00F0C3
(1542708721.698350) can0 0CFDD633#01000100FF00F0C3
(1542708721.700318) can0 0CFDD734#0100FFFFFFFFFFFF
(1542708721.707796) can0 628#017ADCDFEF74F81B
(1542708721.708371) can0 0CFDD733#0100FFFFFFFFFFFF
(1542708721.717243) can0 0CFDD634#01000100FF00F0C3
(1542708721.719285) can0 0CFDD633#01000100FF00F0C3
(1542708721.720294) can0 0CFDD734#0100FFFFFFFFFFFF
(1542708721.728243) can0 0CFDD733#0100FFFFFFFFFFFF
(1542708721.738179) can0 0CFDD634#01000100FF00F0C3
(1542708721.739201) can0 0CFDD633#01000100FF00F0C3
(1542708721.741237) can0 0CFDD734#0100FFFFFFFFFFFF
(1542708721.747779) can0 628#013FDC37F092F81B
(1542708721.749237) can0 0CFDD733#0100FFFFFFFFFFFF
(1542708721.758152) can0 0CFDD634#01000100FF00F0C3
(1542708721.760168) can0 0CFDD633#01000100FF00F0C3
(1542708721.761214) can0 0CFDD734#0100FFFFFFFFFFFF
(1542708721.770241) can0 0CFDD733#0100FFFFFFFFFFFF
(1542708721.779145) can0 0CFDD634#01000100FF00F0C3
(1542708721.780192) can0 0CFDD633#01000100FF00F0C3
(1542708721.782179) can0 0CFDD734#0100FFFFFFFFFFFF
(1542708721.787797) can0 628#0112DCB2F07BF81B
(1542708721.790140) can0 0CFDD733#0100FFFFFFFFFFFF
(1542708721.799134) can0 0CFDD634#01000100FF00F0C3
(1542708721.801187) can0 0CFDD633#01000100FF00F0C3
(1542708721.802162) can0 0CFDD734#0100FFFFFFFFFFFF
(1542708721.810198) can0 0CFDD733#0100FFFFFFFFFFFF
(1542708721.820070) can0 0CFDD634#01000100FF00F0C3
(1542708721.821108) can0 0CFDD633#01000100FF00F0C3
(1542708721.823048) can0 0CFDD734#0100FFFFFFFFFFFF
(1542708721.827764) can0 628#01D6DB39F13AF71B
(1542708721.831110) can0 0CFDD733#0100FFFFFFFFFFFF
(1542708721.840053) can0 0CFDD634#01000100FF00F0C3
(1542708721.842096) can0 0CFDD633#01000100FF00F0C3
(1542708721.843071) can0 0CFDD734#0100FFFFFFFFFFFF
(1542708721.852060) can0 0CFDD733#0100FFFFFFFFFFFF
(1542708721.861091) can0 0CFDD634#01000100FF00F0C3
(1542708721.862083) can0 0CFDD633#01000100FF00F0C3
(1542708721.864025) can0 0CFDD734#0100FFFFFFFFFFFF
(1542708721.867882) can0 628#0176DBDCF182F81B
(1542708721.872025) can0 0CFDD733#0100FFFFFFFFFFFF
(1542708721.881980) can0 0CFDD634#01000100FF00F0C3
(1542708721.883022) can0 0CFDD633#01000100FF00F0C3
(1542708721.883994) can0 0CFDD734#0100FFFFFFFFFFFF
(1542708721.892073) can0 0CFDD733#0100FFFFFFFFFFFF
(1542708721.901927) can0 0CFDD634#01000100FF00F0C3
(1542708721.902996) can0 0CFDD633#01000100FF00F0C3
(1542708721.904942) can0 0CFDD734#0100FFFFFFFFFFFF
(1542708721.907848) can0 628#015FDB58F282F81B
(1542708721.913017) can0 0CFDD733#0100FFFFFFFFFFFF
(1542708721.921917) can0 0CFDD634#01000100FF00F0C3
(1542708721.923899) can0 0CFDD633#01000100FF00F0C3
(1542708721.924893) can0 0CFDD734#0100FFFFFFFFFFFF
(1542708721.932989) can0 0CFDD733#0100FFFFFFFFFFFF
(1542708721.942907) can0 0CFDD634#01000100FF00F0C3
(1542708721.943910) can0 0CFDD633#01000100FF00F0C3
(1542708721.945898) can0 0CFDD734#0100FFFFFFFFFFFF
(1542708721.947822) can0 628#0139DBCBF286F81B
(1542708721.953963) can0 0CFDD733#0100FFFFFFFFFFFF
(1542708721.962882) can0 0CFDD634#01000100FF00F0C3
(1542708721.964886) can0 0CFDD633#01000100FF00F0C3
(1542708721.965873) can0 0CFDD734#0100FFFFFFFFFFFF
(1542708721.973908) can0 0CFDD733#0100FFFFFFFFFFFF
(1542708721.983748) can0 0CFDD634#01000100FF00F0C3
(1542708721.984870) can0 0CFDD633#01000100FF00F0C3
(1542708721.986856) can0 0CFDD734#0100FFFFFFFFFFFF
(1542708721.987842) can0 628#010ADB69F387F81B
(1542708721.994840) can0 0CFDD733#0100FFFFFFFFFFFF
(1542708722.003717) can0 0CFDD634#01000100FF00F0C3
(1542708722.005855) can0 0CFDD633#01000100FF00F0C3
(1542708722.006794) can0 0CFDD734#0100FFFFFFFFFFFF
(1542708722.014856) can0 0CFDD733#0100FFFFFFFFFFFF
(1542708722.024740) can0 0CFDD634#01000100FF00F0C3
(1542708722.025748) can0 0CFDD633#01000100FF00F0C3
(1542708722.027754) can0 0CFDD734#0100FFFFFFFFFFFF
(1542708722.028166) can0 628#01D0DAD4F385F81B
(1542708722.035830) can0 0CFDD733#0100FFFFFFFFFFFF
(1542708722.040777) can0 18FECA34#00FF00000000FFFF
(1542708722.044714) can0 0CFDD634#01000100FF00F0C3
(1542708722.046777) can0 0CFDD633#01000100FF00F0C3
(1542708722.047705) can0 0CFDD734#0100FFFFFFFFFFFF
(1542708722.055804) can0 0CFDD733#0100FFFFFFFFFFFF
(1542708722.065698) can0 0CFDD634#01000100FF00F0C3
(1542708722.066730) can0 0CFDD633#01000100FF00F0C3
(1542708722.067873) can0 628#01A9DA65F483F81B
(1542708722.068693) can0 0CFDD734#0100FFFFFFFFFFFF
(1542708722.076756) can0 0CFDD733#0100FFFFFFFFFFFF
(1542708722.085648) can0 0CFDD634#01000100FF00F0C3
(1542708722.087681) can0 0CFDD633#01000100FF00F0C3
(1542708722.089657) can0 0CFDD734#0100FFFFFFFFFFFF
(1542708722.096701) can0 0CFDD733#0100FFFFFFFFFFFF
(1542708722.106573) can0 0CFDD634#01000100FF00F0C3
(1542708722.107651) can0 0CFDD633#01000100FF00F0C3
(1542708722.108084) can0 628#017EDADDF483F81B
(1542708722.109611) can0 0CFDD734#0100FFFFFFFFFFFF
(1542708722.110682) can0 18FECA33#00FF00000000FFFF
(1542708722.117611) can0 0CFDD733#0100FFFFFFFFFFFF
(1542708722.127595) can0 0CFDD634#01000100FF00F0C3
(1542708722.128625) can0 0CFDD633#01000100FF00F0C3
(1542708722.129583) can0 0CFDD734#0100FFFFFFFFFFFF
(1542708722.137558) can0 0CFDD733#0100FFFFFFFFFFFF
(1542708722.147567) can0 0CFDD634#01000100FF00F0C3
(1542708722.147928) can0 628#014FDA67F58BF81B
(1542708722.148562) can0 0CFDD633#01000100FF00F0C3
(1542708722.149545) can0 0CFDD734#0100FFFFFFFFFFFF
(1542708722.158583) can0 0CFDD733#0100FFFFFFFFFFFF
(1542708722.168517) can0 0CFDD634#01000100FF00F0C3
(1542708722.169557) can0 0CFDD633#01000100FF00F0C3
(1542708722.170568) can0 0CFDD734#0100FFFFFFFFFFFF
(1542708722.178568) can0 0CFDD733#0100FFFFFFFFFFFF
(1542708722.187869) can0 628#012ADAFDF58EF81B
(1542708722.188473) can0 0CFDD634#01000100FF00F0C3
(1542708722.189499) can0 0CFDD633#01000100FF00F0C3
(1542708722.191451) can0 0CFDD734#0100FFFFFFFFFFFF
(1542708722.199467) can0 0CFDD733#0100FFFFFFFFFFFF
(1542708722.208395) can0 0CFDD634#01000100FF00F0C3
(1542708722.210494) can0 0CFDD633#01000100FF00F0C3
(1542708722.211397) can0 0CFDD734#0100FFFFFFFFFFFF
(1542708722.219496) can0 0CFDD733#0100FFFFFFFFFFFF
(1542708722.227936) can0 628#0102DA5BF68DF81B
(1542708722.229415) can0 0CFDD634#01000100FF00F0C3
(1542708722.230437) can0 0CFDD633#01000100FF00F0C3
(1542708722.232414) can0 0CFDD734#0100FFFFFFFFFFFF
(1542708722.240445) can0 0CFDD733#0100FFFFFFFFFFFF
(1542708722.250461) can0 0CFDD634#01000100FF00F0C3
(1542708722.251424) can0 0CFDD633#01000100FF00F0C3
(1542708722.252398) can0 0CFDD734#0100FFFFFFFFFFFF
(1542708722.261427) can0 0CFDD733#0100FFFFFFFFFFFF
(1542708722.267925) can0 628#01F9D90DF781F81B
(1542708722.270350) can0 0CFDD634#01000100FF00F0C3
(1542708722.271464) can0 0CFDD633#01000100FF00F0C3
(1542708722.273318) can0 0CFDD734#0100FFFFFFFFFFFF
(1542708722.281465) can0 0CFDD733#0100FFFFFFFFFFFF
(1542708722.291238) can0 0CFDD634#01000100FF00F0C3
(1542708722.292376) can0 0CFDD633#01000100FF00F0C3
(1542708722.293239) can0 0CFDD734#0100FFFFFFFFFFFF
(1542708722.302339) can0 0CFDD733#0100FFFFFFFFFFFF
(1542708722.307954) can0 628#01DCD977F785F81B
(1542708722.311273) can0 0CFDD634#01000100FF00F0C3
(1542708722.312359) can0 0CFDD633#01000100FF00F0C3
(1542708722.314235) can0 0CFDD734#0100FFFFFFFFFFFF
(1542708722.322354) can0 0CFDD733#0100FFFFFFFFFFFF
(1542708722.331246) can0 0CFDD634#01000100FF00F0C3
(1542708722.333298) can0 0CFDD633#01000100FF00F0C3
(1542708722.334246) can0 0CFDD734#0100FFFFFFFFFFFF
(1542708722.342266) can0 0CFDD733#0100FFFFFFFFFFFF
(1542708722.347951) can0 628#01BDD903F820F81B
(1542708722.352135) can0 0CFDD634#01000100FF00F0C3
(1542708722.353297) can0 0CFDD633#01000100FF00F0C3
(1542708722.355220) can0 0CFDD734#0100FFFFFFFFFFFF
(1542708722.363272) can0 0CFDD733#0100FFFFFFFFFFFF
(1542708722.372135) can0 0CFDD634#01000100FF00F0C3
(1542708722.374205) can0 0CFDD633#01000100FF00F0C3
(1542708722.375194) can0 0CFDD734#0100FFFFFFFFFFFF
(1542708722.383246) can0 0CFDD733#0100FFFFFFFFFFFF
(1542708722.387998) can0 628#0180D9ACF84DF81B
(1542708722.393120) can0 0CFDD634#01000100FF00F0C3
(1542708722.394220) can0 0CFDD633#01000100FF00F0C3
(1542708722.396082) can0 0CFDD734#0100FFFFFFFFFFFF
(1542708722.404177) can0 0CFDD733#0100FFFFFFFFFFFF
(1542708722.413089) can0 0CFDD634#01000100FF00F0C3
(1542708722.414194) can0 0CFDD633#01000100FF00F0C3
(1542708722.416121) can0 0CFDD734#0100FFFFFFFFFFFF
(1542708722.424123) can0 0CFDD733#0100FFFFFFFFFFFF
(1542708722.428013) can0 628#016ED920F98CF81B
(1542708722.434068) can0 0CFDD634#01000100FF00F0C3
(1542708722.435141) can0 0CFDD633#01000100FF00F0C3
(1542708722.436094) can0 0CFDD734#0100FFFFFFFFFFFF
(1542708722.445098) can0 0CFDD733#0100FFFFFFFFFFFF
(1542708722.454010) can0 0CFDD634#01000100FF00F0C3
(1542708722.456119) can0 0CFDD633#01000100FF00F0C3
(1542708722.456988) can0 0CFDD734#0100FFFFFFFFFFFF
(1542708722.465064) can0 0CFDD733#0100FFFFFFFFFFFF
(1542708722.468156) can0 628#0155D9C6F982F81B
(1542708722.474985) can0 0CFDD634#01000100FF00F0C3
(1542708722.476093) can0 0CFDD633#01000100FF00F0C3
(1542708722.478011) can0 0CFDD734#0100FFFFFFFFFFFF
(1542708722.486062) can0 0CFDD733#0100FFFFFFFFFFFF
(1542708722.494922) can0 0CFDD634#01000100FF00F0C3
(1542708722.496987) can0 0CFDD633#01000100FF00F0C3
(1542708722.497948) can0 0CFDD734#0100FFFFFFFFFFFF
(1542708722.505995) can0 0CFDD733#0100FFFFFFFFFFFF
(1542708722.508012) can0 628#013FD92BFA89F81B
(1542708722.515905) can0 0CFDD634#01000100FF00F0C3
(1542708722.517012) can0 0CFDD633#01000100FF00F0C3
(1542708722.518884) can0 0CFDD734#0100FFFFFFFFFFFF
(1542708722.526975) can0 0CFDD733#0100FFFFFFFFFFFF
(1542708722.535877) can0 0CFDD634#01000100FF00F0C3
(1542708722.537958) can0 0CFDD633#01000100FF00F0C3
(1542708722.538904) can0 0CFDD734#0100FFFFFFFFFFFF
(1542708722.546959) can0 0CFDD733#0100FFFFFFFFFFFF
(1542708722.547972) can0 628#0138D9C1FA92F81B
(1542708722.556760) can0 0CFDD634#01000100FF00F0C3
(1542708722.557922) can0 0CFDD633#01000100FF00F0C3
(1542708722.559792) can0 0CFDD734#0100FFFFFFFFFFFF
(1542708722.567844) can0 0CFDD733#0100FFFFFFFFFFFF
(1542708722.576799) can0 0CFDD634#01000100FF00F0C3
(1542708722.578904) can0 0CFDD633#01000100FF00F0C3
(1542708722.579815) can0 0CFDD734#0100FFFFFFFFFFFF
(1542708722.587843) can0 0CFDD733#0100FFFFFFFFFFFF
(1542708722.588296) can0 628#012CD952FB67F81B
(1542708722.597724) can0 0CFDD634#01000100FF00F0C3
(1542708722.598781) can0 0CFDD633#01000100FF00F0C3
(1542708722.600693) can0 0CFDD734#0100FFFFFFFFFFFF
(1542708722.608883) can0 0CFDD733#0100FFFFFFFFFFFF
(1542708722.617628) can0 0CFDD634#01000100FF00F0C3
(1542708722.619777) can0 0CFDD633#01000100FF00F0C3
(1542708722.620655) can0 0CFDD734#0100FFFFFFFFFFFF
(1542708722.628042) can0 628#0110D9CBFB3AF81B
(1542708722.628791) can0 0CFDD733#0100FFFFFFFFFFFF
(1542708722.638601) can0 0CFDD634#01000100FF00F0C3
(1542708722.639729) can0 0CFDD633#01000100FF00F0C3
(1542708722.641649) can0 0CFDD734#0100FFFFFFFFFFFF
(1542708722.649739) can0 0CFDD733#0100FFFFFFFFFFFF
(1542708722.658621) can0 0CFDD634#01000100FF00F0C3
(1542708722.659750) can0 0CFDD633#01000100FF00F0C3
(1542708722.661620) can0 0CFDD734#0100FFFFFFFFFFFF
(1542708722.668025) can0 628#0111D77EFBABF91B
(1542708722.670770) can0 0CFDD733#0100FFFFFFFFFFFF
(1542708722.679552) can0 0CFDD634#01000100FF00F0C3
(1542708722.680677) can0 0CFDD633#01000100FF00F0C3
(1542708722.681575) can0 0CFDD734#0100FFFFFFFFFFFF
(1542708722.690677) can0 0CFDD733#0100FFFFFFFFFFFF
(1542708722.700541) can0 0CFDD634#01000100FF00F0C3
(1542708722.701654) can0 0CFDD633#01000100FF00F0C3
(1542708722.702527) can0 0CFDD734#0100FFFFFFFFFFFF
(1542708722.708000) can0 628#0186D5AAFDB5FC1B
(1542708722.710656) can0 0CFDD733#0100FFFFFFFFFFFF
(1542708722.720535) can0 0CFDD634#01000100FF00F0C3
(1542708722.721628) can0 0CFDD633#01000100FF00F0C3
(1542708722.723477) can0 0CFDD734#0100FFFFFFFFFFFF
(1542708722.731601) can0 0CFDD733#0100FFFFFFFFFFFF
(1542708722.740511) can0 0CFDD634#01000100FF00F0C3
(1542708722.742607) can0 0CFDD633#01000100FF00F0C3
(1542708722.743490) can0 0CFDD734#0100FFFFFFFFFFFF
(1542708722.748104) can0 628#0108D65DFD45001B
(1542708722.751606) can0 0CFDD733#0100FFFFFFFFFFFF
(1542708722.761485) can0 0CFDD634#01000100FF00F0C3
(1542708722.762615) can0 0CFDD633#01000100FF00F0C3
(1542708722.764442) can0 0CFDD734#0100FFFFFFFFFFFF
(1542708722.772590) can0 0CFDD733#0100FFFFFFFFFFFF
(1542708722.781422) can0 0CFDD634#01000100FF00F0C3
(1542708722.783537) can0 0CFDD633#01000100FF00F0C3
(1542708722.784428) can0 0CFDD734#0100FFFFFFFFFFFF
(1542708722.788063) can0 628#0129D9A3FB83001B
(1542708722.792568) can0 0CFDD733#0100FFFFFFFFFFFF
(1542708722.802450) can0 0CFDD634#01000100FF00F0C3
(1542708722.803490) can0 0CFDD633#01000100FF00F0C3
(1542708722.805449) can0 0CFDD734#0100FFFFFFFFFFFF
(1542708722.813537) can0 0CFDD733#0100FFFFFFFFFFFF
(1542708722.823328) can0 0CFDD634#01000100FF00F0C3
(1542708722.824466) can0 0CFDD633#01000100FF00F0C3
(1542708722.825418) can0 0CFDD734#0100FFFFFFFFFFFF
(1542708722.828159) can0 628#0127D9DBFC26001B
(1542708722.833450) can0 0CFDD733#0100FFFFFFFFFFFF
(1542708722.843350) can0 0CFDD634#01000100FF00F0C3
(1542708722.844392) can0 0CFDD633#01000100FF00F0C3
(1542708722.846310) can0 0CFDD734#0100FFFFFFFFFFFF
(1542708722.854459) can0 0CFDD733#0100FFFFFFFFFFFF
(1542708722.863293) can0 0CFDD634#01000100FF00F0C3
(1542708722.865459) can0 0CFDD633#01000100FF00F0C3
(1542708722.866331) can0 0CFDD734#0100FFFFFFFFFFFF
(1542708722.868141) can0 628#01B0D8F9FDAC001B
(1542708722.875372) can0 0CFDD733#0100FFFFFFFFFFFF
(1542708722.884220) can0 0CFDD634#01000100FF00F0C3
(1542708722.885458) can0 0CFDD633#01000100FF00F0C3
(1542708722.887258) can0 0CFDD734#0100FFFFFFFFFFFF
(1542708722.895459) can0 0CFDD733#0100FFFFFFFFFFFF
(1542708722.904179) can0 0CFDD634#01000100FF00F0C3
(1542708722.906326) can0 0CFDD633#01000100FF00F0C3
(1542708722.907203) can0 0CFDD734#0100FFFFFFFFFFFF
(1542708722.908188) can0 628#0130D9EEFB78001B
(1542708722.915294) can0 0CFDD733#0100FFFFFFFFFFFF
(1542708722.925133) can0 0CFDD634#01000100FF00F0C3
(1542708722.926257) can0 0CFDD633#01000100FF00F0C3
(1542708722.928134) can0 0CFDD734#0100FFFFFFFFFFFF
(1542708722.936341) can0 0CFDD733#0100FFFFFFFFFFFF
(1542708722.946161) can0 0CFDD634#01000100FF00F0C3
(1542708722.947253) can0 0CFDD633#01000100FF00F0C3
(1542708722.948106) can0 0CFDD734#0100FFFFFFFFFFFF
(1542708722.948595) can0 628#01E3D8EBFC38001B
(1542708722.956248) can0 0CFDD733#0100FFFFFFFFFFFF
(1542708722.966075) can0 0CFDD634#01000100FF00F0C3
(1542708722.967232) can0 0CFDD633#01000100FF00F0C3
(1542708722.969128) can0 0CFDD734#0100FFFFFFFFFFFF
(1542708722.977203) can0 0CFDD733#0100FFFFFFFFFFFF
(1542708722.986048) can0 0CFDD634#01000100FF00F0C3
(1542708722.988219) can0 0CFDD633#01000100FF00F0C3
(1542708722.988626) can0 628#019ED6E6FCDB011B
(1542708722.989235) can0 0CFDD734#0100FFFFFFFFFFFF
(1542708722.997154) can0 0CFDD733#0100FFFFFFFFFFFF
(1542708723.007059) can0 0CFDD634#01000100FF00F0C3
(1542708723.008182) can0 0CFDD633#01000100FF00F0C3
(1542708723.009995) can0 0CFDD734#0100FFFFFFFFFFFF
(1542708723.018147) can0 0CFDD733#0100FFFFFFFFFFFF
(1542708723.026956) can0 0CFDD634#01000100FF00F0C3
(1542708723.028123) can0 628#01DAD5E6FCFC041B
(1542708723.029152) can0 0CFDD633#01000100FF00F0C3
(1542708723.030059) can0 0CFDD734#0100FFFFFFFFFFFF
(1542708723.038163) can0 0CFDD733#0100FFFFFFFFFFFF
(1542708723.039034) can0 18FECA34#00FF00000000FFFF
(1542708723.047898) can0 0CFDD634#01000100FF00F0C3
(1542708723.050136) can0 0CFDD633#01000100FF00F0C3
(1542708723.051009) can0 0CFDD734#0100FFFFFFFFFFFF
(1542708723.059137) can0 0CFDD733#0100FFFFFFFFFFFF
(1542708723.067873) can0 0CFDD634#01000100FF00F0C3
(1542708723.068392) can0 628#0135D6ABFCF4071B
(1542708723.071084) can0 0CFDD633#01000100FF00F0C3
(1542708723.071980) can0 0CFDD734#0100FFFFFFFFFFFF
(1542708723.080060) can0 0CFDD733#0100FFFFFFFFFFFF
(1542708723.088925) can0 0CFDD634#01000100FF00F0C3
(1542708723.091058) can0 0CFDD633#01000100FF00F0C3
(1542708723.092929) can0 0CFDD734#0100FFFFFFFFFFFF
(1542708723.099995) can0 0CFDD733#0100FFFFFFFFFFFF
(1542708723.108192) can0 628#0102D9B3FB7D081B
(1542708723.108890) can0 0CFDD634#01000100FF00F0C3
(1542708723.109462) can0 18FECA33#00FF00000000FFFF
(1542708723.111007) can0 0CFDD633#01000100FF00F0C3
(1542708723.112903) can0 0CFDD734#0100FFFFFFFFFFFF
(1542708723.120037) can0 0CFDD733#0100FFFFFFFFFFFF
(1542708723.129758) can0 0CFDD634#01000100FF00F0C3
(1542708723.130979) can0 0CFDD633#01000100FF00F0C3
(1542708723.133812) can0 0CFDD734#0100FFFFFFFFFFFF
(1542708723.140980) can0 0CFDD733#0100FFFFFFFFFFFF
(1542708723.148173) can0 628#0199D9A8FAFD071B
(1542708723.149732) can0 0CFDD634#01000100FF00F0C3
(1542708723.151916) can0 0CFDD633#01000100FF00F0C3
(1542708723.153768) can0 0CFDD734#0100FFFFFFFFFFFF
(1542708723.160954) can0 0CFDD733#0100FFFFFFFFFFFF
(1542708723.170725) can0 0CFDD634#01000100FF00F0C3
(1542708723.171887) can0 0CFDD633#01000100FF00F0C3
(1542708723.174769) can0 0CFDD734#0100FFFFFFFFFFFF
(1542708723.181888) can0 0CFDD733#0100FFFFFFFFFFFF
(1542708723.188175) can0 628#01BBD8AFFB52081B
(1542708723.191666) can0 0CFDD634#01000100FF00F0C3
(1542708723.192816) can0 0CFDD633#01000100FF00F0C3
(1542708723.194659) can0 0CFDD734#0100FFFFFFFFFFFF
(1542708723.201872) can0 0CFDD733#0100FFFFFFFFFFFF
(1542708723.211692) can0 0CFDD634#01000100FF00F0C3
(1542708723.212874) can0 0CFDD633#01000100FF00F0C3
(1542708723.215690) can0 0CFDD734#0100FFFFFFFFFFFF
(1542708723.222813) can0 0CFDD733#0100FFFFFFFFFFFF
(1542708723.228189) can0 628#013FD943FA7D081B
(1542708723.231664) can0 0CFDD634#01000100FF00F0C3
(1542708723.233819) can0 0CFDD633#01000100FF00F0C3
(1542708723.235664) can0 0CFDD734#0100FFFFFFFFFFFF
(1542708723.242821) can0 0CFDD733#0100FFFFFFFFFFFF
(1542708723.252616) can0 0CFDD634#01000100FF00F0C3
(1542708723.253747) can0 0CFDD633#01000100FF00F0C3
(1542708723.256619) can0 0CFDD734#0100FFFFFFFFFFFF
(1542708723.263708) can0 0CFDD733#0100FFFFFFFFFFFF
(1542708723.268244) can0 628#01B7D90DF91B081B
(1542708723.272590) can0 0CFDD634#01000100FF00F0C3
(1542708723.274689) can0 0CFDD633#01000100FF00F0C3
(1542708723.276538) can0 0CFDD734#0100FFFFFFFFFFFF
(1542708723.283659) can0 0CFDD733#0100FFFFFFFFFFFF
(1542708723.293559) can0 0CFDD634#01000100FF00F0C3
(1542708723.294716) can0 0CFDD633#01000100FF00F0C3
(1542708723.297515) can0 0CFDD734#0100FFFFFFFFFFFF
(1542708723.304645) can0 0CFDD733#0100FFFFFFFFFFFF
(1542708723.308182) can0 628#0123D9F1F940081B
(1542708723.313501) can0 0CFDD634#01000100FF00F0C3
(1542708723.315684) can0 0CFDD633#01000100FF00F0C3
(1542708723.317491) can0 0CFDD734#0100FFFFFFFFFFFF
(1542708723.324605) can0 0CFDD733#0100FFFFFFFFFFFF
(1542708723.334480) can0 0CFDD634#01000100FF00F0C3
(1542708723.335615) can0 0CFDD633#01000100FF00F0C3
(1542708723.337458) can0 0CFDD734#0100FFFFFFFFFFFF
(1542708723.345637) can0 0CFDD733#0100FFFFFFFFFFFF
(1542708723.348273) can0 628#0159D9B7F88A081B
(1542708723.354395) can0 0CFDD634#01000100FF00F0C3
(1542708723.356612) can0 0CFDD633#01000100FF00F0C3
(1542708723.357432) can0 0CFDD734#0100FFFFFFFFFFFF
(1542708723.365612) can0 0CFDD733#0100FFFFFFFFFFFF
(1542708723.375459) can0 0CFDD634#01000100FF00F0C3
(1542708723.376597) can0 0CFDD633#01000100FF00F0C3
(1542708723.377405) can0 0CFDD734#0100FFFFFFFFFFFF
(1542708723.386585) can0 0CFDD733#0100FFFFFFFFFFFF
(1542708723.388232) can0 628#0100DA8CF73D081B
(1542708723.396371) can0 0CFDD634#01000100FF00F0C3
(1542708723.397506) can0 0CFDD633#01000100FF00F0C3
(1542708723.398417) can0 0CFDD734#0100FFFFFFFFFFFF
(1542708723.406524) can0 0CFDD733#0100FFFFFFFFFFFF
(1542708723.416362) can0 0CFDD634#01000100FF00F0C3
(1542708723.417532) can0 0CFDD633#01000100FF00F0C3
(1542708723.418417) can0 0CFDD734#0100FFFFFFFFFFFF
(1542708723.427471) can0 0CFDD733#0100FFFFFFFFFFFF
(1542708723.428241) can0 628#019CD90EF827081B
(1542708723.437231) can0 0CFDD634#01000100FF00F0C3
(1542708723.438507) can0 0CFDD633#01000100FF00F0C3
(1542708723.439352) can0 0CFDD734#0100FFFFFFFFFFFF
(1542708723.447455) can0 0CFDD733#0100FFFFFFFFFFFF
(1542708723.457264) can0 0CFDD634#01000100FF00F0C3
(1542708723.459418) can0 0CFDD633#01000100FF00F0C3
(1542708723.460276) can0 0CFDD734#0100FFFFFFFFFFFF
(1542708723.468294) can0 628#01AFD93EF764081B
(1542708723.468870) can0 0CFDD733#0100FFFFFFFFFFFF
(1542708723.477175) can0 0CFDD634#01000100FF00F0C3
(1542708723.480412) can0 0CFDD633#01000100FF00F0C3
(1542708723.481222) can0 0CFDD734#0100FFFFFFFFFFFF
(1542708723.489454) can0 0CFDD733#0100FFFFFFFFFFFF
(1542708723.498138) can0 0CFDD634#01000100FF00F0C3
(1542708723.500275) can0 0CFDD633#01000100FF00F0C3
(1542708723.501181) can0 0CFDD734#0100FFFFFFFFFFFF
(1542708723.508458) can0 628#0157DA16F62C081B
(1542708723.509379) can0 0CFDD733#0100FFFFFFFFFFFF
(1542708723.519158) can0 0CFDD634#01000100FF00F0C3
(1542708723.520345) can0 0CFDD633#01000100FF00F0C3
(1542708723.521190) can0 0CFDD734#0100FFFFFFFFFFFF
(1542708723.530341) can0 0CFDD733#0100FFFFFFFFFFFF
(1542708723.539107) can0 0CFDD634#01000100FF00F0C3
(1542708723.540319) can0 0CFDD633#01000100FF00F0C3
(1542708723.542132) can0 0CFDD734#0100FFFFFFFFFFFF
(1542708723.548319) can0 628#0104DA2DF662081B
(1542708723.550236) can0 0CFDD733#0100FFFFFFFFFFFF
(1542708723.559080) can0 0CFDD634#01000100FF00F0C3
(1542708723.561262) can0 0CFDD633#01000100FF00F0C3
(1542708723.562101) can0 0CFDD734#0100FFFFFFFFFFFF
(1542708723.571262) can0 0CFDD733#0100FFFFFFFFFFFF
(1542708723.580071) can0 0CFDD634#01000100FF00F0C3
(1542708723.581263) can0 0CFDD633#01000100FF00F0C3
(1542708723.582972) can0 0CFDD734#0100FFFFFFFFFFFF
(1542708723.588320) can0 628#0116DAD2F513091B
(1542708723.591241) can0 0CFDD733#0100FFFFFFFFFFFF
(1542708723.600002) can0 0CFDD634#01000100FF00F0C3
(1542708723.602211) can0 0CFDD633#01000100FF00F0C3
(1542708723.603018) can0 0CFDD734#0100FFFFFFFFFFFF
(1542708723.611167) can0 0CFDD733#0100FFFFFFFFFFFF
(1542708723.620976) can0 0CFDD634#01000100FF00F0C3
(1542708723.622184) can0 0CFDD633#01000100FF00F0C3
(1542708723.623940) can0 0CFDD734#0100FFFFFFFFFFFF
(1542708723.628329) can0 628#01B4DA7FF436081B
(1542708723.632110) can0 0CFDD733#0100FFFFFFFFFFFF
(1542708723.640918) can0 0CFDD634#01000100FF00F0C3
(1542708723.643095) can0 0CFDD633#01000100FF00F0C3
(1542708723.643935) can0 0CFDD734#0100FFFFFFFFFFFF
(1542708723.652050) can0 0CFDD733#0100FFFFFFFFFFFF
(1542708723.661881) can0 0CFDD634#01000100FF00F0C3
(1542708723.663065) can0 0CFDD633#01000100FF00F0C3
(1542708723.664868) can0 0CFDD734#0100FFFFFFFFFFFF
(1542708723.668336) can0 628#0191DA8BF425081B
(1542708723.673106) can0 0CFDD733#0100FFFFFFFFFFFF
(1542708723.681833) can0 0CFDD634#01000100FF00F0C3
(1542708723.683016) can0 0CFDD633#01000100FF00F0C3
(1542708723.684823) can0 0CFDD734#0100FFFFFFFFFFFF
(1542708723.693081) can0 0CFDD733#0100FFFFFFFFFFFF
(1542708723.702780) can0 0CFDD634#01000100FF00F0C3
(1542708723.704010) can0 0CFDD633#01000100FF00F0C3
(1542708723.704819) can0 0CFDD734#0100FFFFFFFFFFFF
(1542708723.708344) can0 628#019CDA32F44C081B
(1542708723.714031) can0 0CFDD733#0100FFFFFFFFFFFF
(1542708723.722790) can0 0CFDD634#01000100FF00F0C3
(1542708723.724960) can0 0CFDD633#01000100FF00F0C3
(1542708723.725806) can0 0CFDD734#0100FFFFFFFFFFFF
(1542708723.734001) can0 0CFDD733#0100FFFFFFFFFFFF
(1542708723.743678) can0 0CFDD634#01000100FF00F0C3
(1542708723.744915) can0 0CFDD633#01000100FF00F0C3
(1542708723.746727) can0 0CFDD734#0100FFFFFFFFFFFF
(1542708723.748343) can0 628#0118DB1CF344081B
(1542708723.754938) can0 0CFDD733#0100FFFFFFFFFFFF
(1542708723.763679) can0 0CFDD634#01000100FF00F0C3
(1542708723.765949) can0 0CFDD633#01000100FF00F0C3
(1542708723.766727) can0 0CFDD734#0100FFFFFFFFFFFF
(1542708723.774923) can0 0CFDD733#0100FFFFFFFFFFFF
(1542708723.784650) can0 0CFDD634#01000100FF00F0C3
(1542708723.785935) can0 0CFDD633#01000100FF00F0C3
(1542708723.787675) can0 0CFDD734#0100FFFFFFFFFFFF
(1542708723.788415) can0 628#0134DBE7F226081B
(1542708723.795898) can0 0CFDD733#0100FFFFFFFFFFFF
(1542708723.804622) can0 0CFDD634#01000100FF00F0C3
(1542708723.806867) can0 0CFDD633#01000100FF00F0C3
(1542708723.807652) can0 0CFDD734#0100FFFFFFFFFFFF
(1542708723.815871) can0 0CFDD733#0100FFFFFFFFFFFF
(1542708723.825560) can0 0CFDD634#01000100FF00F0C3
(1542708723.826805) can0 0CFDD633#01000100FF00F0C3
(1542708723.828313) can0 628#0128DB9AF252081B
(1542708723.828905) can0 0CFDD734#0100FFFFFFFFFFFF
(1542708723.836781) can0 0CFDD733#0100FFFFFFFFFFFF
(1542708723.845581) can0 0CFDD634#01000100FF00F0C3
(1542708723.847764) can0 0CFDD633#01000100FF00F0C3
(1542708723.848597) can0 0CFDD734#0100FFFFFFFFFFFF
(1542708723.856728) can0 0CFDD733#0100FFFFFFFFFFFF
(1542708723.866530) can0 0CFDD634#01000100FF00F0C3
(1542708723.867753) can0 0CFDD633#01000100FF00F0C3
(1542708723.868406) can0 628#019EDBC9F154081B
(1542708723.869507) can0 0CFDD734#0100FFFFFFFFFFFF
(1542708723.877753) can0 0CFDD733#0100FFFFFFFFFFFF
(1542708723.886503) can0 0CFDD634#01000100FF00F0C3
(1542708723.887702) can0 0CFDD633#01000100FF00F0C3
(1542708723.890529) can0 0CFDD734#0100FFFFFFFFFFFF
(1542708723.898711) can0 0CFDD733#0100FFFFFFFFFFFF
(1542708723.907435) can0 0CFDD634#01000100FF00F0C3
(1542708723.908415) can0 628#01DFDB3AF130081B
(1542708723.908919) can0 0CFDD633#01000100FF00F0C3
(1542708723.910456) can0 0CFDD734#0100FFFFFFFFFFFF
(1542708723.918685) can0 0CFDD733#0100FFFFFFFFFFFF
(1542708723.928410) can0 0CFDD634#01000100FF00F0C3
(1542708723.929596) can0 0CFDD633#01000100FF00F0C3
(1542708723.930453) can0 0CFDD734#0100FFFFFFFFFFFF
(1542708723.938572) can0 0CFDD733#0100FFFFFFFFFFFF
(1542708723.948455) can0 0CFDD634#01000100FF00F0C3
(1542708723.948766) can0 628#01CDDB12F147081B
(1542708723.949624) can0 0CFDD633#01000100FF00F0C3
(1542708723.950358) can0 0CFDD734#0100FFFFFFFFFFFF
(1542708723.959632) can0 0CFDD733#0100FFFFFFFFFFFF
(1542708723.969364) can0 0CFDD634#01000100FF00F0C3
(1542708723.970606) can0 0CFDD633#01000100FF00F0C3
(1542708723.971450) can0 0CFDD734#0100FFFFFFFFFFFF
(1542708723.979580) can0 0CFDD733#0100FFFFFFFFFFFF
(1542708723.988417) can0 628#012DDC4CF045081B
(1542708723.989288) can0 0CFDD634#01000100FF00F0C3
(1542708723.990580) can0 0CFDD633#01000100FF00F0C3
(1542708723.992341) can0 0CFDD734#0100FFFFFFFFFFFF
(1542708724.000559) can0 0CFDD733#0100FFFFFFFFFFFF
(1542708724.010285) can0 0CFDD634#01000100FF00F0C3
(1542708724.011493) can0 0CFDD633#01000100FF00F0C3
(1542708724.012283) can0 0CFDD734#0100FFFFFFFFFFFF
(1542708724.020482) can0 0CFDD733#0100FFFFFFFFFFFF
(1542708724.028387) can0 628#017ADCC0EF34081B
(1542708724.030245) can0 0CFDD634#01000100FF00F0C3
(1542708724.031452) can0 0CFDD633#01000100FF00F0C3
(1542708724.033272) can0 0CFDD734#0100FFFFFFFFFFFF
(1542708724.037246) can0 18FECA34#00FF00000000FFFF
(1542708724.041473) can0 0CFDD733#0100FFFFFFFFFFFF
(1542708724.051185) can0 0CFDD634#01000100FF00F0C3
(1542708724.052479) can0 0CFDD633#01000100FF00F0C3
(1542708724.053232) can0 0CFDD734#0100FFFFFFFFFFFF
(1542708724.061406) can0 0CFDD733#0100FFFFFFFFFFFF
(1542708724.068439) can0 628#017BDC83EF3F081B
(1542708724.071144) can0 0CFDD634#01000100FF00F0C3
(1542708724.072449) can0 0CFDD633#01000100FF00F0C3
(1542708724.074170) can0 0CFDD734#0100FFFFFFFFFFFF
(1542708724.082449) can0 0CFDD733#0100FFFFFFFFFFFF
(1542708724.092109) can0 0CFDD634#01000100FF00F0C3
(1542708724.093413) can0 0CFDD633#01000100FF00F0C3
(1542708724.094150) can0 0CFDD734#0100FFFFFFFFFFFF
(1542708724.102449) can0 0CFDD733#0100FFFFFFFFFFFF
(1542708724.107412) can0 18FECA33#00FF00000000FFFF
(1542708724.108454) can0 628#01E3DCEFEE55081B
(1542708724.112133) can0 0CFDD634#01000100FF00F0C3
(1542708724.113362) can0 0CFDD633#01000100FF00F0C3
(1542708724.115091) can0 0CFDD734#0100FFFFFFFFFFFF
(1542708724.123326) can0 0CFDD733#0100FFFFFFFFFFFF
(1542708724.132080) can0 0CFDD634#01000100FF00F0C3
(1542708724.134311) can0 0CFDD633#01000100FF00F0C3
(1542708724.135091) can0 0CFDD734#0100FFFFFFFFFFFF
(1542708724.144312) can0 0CFDD733#0100FFFFFFFFFFFF
(1542708724.148453) can0 628#0141DD4AEE3E081B
(1542708724.153050) can0 0CFDD634#01000100FF00F0C3
(1542708724.154309) can0 0CFDD633#01000100FF00F0C3
(1542708724.156013) can0 0CFDD734#0100FFFFFFFFFFFF
(1542708724.164239) can0 0CFDD733#0100FFFFFFFFFFFF
(1542708724.172997) can0 0CFDD634#01000100FF00F0C3
(1542708724.175257) can0 0CFDD633#01000100FF00F0C3
(1542708724.176009) can0 0CFDD734#0100FFFFFFFFFFFF
(1542708724.184178) can0 0CFDD733#0100FFFFFFFFFFFF
(1542708724.188385) can0 628#015EDDF5ED36081B
(1542708724.193972) can0 0CFDD634#01000100FF00F0C3
(1542708724.195195) can0 0CFDD633#01000100FF00F0C3
(1542708724.195977) can0 0CFDD734#0100FFFFFFFFFFFF
(1542708724.205195) can0 0CFDD733#0100FFFFFFFFFFFF
(1542708724.214946) can0 0CFDD634#01000100FF00F0C3
(1542708724.216092) can0 0CFDD633#01000100FF00F0C3
(1542708724.216903) can0 0CFDD734#0100FFFFFFFFFFFF
(1542708724.225189) can0 0CFDD733#0100FFFFFFFFFFFF
(1542708724.228470) can0 628#018BDD97ED54081B
(1542708724.234869) can0 0CFDD634#01000100FF00F0C3
(1542708724.236058) can0 0CFDD633#01000100FF00F0C3
(1542708724.236952) can0 0CFDD734#0100FFFFFFFFFFFF
(1542708724.246105) can0 0CFDD733#0100FFFFFFFFFFFF
(1542708724.254856) can0 0CFDD634#01000100FF00F0C3
(1542708724.257069) can0 0CFDD633#01000100FF00F0C3
(1542708724.257905) can0 0CFDD734#0100FFFFFFFFFFFF
(1542708724.266115) can0 0CFDD733#0100FFFFFFFFFFFF
(1542708724.268465) can0 628#0102DECEEC39081B
(1542708724.275839) can0 0CFDD634#01000100FF00F0C3
(1542708724.277010) can0 0CFDD633#01000100FF00F0C3
(1542708724.278773) can0 0CFDD734#0100FFFFFFFFFFFF
(1542708724.287064) can0 0CFDD733#0100FFFFFFFFFFFF
(1542708724.295790) can0 0CFDD634#01000100FF00F0C3
(1542708724.296984) can0 0CFDD633#01000100FF00F0C3
(1542708724.298775) can0 0CFDD734#0100FFFFFFFFFFFF
(1542708724.308001) can0 0CFDD733#0100FFFFFFFFFFFF
(1542708724.308466) can0 628#0136DE82EC3E081B
(1542708724.316723) can0 0CFDD634#01000100FF00F0C3
(1542708724.317985) can0 0CFDD633#01000100FF00F0C3
(1542708724.318774) can0 0CFDD734#0100FFFFFFFFFFFF
(1542708724.327978) can0 0CFDD733#0100FFFFFFFFFFFF
(1542708724.337698) can0 0CFDD634#01000100FF00F0C3
(1542708724.338970) can0 0CFDD633#01000100FF00F0C3
(1542708724.339760) can0 0CFDD734#0100FFFFFFFFFFFF
(1542708724.347911) can0 0CFDD733#0100FFFFFFFFFFFF
(1542708724.348435) can0 628#014ADE33EC46081B
(1542708724.357646) can0 0CFDD634#01000100FF00F0C3
(1542708724.358907) can0 0CFDD633#01000100FF00F0C3
(1542708724.360672) can0 0CFDD734#0100FFFFFFFFFFFF
(1542708724.368945) can0 0CFDD733#0100FFFFFFFFFFFF
(1542708724.378620) can0 0CFDD634#01000100FF00F0C3
(1542708724.379850) can0 0CFDD633#01000100FF00F0C3
(1542708724.380670) can0 0CFDD734#0100FFFFFFFFFFFF
(1542708724.388566) can0 628#01BADE76EB92081B
(1542708724.389151) can0 0CFDD733#0100FFFFFFFFFFFF
(1542708724.398603) can0 0CFDD634#01000100FF00F0C3
(1542708724.399843) can0 0CFDD633#01000100FF00F0C3
(1542708724.401580) can0 0CFDD734#0100FFFFFFFFFFFF
(1542708724.409832) can0 0CFDD733#0100FFFFFFFFFFFF
(1542708724.419540) can0 0CFDD634#01000100FF00F0C3
(1542708724.420813) can0 0CFDD633#01000100FF00F0C3
(1542708724.421563) can0 0CFDD734#0100FFFFFFFFFFFF
(1542708724.428492) can0 628#012CDF09EBC7081B
(1542708724.429833) can0 0CFDD733#0100FFFFFFFFFFFF
(1542708724.439551) can0 0CFDD634#01000100FF00F0C3
(1542708724.440778) can0 0CFDD633#01000100FF00F0C3
(1542708724.442514) can0 0CFDD734#0100FFFFFFFFFFFF
(1542708724.450768) can0 0CFDD733#0100FFFFFFFFFFFF
(1542708724.459500) can0 0CFDD634#01000100FF00F0C3
(1542708724.461749) can0 0CFDD633#01000100FF00F0C3
(1542708724.462460) can0 0CFDD734#0100FFFFFFFFFFFF
(1542708724.468514) can0 628#0149DF7FEA02091B
(1542708724.470784) can0 0CFDD733#0100FFFFFFFFFFFF
(1542708724.480476) can0 0CFDD634#01000100FF00F0C3
(1542708724.481760) can0 0CFDD633#01000100FF00F0C3
(1542708724.483436) can0 0CFDD734#0100FFFFFFFFFFFF
(1542708724.491758) can0 0CFDD733#0100FFFFFFFFFFFF
(1542708724.500409) can0 0CFDD634#01000100FF00F0C3
(1542708724.502613) can0 0CFDD633#01000100FF00F0C3
(1542708724.503384) can0 0CFDD734#0100FFFFFFFFFFFF
(1542708724.508467) can0 628#01DDDF4DEA4C091B
(1542708724.511657) can0 0CFDD733#0100FFFFFFFFFFFF
(1542708724.521409) can0 0CFDD634#01000100FF00F0C3
(1542708724.522645) can0 0CFDD633#01000100FF00F0C3
(1542708724.524410) can0 0CFDD734#0100FFFFFFFFFFFF
(1542708724.532680) can0 0CFDD733#0100FFFFFFFFFFFF
(1542708724.541319) can0 0CFDD634#01000100FF00F0C3
(1542708724.543568) can0 0CFDD633#01000100FF00F0C3
(1542708724.544411) can0 0CFDD734#0100FFFFFFFFFFFF
(1542708724.548540) can0 628#0133E095E93F081B
(1542708724.552628) can0 0CFDD733#0100FFFFFFFFFFFF
(1542708724.562295) can0 0CFDD634#01000100FF00F0C3
(1542708724.563547) can0 0CFDD633#01000100FF00F0C3
(1542708724.565288) can0 0CFDD734#0100FFFFFFFFFFFF
(1542708724.573602) can0 0CFDD733#0100FFFFFFFFFFFF
(1542708724.582307) can0 0CFDD634#01000100FF00F0C3
(1542708724.584524) can0 0CFDD633#01000100FF00F0C3
(1542708724.585280) can0 0CFDD734#0100FFFFFFFFFFFF
(1542708724.588543) can0 628#0160E03DE92E081B
(1542708724.593582) can0 0CFDD733#0100FFFFFFFFFFFF
(1542708724.603218) can0 0CFDD634#01000100FF00F0C3
(1542708724.604513) can0 0CFDD633#01000100FF00F0C3
(1542708724.606243) can0 0CFDD734#0100FFFFFFFFFFFF
(1542708724.614550) can0 0CFDD733#0100FFFFFFFFFFFF
(1542708724.623166) can0 0CFDD634#01000100FF00F0C3
(1542708724.625449) can0 0CFDD633#01000100FF00F0C3
(1542708724.626286) can0 0CFDD734#0100FFFFFFFFFFFF
(1542708724.628569) can0 628#01B6E0BEE832081B
(1542708724.634465) can0 0CFDD733#0100FFFFFFFFFFFF
(1542708724.644131) can0 0CFDD634#01000100FF00F0C3
(1542708724.645472) can0 0CFDD633#01000100FF00F0C3
(1542708724.646239) can0 0CFDD734#0100FFFFFFFFFFFF
(1542708724.655476) can0 0CFDD733#0100FFFFFFFFFFFF
(1542708724.665107) can0 0CFDD634#01000100FF00F0C3
(1542708724.666472) can0 0CFDD633#01000100FF00F0C3
(1542708724.667149) can0 0CFDD734#0100FFFFFFFFFFFF
(1542708724.668620) can0 628#0126E133E827081B
(1542708724.675450) can0 0CFDD733#0100FFFFFFFFFFFF
(1542708724.685082) can0 0CFDD634#01000100FF00F0C3
(1542708724.687409) can0 0CFDD633#01000100FF00F0C3
(1542708724.688102) can0 0CFDD734#0100FFFFFFFFFFFF
(1542708724.696351) can0 0CFDD733#0100FFFFFFFFFFFF
(1542708724.705015) can0 0CFDD634#01000100FF00F0C3
(1542708724.708363) can0 0CFDD633#01000100FF00F0C3
(1542708724.708730) can0 628#015CE1E8E731081B
(1542708724.709395) can0 0CFDD734#0100FFFFFFFFFFFF
(1542708724.717297) can0 0CFDD733#0100FFFFFFFFFFFF
(1542708724.726045) can0 0CFDD634#01000100FF00F0C3
(1542708724.728294) can0 0CFDD633#01000100FF00F0C3
(1542708724.730009) can0 0CFDD734#0100FFFFFFFFFFFF
(1542708724.737332) can0 0CFDD733#0100FFFFFFFFFFFF
(1542708724.746956) can0 0CFDD634#01000100FF00F0C3
(1542708724.748258) can0 0CFDD633#01000100FF00F0C3
(1542708724.748725) can0 628#01BEE170E735081B
(1542708724.749949) can0 0CFDD734#0100FFFFFFFFFFFF
(1542708724.757243) can0 0CFDD733#0100FFFFFFFFFFFF
(1542708724.766922) can0 0CFDD634#01000100FF00F0C3
(1542708724.768229) can0 0CFDD633#01000100FF00F0C3
(1542708724.770994) can0 0CFDD734#0100FFFFFFFFFFFF
(1542708724.778243) can0 0CFDD733#0100FFFFFFFFFFFF
(1542708724.787882) can0 0CFDD634#01000100FF00F0C3
(1542708724.788536) can0 628#0127E205E725081B
(1542708724.789190) can0 0CFDD633#01000100FF00F0C3
(1542708724.790851) can0 0CFDD734#0100FFFFFFFFFFFF
(1542708724.798228) can0 0CFDD733#0100FFFFFFFFFFFF
(1542708724.807839) can0 0CFDD634#01000100FF00F0C3
(1542708724.810200) can0 0CFDD633#01000100FF00F0C3
(1542708724.810905) can0 0CFDD734#0100FFFFFFFFFFFF
(1542708724.819201) can0 0CFDD733#0100FFFFFFFFFFFF
(1542708724.827812) can0 0CFDD634#01000100FF00F0C3
(1542708724.828642) can0 628#0194E299E620081B
(1542708724.830139) can0 0CFDD633#01000100FF00F0C3
(1542708724.830847) can0 0CFDD734#0100FFFFFFFFFFFF
(1542708724.840179) can0 0CFDD733#0100FFFFFFFFFFFF
(1542708724.848838) can0 0CFDD634#01000100FF00F0C3
(1542708724.850056) can0 0CFDD633#01000100FF00F0C3
(1542708724.851799) can0 0CFDD734#0100FFFFFFFFFFFF
(1542708724.860127) can0 0CFDD733#0100FFFFFFFFFFFF
(1542708724.868656) can0 628#01D5E246E62F081B
(1542708724.869206) can0 0CFDD634#01000100FF00F0C3
(1542708724.870103) can0 0CFDD633#01000100FF00F0C3
(1542708724.871807) can0 0CFDD734#0100FFFFFFFFFFFF
(1542708724.880101) can0 0CFDD733#0100FFFFFFFFFFFF
(1542708724.889695) can0 0CFDD634#01000100FF00F0C3
(1542708724.891070) can0 0CFDD633#01000100FF00F0C3
(1542708724.891745) can0 0CFDD734#0100FFFFFFFFFFFF
(1542708724.901051) can0 0CFDD733#0100FFFFFFFFFFFF
(1542708724.908614) can0 628#0134E3D7E539081B
(1542708724.909681) can0 0CFDD634#01000100FF00F0C3
(1542708724.912049) can0 0CFDD633#01000100FF00F0C3
(1542708724.912709) can0 0CFDD734#0100FFFFFFFFFFFF
(1542708724.920985) can0 0CFDD733#0100FFFFFFFFFFFF
(1542708724.930640) can0 0CFDD634#01000100FF00F0C3
(1542708724.932017) can0 0CFDD633#01000100FF00F0C3
(1542708724.933703) can0 0CFDD734#0100FFFFFFFFFFFF
(1542708724.941960) can0 0CFDD733#0100FFFFFFFFFFFF
(1542708724.948654) can0 628#01AAE362E53E081B
(1542708724.950618) can0 0CFDD634#01000100FF00F0C3
(1542708724.951901) can0 0CFDD633#01000100FF00F0C3
(1542708724.953651) can0 0CFDD734#0100FFFFFFFFFFFF
(1542708724.961966) can0 0CFDD733#0100FFFFFFFFFFFF
(1542708724.971598) can0 0CFDD634#01000100FF00F0C3
(1542708724.972908) can0 0CFDD633#01000100FF00F0C3
(1542708724.973600) can0 0CFDD734#0100FFFFFFFFFFFF
(1542708724.982944) can0 0CFDD733#0100FFFFFFFFFFFF
(1542708724.988695) can0 628#01F3E3FAE423081B
(1542708724.991572) can0 0CFDD634#01000100FF00F0C3
(1542708724.993889) can0 0CFDD633#01000100FF00F0C3
(1542708724.994624) can0 0CFDD734#0100FFFFFFFFFFFF
(1542708725.002886) can0 0CFDD733#0100FFFFFFFFFFFF
(1542708725.012500) can0 0CFDD634#01000100FF00F0C3
(1542708725.013860) can0 0CFDD633#01000100FF00F0C3
(1542708725.015573) can0 0CFDD734#0100FFFFFFFFFFFF
(1542708725.023800) can0 0CFDD733#0100FFFFFFFFFFFF
(1542708725.028644) can0 628#0152E4A5E435081B
(1542708725.033498) can0 0CFDD634#01000100FF00F0C3
(1542708725.034833) can0 0CFDD633#01000100FF00F0C3
(1542708725.035574) can0 0CFDD734#0100FFFFFFFFFFFF
(1542708725.036108) can0 18FECA34#00FF00000000FFFF
(1542708725.043744) can0 0CFDD733#0100FFFFFFFFFFFF
(1542708725.053468) can0 0CFDD634#01000100FF00F0C3
(1542708725.054769) can0 0CFDD633#01000100FF00F0C3
(1542708725.056414) can0 0CFDD734#0100FFFFFFFFFFFF
(1542708725.064747) can0 0CFDD733#0100FFFFFFFFFFFF
(1542708725.068706) can0 628#01ACE451E4E8081B
(1542708725.073446) can0 0CFDD634#01000100FF00F0C3
(1542708725.075755) can0 0CFDD633#01000100FF00F0C3
(1542708725.076390) can0 0CFDD734#0100FFFFFFFFFFFF
(1542708725.084711) can0 0CFDD733#0100FFFFFFFFFFFF
(1542708725.094445) can0 0CFDD634#01000100FF00F0C3
(1542708725.095754) can0 0CFDD633#01000100FF00F0C3
(1542708725.097442) can0 0CFDD734#0100FFFFFFFFFFFF
(1542708725.105687) can0 0CFDD733#0100FFFFFFFFFFFF
(1542708725.106218) can0 18FECA33#00FF00000000FFFF
(1542708725.108651) can0 628#0163E5A8E351081B
(1542708725.114343) can0 0CFDD634#01000100FF00F0C3
(1542708725.115653) can0 0CFDD633#01000100FF00F0C3
(1542708725.117381) can0 0CFDD734#0100FFFFFFFFFFFF
(1542708725.126631) can0 0CFDD733#0100FFFFFFFFFFFF
(1542708725.135332) can0 0CFDD634#01000100FF00F0C3
(1542708725.136585) can0 0CFDD633#01000100FF00F0C3
(1542708725.137365) can0 0CFDD734#0100FFFFFFFFFFFF
(1542708725.146614) can0 0CFDD733#0100FFFFFFFFFFFF
(1542708725.148609) can0 628#01AAE571E326081B
(1542708725.156227) can0 0CFDD634#01000100FF00F0C3
(1542708725.157623) can0 0CFDD633#01000100FF00F0C3
(1542708725.158273) can0 0CFDD734#0100FFFFFFFFFFFF
(1542708725.166623) can0 0CFDD733#0100FFFFFFFFFFFF
(1542708725.176166) can0 0CFDD634#01000100FF00F0C3
(1542708725.177596) can0 0CFDD633#01000100FF00F0C3
(1542708725.179191) can0 0CFDD734#0100FFFFFFFFFFFF
(1542708725.187598) can0 0CFDD733#0100FFFFFFFFFFFF
(1542708725.188731) can0 628#0102E624E32D081B
(1542708725.196163) can0 0CFDD634#01000100FF00F0C3
(1542708725.198485) can0 0CFDD633#01000100FF00F0C3
(1542708725.199212) can0 0CFDD734#0100FFFFFFFFFFFF
(1542708725.207469) can0 0CFDD733#0100FFFFFFFFFFFF
(1542708725.217109) can0 0CFDD634#01000100FF00F0C3
(1542708725.218453) can0 0CFDD633#01000100FF00F0C3
(1542708725.220151) can0 0CFDD734#0100FFFFFFFFFFFF
(1542708725.228516) can0 0CFDD733#0100FFFFFFFFFFFF
(1542708725.228904) can0 628#0174E6C2E22A081B
(1542708725.238079) can0 0CFDD634#01000100FF00F0C3
(1542708725.239455) can0 0CFDD633#01000100FF00F0C3
(1542708725.240147) can0 0CFDD734#0100FFFFFFFFFFFF
(1542708725.248450) can0 0CFDD733#0100FFFFFFFFFFFF
(1542708725.258117) can0 0CFDD634#01000100FF00F0C3
(1542708725.259432) can0 0CFDD633#01000100FF00F0C3
(1542708725.261095) can0 0CFDD734#0100FFFFFFFFFFFF
(1542708725.268752) can0 628#01DFE65AE227081B
(1542708725.269455) can0 0CFDD733#0100FFFFFFFFFFFF
(1542708725.278031) can0 0CFDD634#01000100FF00F0C3
(1542708725.280388) can0 0CFDD633#01000100FF00F0C3
(1542708725.281076) can0 0CFDD734#0100FFFFFFFFFFFF
(1542708725.290440) can0 0CFDD733#0100FFFFFFFFFFFF
(1542708725.298998) can0 0CFDD634#01000100FF00F0C3
(1542708725.300444) can0 0CFDD633#01000100FF00F0C3
(1542708725.301978) can0 0CFDD734#0100FFFFFFFFFFFF
(1542708725.308717) can0 628#0146E7FFE136081B
(1542708725.310442) can0 0CFDD733#0100FFFFFFFFFFFF
(1542708725.318989) can0 0CFDD634#01000100FF00F0C3
(1542708725.321357) can0 0CFDD633#01000100FF00F0C3
(1542708725.322000) can0 0CFDD734#0100FFFFFFFFFFFF
(1542708725.331353) can0 0CFDD733#0100FFFFFFFFFFFF
(1542708725.339963) can0 0CFDD634#01000100FF00F0C3
(1542708725.341326) can0 0CFDD633#01000100FF00F0C3
(1542708725.342953) can0 0CFDD734#0100FFFFFFFFFFFF
(1542708725.348715) can0 628#01ACE7AEE123091B
(1542708725.351265) can0 0CFDD733#0100FFFFFFFFFFFF
(1542708725.360936) can0 0CFDD634#01000100FF00F0C3
(1542708725.362302) can0 0CFDD633#01000100FF00F0C3
(1542708725.362916) can0 0CFDD734#0100FFFFFFFFFFFF
(1542708725.371275) can0 0CFDD733#0100FFFFFFFFFFFF
(1542708725.380848) can0 0CFDD634#01000100FF00F0C3
(1542708725.382212) can0 0CFDD633#01000100FF00F0C3
(1542708725.382902) can0 0CFDD734#0100FFFFFFFFFFFF
(1542708725.388783) can0 628#0157E830E127081B
(1542708725.392253) can0 0CFDD733#0100FFFFFFFFFFFF
(1542708725.400819) can0 0CFDD634#01000100FF00F0C3
(1542708725.403180) can0 0CFDD633#01000100FF00F0C3
(1542708725.403818) can0 0CFDD734#0100FFFFFFFFFFFF
(1542708725.413186) can0 0CFDD733#0100FFFFFFFFFFFF
(1542708725.421832) can0 0CFDD634#01000100FF00F0C3
(1542708725.423159) can0 0CFDD633#01000100FF00F0C3
(1542708725.424809) can0 0CFDD734#0100FFFFFFFFFFFF
(1542708725.428881) can0 628#0193E8EFE02A081B
(1542708725.433181) can0 0CFDD733#0100FFFFFFFFFFFF
(1542708725.441777) can0 0CFDD634#01000100FF00F0C3
(1542708725.444059) can0 0CFDD633#01000100FF00F0C3
(1542708725.444805) can0 0CFDD734#0100FFFFFFFFFFFF
(1542708725.453099) can0 0CFDD733#0100FFFFFFFFFFFF
(1542708725.462750) can0 0CFDD634#01000100FF00F0C3
(1542708725.464072) can0 0CFDD633#01000100FF00F0C3
(1542708725.465777) can0 0CFDD734#0100FFFFFFFFFFFF
(1542708725.468687) can0 628#0111E9AAE022081B
(1542708725.474019) can0 0CFDD733#0100FFFFFFFFFFFF
(1542708725.483636) can0 0CFDD634#01000100FF00F0C3
(1542708725.485030) can0 0CFDD633#01000100FF00F0C3
(1542708725.485702) can0 0CFDD734#0100FFFFFFFFFFFF
(1542708725.494066) can0 0CFDD733#0100FFFFFFFFFFFF
(1542708725.503584) can0 0CFDD634#01000100FF00F0C3
(1542708725.506039) can0 0CFDD633#01000100FF00F0C3
(1542708725.506649) can0 0CFDD734#0100FFFFFFFFFFFF
(1542708725.508751) can0 628#0194E956E024081B
(1542708725.515066) can0 0CFDD733#0100FFFFFFFFFFFF
(1542708725.523562) can0 0CFDD634#01000100FF00F0C3
(1542708725.526953) can0 0CFDD633#01000100FF00F0C3
(1542708725.527635) can0 0CFDD734#0100FFFFFFFFFFFF
(1542708725.535953) can0 0CFDD733#0100FFFFFFFFFFFF
(1542708725.544621) can0 0CFDD634#01000100FF00F0C3
(1542708725.546924) can0 0CFDD633#01000100FF00F0C3
(1542708725.548625) can0 0CFDD734#0100FFFFFFFFFFFF
(1542708725.549028) can0 628#01FCE904E03B081B
(1542708725.555900) can0 0CFDD733#0100FFFFFFFFFFFF
(1542708725.565568) can0 0CFDD634#01000100FF00F0C3
(1542708725.566914) can0 0CFDD633#01000100FF00F0C3
(1542708725.568594) can0 0CFDD734#0100FFFFFFFFFFFF
(1542708725.575874) can0 0CFDD733#0100FFFFFFFFFFFF
(1542708725.585505) can0 0CFDD634#01000100FF00F0C3
(1542708725.586868) can0 0CFDD633#01000100FF00F0C3
(1542708725.588831) can0 628#016DEAB1DF31081B
(1542708725.589568) can0 0CFDD734#0100FFFFFFFFFFFF
(1542708725.596906) can0 0CFDD733#0100FFFFFFFFFFFF
(1542708725.605490) can0 0CFDD634#01000100FF00F0C3
(1542708725.607795) can0 0CFDD633#01000100FF00F0C3
(1542708725.610490) can0 0CFDD734#0100FFFFFFFFFFFF
