(1542708314.746189) can0 0CFDD634#01000100FF00F0C3
(1542708314.748332) can0 0CFDD733#0100FFFFFFFFFFFF
(1542708314.750197) can0 0CFDD734#0100FFFFFFFFFFFF
(1542708314.751327) can0 0CFDD633#01000100FF00F0C3
(1542708314.753275) can0 18FECA34#00FF00000000FFFF
(1542708314.764314) can0 628#014901E8D83B001B
(1542708314.766148) can0 0CFDD634#01000100FF00F0C3
(1542708314.769333) can0 0CFDD733#0100FFFFFFFFFFFF
(1542708314.770194) can0 0CFDD734#0100FFFFFFFFFFFF
(1542708314.772306) can0 0CFDD633#01000100FF00F0C3
(1542708314.786300) can0 18FECA33#00FF00000000FFFF
(1542708314.787139) can0 0CFDD634#01000100FF00F0C3
(1542708314.789270) can0 0CFDD733#0100FFFFFFFFFFFF
(1542708314.791115) can0 0CFDD734#0100FFFFFFFFFFFF
(1542708314.792262) can0 0CFDD633#01000100FF00F0C3
(1542708314.804298) can0 628#014801EAD83A001B
(1542708314.808167) can0 0CFDD634#01000100FF00F0C3
(1542708314.809274) can0 0CFDD733#0100FFFFFFFFFFFF
(1542708314.811128) can0 0CFDD734#0100FFFFFFFFFFFF
(1542708314.813258) can0 0CFDD633#01000100FF00F0C3
(1542708314.828091) can0 0CFDD634#01000100FF00F0C3
(1542708314.829260) can0 0CFDD733#0100FFFFFFFFFFFF
(1542708314.832158) can0 0CFDD734#0100FFFFFFFFFFFF
(1542708314.833232) can0 0CFDD633#01000100FF00F0C3
(1542708314.844239) can0 628#014801E6D830001B
(1542708314.849006) can0 0CFDD634#01000100FF00F0C3
(1542708314.850173) can0 0CFDD733#0100FFFFFFFFFFFF
(1542708314.852016) can0 0CFDD734#0100FFFFFFFFFFFF
(1542708314.854144) can0 0CFDD633#01000100FF00F0C3
(1542708314.868991) can0 0CFDD634#01000100FF00F0C3
(1542708314.870168) can0 0CFDD733#0100FFFFFFFFFFFF
(1542708314.872012) can0 0CFDD734#0100FFFFFFFFFFFF
(1542708314.874153) can0 0CFDD633#01000100FF00F0C3
(1542708314.884274) can0 628#014A01E7D82E001B
(1542708314.889934) can0 0CFDD634#01000100FF00F0C3
(1542708314.891139) can0 0CFDD733#0100FFFFFFFFFFFF
(1542708314.892036) can0 0CFDD734#0100FFFFFFFFFFFF
(1542708314.895110) can0 0CFDD633#01000100FF00F0C3
(1542708314.909908) can0 0CFDD634#01000100FF00F0C3
(1542708314.911154) can0 0CFDD733#0100FFFFFFFFFFFF
(1542708314.912988) can0 0CFDD734#0100FFFFFFFFFFFF
(1542708314.915083) can0 0CFDD633#01000100FF00F0C3
(1542708314.924441) can0 628#014501EAD82F001B
(1542708314.929862) can0 0CFDD634#01000100FF00F0C3
(1542708314.932079) can0 0CFDD733#0100FFFFFFFFFFFF
(1542708314.932960) can0 0CFDD734#0100FFFFFFFFFFFF
(1542708314.935065) can0 0CFDD633#01000100FF00F0C3
(1542708314.950919) can0 0CFDD634#01000100FF00F0C3
(1542708314.952066) can0 0CFDD733#0100FFFFFFFFFFFF
(1542708314.952972) can0 0CFDD734#0100FFFFFFFFFFFF
(1542708314.956080) can0 0CFDD633#01000100FF00F0C3
(1542708314.964290) can0 628#014A01E9D844001B
(1542708314.971856) can0 0CFDD634#01000100FF00F0C3
(1542708314.973030) can0 0CFDD733#0100FFFFFFFFFFFF
(1542708314.973855) can0 0CFDD734#0100FFFFFFFFFFFF
(1542708314.976993) can0 0CFDD633#01000100FF00F0C3
(1542708314.991840) can0 0CFDD634#01000100FF00F0C3
(1542708314.993038) can0 0CFDD733#0100FFFFFFFFFFFF
(1542708314.994844) can0 0CFDD734#0100FFFFFFFFFFFF
(1542708314.996987) can0 0CFDD633#01000100FF00F0C3
(1542708315.004309) can0 628#014801EAD828001B
(1542708315.011713) can0 0CFDD634#01000100FF00F0C3
(1542708315.013882) can0 0CFDD733#0100FFFFFFFFFFFF
(1542708315.014800) can0 0CFDD734#0100FFFFFFFFFFFF
(1542708315.017918) can0 0CFDD633#01000100FF00F0C3
(1542708315.032722) can0 0CFDD634#01000100FF00F0C3
(1542708315.033887) can0 0CFDD733#0100FFFFFFFFFFFF
(1542708315.034745) can0 0CFDD734#0100FFFFFFFFFFFF
(1542708315.037879) can0 0CFDD633#01000100FF00F0C3
(1542708315.044333) can0 628#014501E9D82E001B
(1542708315.053680) can0 0CFDD634#01000100FF00F0C3
(1542708315.054871) can0 0CFDD733#0100FFFFFFFFFFFF
(1542708315.055743) can0 0CFDD734#0100FFFFFFFFFFFF
(1542708315.057882) can0 0CFDD633#01000100FF00F0C3
(1542708315.073698) can0 0CFDD634#01000100FF00F0C3
(1542708315.074855) can0 0CFDD733#0100FFFFFFFFFFFF
(1542708315.076636) can0 0CFDD734#0100FFFFFFFFFFFF
(1542708315.077854) can0 0CFDD633#01000100FF00F0C3
(1542708315.084350) can0 628#014A01E5D82E001B
(1542708315.093632) can0 0CFDD634#01000100FF00F0C3
(1542708315.095892) can0 0CFDD733#0100FFFFFFFFFFFF
(1542708315.096675) can0 0CFDD734#0100FFFFFFFFFFFF
(1542708315.097801) can0 0CFDD633#01000100FF00F0C3
(1542708315.114623) can0 0CFDD634#01000100FF00F0C3
(1542708315.115855) can0 0CFDD733#0100FFFFFFFFFFFF
(1542708315.117650) can0 0CFDD734#0100FFFFFFFFFFFF
(1542708315.118805) can0 0CFDD633#01000100FF00F0C3
(1542708315.124346) can0 628#014801E7D82C001B
(1542708315.134510) can0 0CFDD634#01000100FF00F0C3
(1542708315.136690) can0 0CFDD733#0100FFFFFFFFFFFF
(1542708315.137534) can0 0CFDD734#0100FFFFFFFFFFFF
(1542708315.138689) can0 0CFDD633#01000100FF00F0C3
(1542708315.155454) can0 0CFDD634#01000100FF00F0C3
(1542708315.156674) can0 0CFDD733#0100FFFFFFFFFFFF
(1542708315.158506) can0 0CFDD734#0100FFFFFFFFFFFF
(1542708315.159657) can0 0CFDD633#01000100FF00F0C3
(1542708315.164348) can0 628#014801E9D833001B
(1542708315.175466) can0 0CFDD634#01000100FF00F0C3
(1542708315.177687) can0 0CFDD733#0100FFFFFFFFFFFF
(1542708315.178509) can0 0CFDD734#0100FFFFFFFFFFFF
(1542708315.179632) can0 0CFDD633#01000100FF00F0C3
(1542708315.196493) can0 0CFDD634#01000100FF00F0C3
(1542708315.197703) can0 0CFDD733#0100FFFFFFFFFFFF
(1542708315.199403) can0 0CFDD734#0100FFFFFFFFFFFF
(1542708315.200581) can0 0CFDD633#01000100FF00F0C3
(1542708315.204349) can0 628#014A01E9D830001B
(1542708315.216463) can0 0CFDD634#01000100FF00F0C3
(1542708315.217646) can0 0CFDD733#0100FFFFFFFFFFFF
(1542708315.219377) can0 0CFDD734#0100FFFFFFFFFFFF
(1542708315.220552) can0 0CFDD633#01000100FF00F0C3
(1542708315.237325) can0 0CFDD634#01000100FF00F0C3
(1542708315.238529) can0 0CFDD733#0100FFFFFFFFFFFF
(1542708315.239370) can0 0CFDD734#0100FFFFFFFFFFFF
(1542708315.241528) can0 0CFDD633#01000100FF00F0C3
(1542708315.244365) can0 628#014901E6D82A001B
(1542708315.257299) can0 0CFDD634#01000100FF00F0C3
(1542708315.259478) can0 0CFDD733#0100FFFFFFFFFFFF
(1542708315.260319) can0 0CFDD734#0100FFFFFFFFFFFF
(1542708315.261474) can0 0CFDD633#01000100FF00F0C3
(1542708315.278239) can0 0CFDD634#01000100FF00F0C3
(1542708315.279473) can0 0CFDD733#0100FFFFFFFFFFFF
(1542708315.281311) can0 0CFDD734#0100FFFFFFFFFFFF
(1542708315.282469) can0 0CFDD633#01000100FF00F0C3
(1542708315.284375) can0 628#014A01EDD833001B
(1542708315.299239) can0 0CFDD634#01000100FF00F0C3
(1542708315.300465) can0 0CFDD733#0100FFFFFFFFFFFF
(1542708315.301306) can0 0CFDD734#0100FFFFFFFFFFFF
(1542708315.302455) can0 0CFDD633#01000100FF00F0C3
(1542708315.319220) can0 0CFDD634#01000100FF00F0C3
(1542708315.320403) can0 0CFDD733#0100FFFFFFFFFFFF
(1542708315.322223) can0 0CFDD734#0100FFFFFFFFFFFF
(1542708315.323372) can0 0CFDD633#01000100FF00F0C3
(1542708315.324368) can0 628#014801E8D82B001B
(1542708315.339149) can0 0CFDD634#01000100FF00F0C3
(1542708315.341358) can0 0CFDD733#0100FFFFFFFFFFFF
(1542708315.342272) can0 0CFDD734#0100FFFFFFFFFFFF
(1542708315.343393) can0 0CFDD633#01000100FF00F0C3
(1542708315.360144) can0 0CFDD634#01000100FF00F0C3
(1542708315.361414) can0 0CFDD733#0100FFFFFFFFFFFF
(1542708315.362220) can0 0CFDD734#0100FFFFFFFFFFFF
(1542708315.364353) can0 0CFDD633#01000100FF00F0C3
(1542708315.364804) can0 628#014A01ECD82D001B
(1542708315.380110) can0 0CFDD634#01000100FF00F0C3
(1542708315.382323) can0 0CFDD733#0100FFFFFFFFFFFF
(1542708315.383168) can0 0CFDD734#0100FFFFFFFFFFFF
(1542708315.384314) can0 0CFDD633#01000100FF00F0C3
(1542708315.401039) can0 0CFDD634#01000100FF00F0C3
(1542708315.402281) can0 0CFDD733#0100FFFFFFFFFFFF
(1542708315.404053) can0 0CFDD734#0100FFFFFFFFFFFF
(1542708315.404544) can0 628#014801EAD835001B
(1542708315.405305) can0 0CFDD633#01000100FF00F0C3
(1542708315.421001) can0 0CFDD634#01000100FF00F0C3
(1542708315.423208) can0 0CFDD733#0100FFFFFFFFFFFF
(1542708315.424050) can0 0CFDD734#0100FFFFFFFFFFFF
(1542708315.426209) can0 0CFDD633#01000100FF00F0C3
(1542708315.442019) can0 0CFDD634#01000100FF00F0C3
(1542708315.443213) can0 0CFDD733#0100FFFFFFFFFFFF
(1542708315.444396) can0 628#014701E5D835001B
(1542708315.445030) can0 0CFDD734#0100FFFFFFFFFFFF
(1542708315.446187) can0 0CFDD633#01000100FF00F0C3
(1542708315.462932) can0 0CFDD634#01000100FF00F0C3
(1542708315.464162) can0 0CFDD733#0100FFFFFFFFFFFF
(1542708315.464979) can0 0CFDD734#0100FFFFFFFFFFFF
(1542708315.466137) can0 0CFDD633#01000100FF00F0C3
(1542708315.482908) can0 0CFDD634#01000100FF00F0C3
(1542708315.484110) can0 0CFDD733#0100FFFFFFFFFFFF
(1542708315.484586) can0 628#014B01E9D82B001B
(1542708315.485954) can0 0CFDD734#0100FFFFFFFFFFFF
(1542708315.487134) can0 0CFDD633#01000100FF00F0C3
(1542708315.503854) can0 0CFDD634#01000100FF00F0C3
(1542708315.505105) can0 0CFDD733#0100FFFFFFFFFFFF
(1542708315.505925) can0 0CFDD734#0100FFFFFFFFFFFF
(1542708315.507106) can0 0CFDD633#01000100FF00F0C3
(1542708315.523822) can0 0CFDD634#01000100FF00F0C3
(1542708315.524372) can0 628#014901ECD82C001B
(1542708315.525140) can0 0CFDD733#0100FFFFFFFFFFFF
(1542708315.525897) can0 0CFDD734#0100FFFFFFFFFFFF
(1542708315.528026) can0 0CFDD633#01000100FF00F0C3
(1542708315.544806) can0 0CFDD634#01000100FF00F0C3
(1542708315.546000) can0 0CFDD733#0100FFFFFFFFFFFF
(1542708315.546817) can0 0CFDD734#0100FFFFFFFFFFFF
(1542708315.548011) can0 0CFDD633#01000100FF00F0C3
(1542708315.564461) can0 628#014B01E6D832001B
(1542708315.565012) can0 0CFDD634#01000100FF00F0C3
(1542708315.566051) can0 0CFDD733#0100FFFFFFFFFFFF
(1542708315.567796) can0 0CFDD734#0100FFFFFFFFFFFF
(1542708315.568977) can0 0CFDD633#01000100FF00F0C3
(1542708315.584761) can0 0CFDD634#01000100FF00F0C3
(1542708315.586990) can0 0CFDD733#0100FFFFFFFFFFFF
(1542708315.587795) can0 0CFDD734#0100FFFFFFFFFFFF
(1542708315.588968) can0 0CFDD633#01000100FF00F0C3
(1542708315.604484) can0 628#014901EBD837001B
(1542708315.605778) can0 0CFDD634#01000100FF00F0C3
(1542708315.606984) can0 0CFDD733#0100FFFFFFFFFFFF
(1542708315.608746) can0 0CFDD734#0100FFFFFFFFFFFF
(1542708315.609904) can0 0CFDD633#01000100FF00F0C3
(1542708315.626751) can0 0CFDD634#01000100FF00F0C3
(1542708315.627907) can0 0CFDD733#0100FFFFFFFFFFFF
(1542708315.628725) can0 0CFDD734#0100FFFFFFFFFFFF
(1542708315.629877) can0 0CFDD633#01000100FF00F0C3
(1542708315.644536) can0 628#014C01ECD830001B
(1542708315.646662) can0 0CFDD634#01000100FF00F0C3
(1542708315.647853) can0 0CFDD733#0100FFFFFFFFFFFF
(1542708315.649642) can0 0CFDD734#0100FFFFFFFFFFFF
(1542708315.650915) can0 0CFDD633#01000100FF00F0C3
(1542708315.667673) can0 0CFDD634#01000100FF00F0C3
(1542708315.668871) can0 0CFDD733#0100FFFFFFFFFFFF
(1542708315.669648) can0 0CFDD734#0100FFFFFFFFFFFF
(1542708315.670890) can0 0CFDD633#01000100FF00F0C3
(1542708315.684503) can0 628#014901EAD839001B
(1542708315.687584) can0 0CFDD634#01000100FF00F0C3
(1542708315.688819) can0 0CFDD733#0100FFFFFFFFFFFF
(1542708315.690612) can0 0CFDD734#0100FFFFFFFFFFFF
(1542708315.691853) can0 0CFDD633#01000100FF00F0C3
(1542708315.707594) can0 0CFDD634#01000100FF00F0C3
(1542708315.709806) can0 0CFDD733#0100FFFFFFFFFFFF
(1542708315.710597) can0 0CFDD734#0100FFFFFFFFFFFF
(1542708315.711891) can0 0CFDD633#01000100FF00F0C3
(1542708315.724510) can0 628#014901E9D838001B
(1542708315.728548) can0 0CFDD634#01000100FF00F0C3
(1542708315.729714) can0 0CFDD733#0100FFFFFFFFFFFF
(1542708315.731523) can0 0CFDD734#0100FFFFFFFFFFFF
(1542708315.732745) can0 0CFDD633#01000100FF00F0C3
(1542708315.748456) can0 0CFDD634#01000100FF00F0C3
(1542708315.750700) can0 0CFDD733#0100FFFFFFFFFFFF
(1542708315.751563) can0 0CFDD734#0100FFFFFFFFFFFF
(1542708315.752130) can0 18FECA34#00FF00000000FFFF
(1542708315.752782) can0 0CFDD633#01000100FF00F0C3
(1542708315.764569) can0 628#014401EBD83A001B
(1542708315.769453) can0 0CFDD634#01000100FF00F0C3
(1542708315.770714) can0 0CFDD733#0100FFFFFFFFFFFF
(1542708315.771496) can0 0CFDD734#0100FFFFFFFFFFFF
(1542708315.773661) can0 0CFDD633#01000100FF00F0C3
(1542708315.784692) can0 18FECA33#00FF00000000FFFF
(1542708315.789427) can0 0CFDD634#01000100FF00F0C3
(1542708315.791698) can0 0CFDD733#0100FFFFFFFFFFFF
(1542708315.792459) can0 0CFDD734#0100FFFFFFFFFFFF
(1542708315.793662) can0 0CFDD633#01000100FF00F0C3
(1542708315.804609) can0 628#014501E7D82E001B
(1542708315.810371) can0 0CFDD634#01000100FF00F0C3
(1542708315.811635) can0 0CFDD733#0100FFFFFFFFFFFF
(1542708315.813401) can0 0CFDD734#0100FFFFFFFFFFFF
(1542708315.814637) can0 0CFDD633#01000100FF00F0C3
(1542708315.830351) can0 0CFDD634#01000100FF00F0C3
(1542708315.832556) can0 0CFDD733#0100FFFFFFFFFFFF
(1542708315.833349) can0 0CFDD734#0100FFFFFFFFFFFF
(1542708315.834557) can0 0CFDD633#01000100FF00F0C3
(1542708315.844505) can0 628#014901EBD832001B
(1542708315.851275) can0 0CFDD634#01000100FF00F0C3
(1542708315.852529) can0 0CFDD733#0100FFFFFFFFFFFF
(1542708315.854273) can0 0CFDD734#0100FFFFFFFFFFFF
(1542708315.855473) can0 0CFDD633#01000100FF00F0C3
(1542708315.872263) can0 0CFDD634#01000100FF00F0C3
(1542708315.873568) can0 0CFDD733#0100FFFFFFFFFFFF
(1542708315.874322) can0 0CFDD734#0100FFFFFFFFFFFF
(1542708315.875505) can0 0CFDD633#01000100FF00F0C3
(1542708315.884497) can0 628#014901EAD82C001B
(1542708315.892231) can0 0CFDD634#01000100FF00F0C3
(1542708315.893489) can0 0CFDD733#0100FFFFFFFFFFFF
(1542708315.895237) can0 0CFDD734#0100FFFFFFFFFFFF
(1542708315.896427) can0 0CFDD633#01000100FF00F0C3
(1542708315.912133) can0 0CFDD634#01000100FF00F0C3
(1542708315.914429) can0 0CFDD733#0100FFFFFFFFFFFF
(1542708315.915183) can0 0CFDD734#0100FFFFFFFFFFFF
(1542708315.916395) can0 0CFDD633#01000100FF00F0C3
(1542708315.924502) can0 628#014701EBD82C001B
(1542708315.933125) can0 0CFDD634#01000100FF00F0C3
(1542708315.934396) can0 0CFDD733#0100FFFFFFFFFFFF
(1542708315.936129) can0 0CFDD734#0100FFFFFFFFFFFF
(1542708315.937343) can0 0CFDD633#01000100FF00F0C3
(1542708315.953077) can0 0CFDD634#01000100FF00F0C3
(1542708315.955309) can0 0CFDD733#0100FFFFFFFFFFFF
(1542708315.956097) can0 0CFDD734#0100FFFFFFFFFFFF
(1542708315.957357) can0 0CFDD633#01000100FF00F0C3
(1542708315.964536) can0 628#014C01E8D840001B
(1542708315.974062) can0 0CFDD634#01000100FF00F0C3
(1542708315.975355) can0 0CFDD733#0100FFFFFFFFFFFF
(1542708315.977092) can0 0CFDD734#0100FFFFFFFFFFFF
(1542708315.978328) can0 0CFDD633#01000100FF00F0C3
(1542708315.995054) can0 0CFDD634#01000100FF00F0C3
(1542708315.996287) can0 0CFDD733#0100FFFFFFFFFFFF
(1542708315.997073) can0 0CFDD734#0100FFFFFFFFFFFF
(1542708315.998266) can0 0CFDD633#01000100FF00F0C3
(1542708316.004540) can0 628#014901ECD82F001B
(1542708316.014980) can0 0CFDD634#01000100FF00F0C3
(1542708316.016241) can0 0CFDD733#0100FFFFFFFFFFFF
(1542708316.017980) can0 0CFDD734#0100FFFFFFFFFFFF
(1542708316.019216) can0 0CFDD633#01000100FF00F0C3
(1542708316.034936) can0 0CFDD634#01000100FF00F0C3
(1542708316.037211) can0 0CFDD733#0100FFFFFFFFFFFF
(1542708316.037987) can0 0CFDD734#0100FFFFFFFFFFFF
(1542708316.039181) can0 0CFDD633#01000100FF00F0C3
(1542708316.044561) can0 628#014401E9D836001B
(1542708316.055940) can0 0CFDD634#01000100FF00F0C3
(1542708316.057268) can0 0CFDD733#0100FFFFFFFFFFFF
(1542708316.058925) can0 0CFDD734#0100FFFFFFFFFFFF
(1542708316.060189) can0 0CFDD633#01000100FF00F0C3
(1542708316.075849) can0 0CFDD634#01000100FF00F0C3
(1542708316.078182) can0 0CFDD733#0100FFFFFFFFFFFF
(1542708316.078932) can0 0CFDD734#0100FFFFFFFFFFFF
(1542708316.080146) can0 0CFDD633#01000100FF00F0C3
(1542708316.084597) can0 628#014D01E8D82C001B
(1542708316.096842) can0 0CFDD634#01000100FF00F0C3
(1542708316.098115) can0 0CFDD733#0100FFFFFFFFFFFF
(1542708316.099874) can0 0CFDD734#0100FFFFFFFFFFFF
(1542708316.101095) can0 0CFDD633#01000100FF00F0C3
(1542708316.117824) can0 0CFDD634#01000100FF00F0C3
(1542708316.119056) can0 0CFDD733#0100FFFFFFFFFFFF
(1542708316.119825) can0 0CFDD734#0100FFFFFFFFFFFF
(1542708316.121078) can0 0CFDD633#01000100FF00F0C3
(1542708316.124588) can0 628#014B01E9D82D001B
(1542708316.137820) can0 0CFDD634#01000100FF00F0C3
(1542708316.139030) can0 0CFDD733#0100FFFFFFFFFFFF
(1542708316.140820) can0 0CFDD734#0100FFFFFFFFFFFF
(1542708316.142031) can0 0CFDD633#01000100FF00F0C3
(1542708316.158795) can0 0CFDD634#01000100FF00F0C3
(1542708316.160049) can0 0CFDD733#0100FFFFFFFFFFFF
(1542708316.160828) can0 0CFDD734#0100FFFFFFFFFFFF
(1542708316.163006) can0 0CFDD633#01000100FF00F0C3
(1542708316.164559) can0 628#014401E9D839001B
(1542708316.178772) can0 0CFDD634#01000100FF00F0C3
(1542708316.180004) can0 0CFDD733#0100FFFFFFFFFFFF
(1542708316.181685) can0 0CFDD734#0100FFFFFFFFFFFF
(1542708316.182955) can0 0CFDD633#01000100FF00F0C3
(1542708316.198667) can0 0CFDD634#01000100FF00F0C3
(1542708316.200948) can0 0CFDD733#0100FFFFFFFFFFFF
(1542708316.201708) can0 0CFDD734#0100FFFFFFFFFFFF
(1542708316.202933) can0 0CFDD633#01000100FF00F0C3
(1542708316.204581) can0 628#017F0117D99BFF1B
(1542708316.219630) can0 0CFDD634#01000100FF00F0C3
(1542708316.220962) can0 0CFDD733#0100FFFFFFFFFFFF
(1542708316.222666) can0 0CFDD734#0100FFFFFFFFFFFF
(1542708316.223919) can0 0CFDD633#01000100FF00F0C3
(1542708316.240622) can0 0CFDD634#01000100FF00F0C3
(1542708316.241881) can0 0CFDD733#0100FFFFFFFFFFFF
(1542708316.242653) can0 0CFDD734#0100FFFFFFFFFFFF
(1542708316.243905) can0 0CFDD633#01000100FF00F0C3
(1542708316.244678) can0 628#014E0509D9B3FC1B
(1542708316.260567) can0 0CFDD634#01000100FF00F0C3
(1542708316.261870) can0 0CFDD733#0100FFFFFFFFFFFF
(1542708316.263547) can0 0CFDD734#0100FFFFFFFFFFFF
(1542708316.264818) can0 0CFDD633#01000100FF00F0C3
(1542708316.281500) can0 0CFDD634#01000100FF00F0C3
(1542708316.282821) can0 0CFDD733#0100FFFFFFFFFFFF
(1542708316.283566) can0 0CFDD734#0100FFFFFFFFFFFF
(1542708316.284585) can0 628#01CA0504D9DBF81B
(1542708316.285159) can0 0CFDD633#01000100FF00F0C3
(1542708316.301492) can0 0CFDD634#01000100FF00F0C3
(1542708316.302812) can0 0CFDD733#0100FFFFFFFFFFFF
(1542708316.304499) can0 0CFDD734#0100FFFFFFFFFFFF
(1542708316.305841) can0 0CFDD633#01000100FF00F0C3
(1542708316.321464) can0 0CFDD634#01000100FF00F0C3
(1542708316.323802) can0 0CFDD733#0100FFFFFFFFFFFF
(1542708316.324484) can0 0CFDD734#0100FFFFFFFFFFFF
(1542708316.324960) can0 628#015200E6D8B4F71B
(1542708316.325799) can0 0CFDD633#01000100FF00F0C3
(1542708316.342441) can0 0CFDD634#01000100FF00F0C3
(1542708316.343708) can0 0CFDD733#0100FFFFFFFFFFFF
(1542708316.345471) can0 0CFDD734#0100FFFFFFFFFFFF
(1542708316.346696) can0 0CFDD633#01000100FF00F0C3
(1542708316.362467) can0 0CFDD634#01000100FF00F0C3
(1542708316.364685) can0 0CFDD733#0100FFFFFFFFFFFF
(1542708316.365165) can0 628#01D3FC7AD9A6F81B
(1542708316.365799) can0 0CFDD734#0100FFFFFFFFFFFF
(1542708316.366672) can0 0CFDD633#01000100FF00F0C3
(1542708316.383346) can0 0CFDD634#01000100FF00F0C3
(1542708316.384629) can0 0CFDD733#0100FFFFFFFFFFFF
(1542708316.386346) can0 0CFDD734#0100FFFFFFFFFFFF
(1542708316.387639) can0 0CFDD633#01000100FF00F0C3
(1542708316.403300) can0 0CFDD634#01000100FF00F0C3
(1542708316.404743) can0 628#015300DCD8C8F81B
(1542708316.405618) can0 0CFDD733#0100FFFFFFFFFFFF
(1542708316.406366) can0 0CFDD734#0100FFFFFFFFFFFF
(1542708316.407600) can0 0CFDD633#01000100FF00F0C3
(1542708316.424262) can0 0CFDD634#01000100FF00F0C3
(1542708316.425627) can0 0CFDD733#0100FFFFFFFFFFFF
(1542708316.427289) can0 0CFDD734#0100FFFFFFFFFFFF
(1542708316.428568) can0 0CFDD633#01000100FF00F0C3
(1542708316.444246) can0 0CFDD634#01000100FF00F0C3
(1542708316.444694) can0 628#01D000B2D8E6F71B
(1542708316.445587) can0 0CFDD733#0100FFFFFFFFFFFF
(1542708316.447234) can0 0CFDD734#0100FFFFFFFFFFFF
(1542708316.448526) can0 0CFDD633#01000100FF00F0C3
(1542708316.465191) can0 0CFDD634#01000100FF00F0C3
(1542708316.466502) can0 0CFDD733#0100FFFFFFFFFFFF
(1542708316.467240) can0 0CFDD734#0100FFFFFFFFFFFF
(1542708316.469488) can0 0CFDD633#01000100FF00F0C3
(1542708316.484667) can0 628#019BFC51D91BF81B
(1542708316.486165) can0 0CFDD634#01000100FF00F0C3
(1542708316.487497) can0 0CFDD733#0100FFFFFFFFFFFF
(1542708316.488208) can0 0CFDD734#0100FFFFFFFFFFFF
(1542708316.489470) can0 0CFDD633#01000100FF00F0C3
(1542708316.507159) can0 0CFDD634#01000100FF00F0C3
(1542708316.508414) can0 0CFDD733#0100FFFFFFFFFFFF
(1542708316.509210) can0 0CFDD734#0100FFFFFFFFFFFF
(1542708316.510461) can0 0CFDD633#01000100FF00F0C3
(1542708316.524728) can0 628#016DFC5ED9C9F81B
(1542708316.528060) can0 0CFDD634#01000100FF00F0C3
(1542708316.529421) can0 0CFDD733#0100FFFFFFFFFFFF
(1542708316.530154) can0 0CFDD734#0100FFFFFFFFFFFF
(1542708316.531367) can0 0CFDD633#01000100FF00F0C3
(1542708316.548064) can0 0CFDD634#01000100FF00F0C3
(1542708316.550369) can0 0CFDD733#0100FFFFFFFFFFFF
(1542708316.551076) can0 0CFDD734#0100FFFFFFFFFFFF
(1542708316.552343) can0 0CFDD633#01000100FF00F0C3
(1542708316.564681) can0 628#01EFFEC8D860F81B
(1542708316.569016) can0 0CFDD634#01000100FF00F0C3
(1542708316.570319) can0 0CFDD733#0100FFFFFFFFFFFF
(1542708316.571049) can0 0CFDD734#0100FFFFFFFFFFFF
(1542708316.573312) can0 0CFDD633#01000100FF00F0C3
(1542708316.588987) can0 0CFDD634#01000100FF00F0C3
(1542708316.591336) can0 0CFDD733#0100FFFFFFFFFFFF
(1542708316.592044) can0 0CFDD734#0100FFFFFFFFFFFF
(1542708316.593373) can0 0CFDD633#01000100FF00F0C3
(1542708316.604697) can0 628#0102FD0ED9FEF71B
(1542708316.610035) can0 0CFDD634#01000100FF00F0C3
(1542708316.611301) can0 0CFDD733#0100FFFFFFFFFFFF
(1542708316.612016) can0 0CFDD734#0100FFFFFFFFFFFF
(1542708316.613268) can0 0CFDD633#01000100FF00F0C3
(1542708316.629967) can0 0CFDD634#01000100FF00F0C3
(1542708316.632206) can0 0CFDD733#0100FFFFFFFFFFFF
(1542708316.632955) can0 0CFDD734#0100FFFFFFFFFFFF
(1542708316.634220) can0 0CFDD633#01000100FF00F0C3
(1542708316.644719) can0 628#0134FAB6D96FF81B
(1542708316.650878) can0 0CFDD634#01000100FF00F0C3
(1542708316.652204) can0 0CFDD733#0100FFFFFFFFFFFF
(1542708316.652926) can0 0CFDD734#0100FFFFFFFFFFFF
(1542708316.655180) can0 0CFDD633#01000100FF00F0C3
(1542708316.670842) can0 0CFDD634#01000100FF00F0C3
(1542708316.672193) can0 0CFDD733#0100FFFFFFFFFFFF
(1542708316.673899) can0 0CFDD734#0100FFFFFFFFFFFF
(1542708316.675185) can0 0CFDD633#01000100FF00F0C3
(1542708316.684808) can0 628#01A0FB29D9ABF81B
(1542708316.691823) can0 0CFDD634#01000100FF00F0C3
(1542708316.693155) can0 0CFDD733#0100FFFFFFFFFFFF
(1542708316.693842) can0 0CFDD734#0100FFFFFFFFFFFF
(1542708316.696080) can0 0CFDD633#01000100FF00F0C3
(1542708316.711816) can0 0CFDD634#01000100FF00F0C3
(1542708316.714090) can0 0CFDD733#0100FFFFFFFFFFFF
(1542708316.714799) can0 0CFDD734#0100FFFFFFFFFFFF
(1542708316.716079) can0 0CFDD633#01000100FF00F0C3
(1542708316.724737) can0 628#013EFC13D928F81B
(1542708316.732725) can0 0CFDD634#01000100FF00F0C3
(1542708316.734079) can0 0CFDD733#0100FFFFFFFFFFFF
(1542708316.734812) can0 0CFDD734#0100FFFFFFFFFFFF
(1542708316.737064) can0 0CFDD633#01000100FF00F0C3
(1542708316.749773) can0 18FECA34#00FF00000000FFFF
(1542708316.752731) can0 0CFDD634#01000100FF00F0C3
(1542708316.755045) can0 0CFDD733#0100FFFFFFFFFFFF
(1542708316.755851) can0 0CFDD734#0100FFFFFFFFFFFF
(1542708316.757093) can0 0CFDD633#01000100FF00F0C3
(1542708316.764741) can0 628#019BF9B7D933F81B
(1542708316.773688) can0 0CFDD634#01000100FF00F0C3
(1542708316.775057) can0 0CFDD733#0100FFFFFFFFFFFF
(1542708316.775748) can0 0CFDD734#0100FFFFFFFFFFFF
(1542708316.778004) can0 0CFDD633#01000100FF00F0C3
(1542708316.783008) can0 18FECA33#00FF00000000FFFF
(1542708316.793698) can0 0CFDD634#01000100FF00F0C3
(1542708316.796058) can0 0CFDD733#0100FFFFFFFFFFFF
(1542708316.796681) can0 0CFDD734#0100FFFFFFFFFFFF
(1542708316.797980) can0 0CFDD633#01000100FF00F0C3
(1542708316.804866) can0 628#01F3F8BBD9AAF81B
(1542708316.814631) can0 0CFDD634#01000100FF00F0C3
(1542708316.816016) can0 0CFDD733#0100FFFFFFFFFFFF
(1542708316.816658) can0 0CFDD734#0100FFFFFFFFFFFF
(1542708316.818906) can0 0CFDD633#01000100FF00F0C3
(1542708316.834642) can0 0CFDD634#01000100FF00F0C3
(1542708316.836941) can0 0CFDD733#0100FFFFFFFFFFFF
(1542708316.837642) can0 0CFDD734#0100FFFFFFFFFFFF
(1542708316.838871) can0 0CFDD633#01000100FF00F0C3
(1542708316.844864) can0 628#0152FA58D95DF81B
(1542708316.855595) can0 0CFDD634#01000100FF00F0C3
(1542708316.856964) can0 0CFDD733#0100FFFFFFFFFFFF
(1542708316.858568) can0 0CFDD734#0100FFFFFFFFFFFF
(1542708316.859874) can0 0CFDD633#01000100FF00F0C3
(1542708316.875564) can0 0CFDD634#01000100FF00F0C3
(1542708316.877911) can0 0CFDD733#0100FFFFFFFFFFFF
(1542708316.878548) can0 0CFDD734#0100FFFFFFFFFFFF
(1542708316.879820) can0 0CFDD633#01000100FF00F0C3
(1542708316.884838) can0 628#012FF9B8D90BF81B
(1542708316.896516) can0 0CFDD634#01000100FF00F0C3
(1542708316.897885) can0 0CFDD733#0100FFFFFFFFFFFF
(1542708316.899528) can0 0CFDD734#0100FFFFFFFFFFFF
(1542708316.900837) can0 0CFDD633#01000100FF00F0C3
(1542708316.916401) can0 0CFDD634#01000100FF00F0C3
(1542708316.918795) can0 0CFDD733#0100FFFFFFFFFFFF
(1542708316.919453) can0 0CFDD734#0100FFFFFFFFFFFF
(1542708316.920794) can0 0CFDD633#01000100FF00F0C3
(1542708316.924787) can0 628#0128F728DA6BF81B
(1542708316.937360) can0 0CFDD634#01000100FF00F0C3
(1542708316.938799) can0 0CFDD733#0100FFFFFFFFFFFF
(1542708316.940404) can0 0CFDD734#0100FFFFFFFFFFFF
(1542708316.941715) can0 0CFDD633#01000100FF00F0C3
(1542708316.957363) can0 0CFDD634#01000100FF00F0C3
(1542708316.959716) can0 0CFDD733#0100FFFFFFFFFFFF
(1542708316.960391) can0 0CFDD734#0100FFFFFFFFFFFF
(1542708316.961687) can0 0CFDD633#01000100FF00F0C3
(1542708316.964825) can0 628#01D8F7DBD988F81B
(1542708316.978379) can0 0CFDD634#01000100FF00F0C3
(1542708316.979660) can0 0CFDD733#0100FFFFFFFFFFFF
(1542708316.980335) can0 0CFDD734#0100FFFFFFFFFFFF
(1542708316.982671) can0 0CFDD633#01000100FF00F0C3
(1542708316.998337) can0 0CFDD634#01000100FF00F0C3
(1542708317.000641) can0 0CFDD733#0100FFFFFFFFFFFF
(1542708317.001328) can0 0CFDD734#0100FFFFFFFFFFFF
(1542708317.002640) can0 0CFDD633#01000100FF00F0C3
(1542708317.004827) can0 628#01FEF7FCD948F81B
(1542708317.019278) can0 0CFDD634#01000100FF00F0C3
(1542708317.020624) can0 0CFDD733#0100FFFFFFFFFFFF
(1542708317.021298) can0 0CFDD734#0100FFFFFFFFFFFF
(1542708317.022611) can0 0CFDD633#01000100FF00F0C3
(1542708317.039222) can0 0CFDD634#01000100FF00F0C3
(1542708317.041576) can0 0CFDD733#0100FFFFFFFFFFFF
(1542708317.042262) can0 0CFDD734#0100FFFFFFFFFFFF
(1542708317.043547) can0 0CFDD633#01000100FF00F0C3
(1542708317.044826) can0 628#011FF660DA3BF81B
(1542708317.060225) can0 0CFDD634#01000100FF00F0C3
(1542708317.061581) can0 0CFDD733#0100FFFFFFFFFFFF
(1542708317.062238) can0 0CFDD734#0100FFFFFFFFFFFF
(1542708317.064557) can0 0CFDD633#01000100FF00F0C3
(1542708317.080161) can0 0CFDD634#01000100FF00F0C3
(1542708317.082555) can0 0CFDD733#0100FFFFFFFFFFFF
(1542708317.083176) can0 0CFDD734#0100FFFFFFFFFFFF
(1542708317.084500) can0 0CFDD633#01000100FF00F0C3
(1542708317.084943) can0 628#019EF57DDA8EF81B
(1542708317.101089) can0 0CFDD634#01000100FF00F0C3
(1542708317.102474) can0 0CFDD733#0100FFFFFFFFFFFF
(1542708317.103105) can0 0CFDD734#0100FFFFFFFFFFFF
(1542708317.105421) can0 0CFDD633#01000100FF00F0C3
(1542708317.121021) can0 0CFDD634#01000100FF00F0C3
(1542708317.123428) can0 0CFDD733#0100FFFFFFFFFFFF
(1542708317.124052) can0 0CFDD734#0100FFFFFFFFFFFF
(1542708317.124849) can0 628#0137F665DA55F81B
(1542708317.125401) can0 0CFDD633#01000100FF00F0C3
(1542708317.141076) can0 0CFDD634#01000100FF00F0C3
(1542708317.143401) can0 0CFDD733#0100FFFFFFFFFFFF
(1542708317.144042) can0 0CFDD734#0100FFFFFFFFFFFF
(1542708317.146360) can0 0CFDD633#01000100FF00F0C3
(1542708317.160994) can0 0CFDD634#01000100FF00F0C3
(1542708317.163359) can0 0CFDD733#0100FFFFFFFFFFFF
(1542708317.164021) can0 0CFDD734#0100FFFFFFFFFFFF
(1542708317.164824) can0 628#013EF5A3DA26F81B
(1542708317.166430) can0 0CFDD633#01000100FF00F0C3
(1542708317.180919) can0 0CFDD634#01000100FF00F0C3
(1542708317.184341) can0 0CFDD733#0100FFFFFFFFFFFF
(1542708317.185001) can0 0CFDD734#0100FFFFFFFFFFFF
(1542708317.186344) can0 0CFDD633#01000100FF00F0C3
(1542708317.201952) can0 0CFDD634#01000100FF00F0C3
(1542708317.204262) can0 0CFDD733#0100FFFFFFFFFFFF
(1542708317.204945) can0 0CFDD734#0100FFFFFFFFFFFF
(1542708317.205394) can0 628#01E4F30FDB6AF81B
(1542708317.206267) can0 0CFDD633#01000100FF00F0C3
(1542708317.221956) can0 0CFDD634#01000100FF00F0C3
(1542708317.225320) can0 0CFDD733#0100FFFFFFFFFFFF
(1542708317.225945) can0 0CFDD734#0100FFFFFFFFFFFF
(1542708317.227257) can0 0CFDD633#01000100FF00F0C3
(1542708317.242871) can0 0CFDD634#01000100FF00F0C3
(1542708317.244845) can0 628#0133F4C6DAA2F81B
(1542708317.246233) can0 0CFDD733#0100FFFFFFFFFFFF
(1542708317.246849) can0 0CFDD734#0100FFFFFFFFFFFF
(1542708317.248203) can0 0CFDD633#01000100FF00F0C3
(1542708317.262805) can0 0CFDD634#01000100FF00F0C3
(1542708317.267177) can0 0CFDD733#0100FFFFFFFFFFFF
(1542708317.267839) can0 0CFDD734#0100FFFFFFFFFFFF
(1542708317.269178) can0 0CFDD633#01000100FF00F0C3
(1542708317.283801) can0 0CFDD634#01000100FF00F0C3
(1542708317.284962) can0 628#01E4F338DB78F81B
(1542708317.288162) can0 0CFDD733#0100FFFFFFFFFFFF
(1542708317.288808) can0 0CFDD734#0100FFFFFFFFFFFF
(1542708317.290132) can0 0CFDD633#01000100FF00F0C3
(1542708317.303703) can0 0CFDD634#01000100FF00F0C3
(1542708317.308125) can0 0CFDD733#0100FFFFFFFFFFFF
(1542708317.309846) can0 0CFDD734#0100FFFFFFFFFFFF
(1542708317.311133) can0 0CFDD633#01000100FF00F0C3
(1542708317.324734) can0 0CFDD634#01000100FF00F0C3
(1542708317.325160) can0 628#01B3F26EDB87F81B
(1542708317.328088) can0 0CFDD733#0100FFFFFFFFFFFF
(1542708317.329712) can0 0CFDD734#0100FFFFFFFFFFFF
(1542708317.331076) can0 0CFDD633#01000100FF00F0C3
(1542708317.344672) can0 0CFDD634#01000100FF00F0C3
(1542708317.348087) can0 0CFDD733#0100FFFFFFFFFFFF
(1542708317.350657) can0 0CFDD734#0100FFFFFFFFFFFF
(1542708317.352043) can0 0CFDD633#01000100FF00F0C3
(1542708317.364872) can0 628#0161F292DB7AF81B
(1542708317.365634) can0 0CFDD634#01000100FF00F0C3
(1542708317.367998) can0 0CFDD733#0100FFFFFFFFFFFF
(1542708317.370657) can0 0CFDD734#0100FFFFFFFFFFFF
(1542708317.372055) can0 0CFDD633#01000100FF00F0C3
(1542708317.386627) can0 0CFDD634#01000100FF00F0C3
(1542708317.388020) can0 0CFDD733#0100FFFFFFFFFFFF
(1542708317.390627) can0 0CFDD734#0100FFFFFFFFFFFF
(1542708317.392020) can0 0CFDD633#01000100FF00F0C3
(1542708317.404901) can0 628#0152F2B8DB62F81B
(1542708317.406616) can0 0CFDD634#01000100FF00F0C3
(1542708317.407993) can0 0CFDD733#0100FFFFFFFFFFFF
(1542708317.411641) can0 0CFDD734#0100FFFFFFFFFFFF
(1542708317.413014) can0 0CFDD633#01000100FF00F0C3
(1542708317.426551) can0 0CFDD634#01000100FF00F0C3
(1542708317.428951) can0 0CFDD733#0100FFFFFFFFFFFF
(1542708317.431591) can0 0CFDD734#0100FFFFFFFFFFFF
(1542708317.432951) can0 0CFDD633#01000100FF00F0C3
(1542708317.444950) can0 628#016AF1FBDB5FF81B
(1542708317.446562) can0 0CFDD634#01000100FF00F0C3
(1542708317.448966) can0 0CFDD733#0100FFFFFFFFFFFF
(1542708317.452567) can0 0CFDD734#0100FFFFFFFFFFFF
(1542708317.453898) can0 0CFDD633#01000100FF00F0C3
(1542708317.466536) can0 0CFDD634#01000100FF00F0C3
(1542708317.468940) can0 0CFDD733#0100FFFFFFFFFFFF
(1542708317.472541) can0 0CFDD734#0100FFFFFFFFFFFF
(1542708317.473909) can0 0CFDD633#01000100FF00F0C3
(1542708317.484927) can0 628#01B1F056DC71F81B
(1542708317.486472) can0 0CFDD634#01000100FF00F0C3
(1542708317.489836) can0 0CFDD733#0100FFFFFFFFFFFF
(1542708317.493485) can0 0CFDD734#0100FFFFFFFFFFFF
(1542708317.494882) can0 0CFDD633#01000100FF00F0C3
(1542708317.507457) can0 0CFDD634#01000100FF00F0C3
(1542708317.509801) can0 0CFDD733#0100FFFFFFFFFFFF
(1542708317.513459) can0 0CFDD734#0100FFFFFFFFFFFF
(1542708317.514884) can0 0CFDD633#01000100FF00F0C3
(1542708317.524926) can0 628#01B0F040DC71F81B
(1542708317.528436) can0 0CFDD634#01000100FF00F0C3
(1542708317.529834) can0 0CFDD733#0100FFFFFFFFFFFF
(1542708317.534370) can0 0CFDD734#0100FFFFFFFFFFFF
(1542708317.535734) can0 0CFDD633#01000100FF00F0C3
(1542708317.548406) can0 0CFDD634#01000100FF00F0C3
(1542708317.550760) can0 0CFDD733#0100FFFFFFFFFFFF
(1542708317.555380) can0 0CFDD734#0100FFFFFFFFFFFF
(1542708317.556772) can0 0CFDD633#01000100FF00F0C3
(1542708317.565017) can0 628#01FEEF7FDC7FF81B
(1542708317.569317) can0 0CFDD634#01000100FF00F0C3
(1542708317.570734) can0 0CFDD733#0100FFFFFFFFFFFF
(1542708317.575356) can0 0CFDD734#0100FFFFFFFFFFFF
(1542708317.576745) can0 0CFDD633#01000100FF00F0C3
(1542708317.589247) can0 0CFDD634#01000100FF00F0C3
(1542708317.591677) can0 0CFDD733#0100FFFFFFFFFFFF
(1542708317.595326) can0 0CFDD734#0100FFFFFFFFFFFF
(1542708317.596691) can0 0CFDD633#01000100FF00F0C3
(1542708317.604931) can0 628#013CEF06DD83F81B
(1542708317.610273) can0 0CFDD634#01000100FF00F0C3
(1542708317.611718) can0 0CFDD733#0100FFFFFFFFFFFF
(1542708317.616304) can0 0CFDD734#0100FFFFFFFFFFFF
(1542708317.617665) can0 0CFDD633#01000100FF00F0C3
(1542708317.630249) can0 0CFDD634#01000100FF00F0C3
(1542708317.632644) can0 0CFDD733#0100FFFFFFFFFFFF
(1542708317.636251) can0 0CFDD734#0100FFFFFFFFFFFF
(1542708317.637603) can0 0CFDD633#01000100FF00F0C3
(1542708317.645014) can0 628#010FEF0CDD7FF81B
(1542708317.651152) can0 0CFDD634#01000100FF00F0C3
(1542708317.652645) can0 0CFDD733#0100FFFFFFFFFFFF
(1542708317.657194) can0 0CFDD734#0100FFFFFFFFFFFF
(1542708317.658531) can0 0CFDD633#01000100FF00F0C3
(1542708317.671118) can0 0CFDD634#01000100FF00F0C3
(1542708317.673537) can0 0CFDD733#0100FFFFFFFFFFFF
(1542708317.677122) can0 0CFDD734#0100FFFFFFFFFFFF
(1542708317.679511) can0 0CFDD633#01000100FF00F0C3
(1542708317.684986) can0 628#01B5EE3FDD52F81B
(1542708317.692033) can0 0CFDD634#01000100FF00F0C3
(1542708317.693561) can0 0CFDD733#0100FFFFFFFFFFFF
(1542708317.698173) can0 0CFDD734#0100FFFFFFFFFFFF
(1542708317.699488) can0 0CFDD633#01000100FF00F0C3
(1542708317.712051) can0 0CFDD634#01000100FF00F0C3
(1542708317.714472) can0 0CFDD733#0100FFFFFFFFFFFF
(1542708317.719026) can0 0CFDD734#0100FFFFFFFFFFFF
(1542708317.720438) can0 0CFDD633#01000100FF00F0C3
(1542708317.725137) can0 628#01DFEDA2DD89F81B
(1542708317.733068) can0 0CFDD634#01000100FF00F0C3
(1542708317.734483) can0 0CFDD733#0100FFFFFFFFFFFF
(1542708317.739000) can0 0CFDD734#0100FFFFFFFFFFFF
(1542708317.741413) can0 0CFDD633#01000100FF00F0C3
(1542708317.747980) can0 18FECA34#00FF00000000FFFF
(1542708317.753037) can0 0CFDD634#01000100FF00F0C3
(1542708317.755457) can0 0CFDD733#0100FFFFFFFFFFFF
(1542708317.758990) can0 0CFDD734#0100FFFFFFFFFFFF
(1542708317.761394) can0 0CFDD633#01000100FF00F0C3
(1542708317.765011) can0 628#0156EDE6DDCDF81B
(1542708317.773991) can0 0CFDD634#01000100FF00F0C3
(1542708317.775433) can0 0CFDD733#0100FFFFFFFFFFFF
(1542708317.779951) can0 0CFDD734#0100FFFFFFFFFFFF
(1542708317.781368) can0 0CFDD633#01000100FF00F0C3
(1542708317.781939) can0 18FECA33#00FF00000000FFFF
(1542708317.793959) can0 0CFDD634#01000100FF00F0C3
(1542708317.796385) can0 0CFDD733#0100FFFFFFFFFFFF
(1542708317.799961) can0 0CFDD734#0100FFFFFFFFFFFF
(1542708317.801379) can0 0CFDD633#01000100FF00F0C3
(1542708317.805043) can0 628#014CED00DE70F81B
(1542708317.814908) can0 0CFDD634#01000100FF00F0C3
(1542708317.816355) can0 0CFDD733#0100FFFFFFFFFFFF
(1542708317.820866) can0 0CFDD734#0100FFFFFFFFFFFF
(1542708317.822265) can0 0CFDD633#01000100FF00F0C3
(1542708317.834882) can0 0CFDD634#01000100FF00F0C3
(1542708317.837247) can0 0CFDD733#0100FFFFFFFFFFFF
(1542708317.840816) can0 0CFDD734#0100FFFFFFFFFFFF
(1542708317.843252) can0 0CFDD633#01000100FF00F0C3
(1542708317.845014) can0 628#019CEC52DE91F81B
(1542708317.855844) can0 0CFDD634#01000100FF00F0C3
(1542708317.857228) can0 0CFDD733#0100FFFFFFFFFFFF
(1542708317.861886) can0 0CFDD734#0100FFFFFFFFFFFF
(1542708317.863224) can0 0CFDD633#01000100FF00F0C3
(1542708317.875881) can0 0CFDD634#01000100FF00F0C3
(1542708317.878185) can0 0CFDD733#0100FFFFFFFFFFFF
(1542708317.881817) can0 0CFDD734#0100FFFFFFFFFFFF
(1542708317.884171) can0 0CFDD633#01000100FF00F0C3
(1542708317.885132) can0 628#01F9EBB4DE87F81B
(1542708317.896773) can0 0CFDD634#01000100FF00F0C3
(1542708317.898179) can0 0CFDD733#0100FFFFFFFFFFFF
(1542708317.902795) can0 0CFDD734#0100FFFFFFFFFFFF
(1542708317.904149) can0 0CFDD633#01000100FF00F0C3
(1542708317.916746) can0 0CFDD634#01000100FF00F0C3
(1542708317.918155) can0 0CFDD733#0100FFFFFFFFFFFF
(1542708317.922706) can0 0CFDD734#0100FFFFFFFFFFFF
(1542708317.924101) can0 0CFDD633#01000100FF00F0C3
(1542708317.925044) can0 628#01C3EBDFDE6AF81B
(1542708317.937716) can0 0CFDD634#01000100FF00F0C3
(1542708317.939115) can0 0CFDD733#0100FFFFFFFFFFFF
(1542708317.943610) can0 0CFDD734#0100FFFFFFFFFFFF
(1542708317.945074) can0 0CFDD633#01000100FF00F0C3
(1542708317.957691) can0 0CFDD634#01000100FF00F0C3
(1542708317.960070) can0 0CFDD733#0100FFFFFFFFFFFF
(1542708317.963583) can0 0CFDD734#0100FFFFFFFFFFFF
(1542708317.965036) can0 0CFDD633#01000100FF00F0C3
(1542708317.965511) can0 628#0151EB23DF77F81B
(1542708317.978548) can0 0CFDD634#01000100FF00F0C3
(1542708317.980094) can0 0CFDD733#0100FFFFFFFFFFFF
(1542708317.984606) can0 0CFDD734#0100FFFFFFFFFFFF
(1542708317.986063) can0 0CFDD633#01000100FF00F0C3
(1542708317.998528) can0 0CFDD634#01000100FF00F0C3
(1542708318.001066) can0 0CFDD733#0100FFFFFFFFFFFF
(1542708318.004554) can0 0CFDD734#0100FFFFFFFFFFFF
(1542708318.005115) can0 628#017AEA36DFFEF91B
(1542708318.006037) can0 0CFDD633#01000100FF00F0C3
(1542708318.019561) can0 0CFDD634#01000100FF00F0C3
(1542708318.020946) can0 0CFDD733#0100FFFFFFFFFFFF
(1542708318.025464) can0 0CFDD734#0100FFFFFFFFFFFF
(1542708318.026883) can0 0CFDD633#01000100FF00F0C3
(1542708318.039471) can0 0CFDD634#01000100FF00F0C3
(1542708318.041986) can0 0CFDD733#0100FFFFFFFFFFFF
(1542708318.045090) can0 628#0184EAEFDFC0FA1B
(1542708318.045692) can0 0CFDD734#0100FFFFFFFFFFFF
(1542708318.046909) can0 0CFDD633#01000100FF00F0C3
(1542708318.060483) can0 0CFDD634#01000100FF00F0C3
(1542708318.061959) can0 0CFDD733#0100FFFFFFFFFFFF
(1542708318.066483) can0 0CFDD734#0100FFFFFFFFFFFF
(1542708318.067851) can0 0CFDD633#01000100FF00F0C3
(1542708318.080417) can0 0CFDD634#01000100FF00F0C3
(1542708318.082872) can0 0CFDD733#0100FFFFFFFFFFFF
(1542708318.085094) can0 628#0144EA1AE064F81B
(1542708318.086457) can0 0CFDD734#0100FFFFFFFFFFFF
(1542708318.088839) can0 0CFDD633#01000100FF00F0C3
(1542708318.101405) can0 0CFDD634#01000100FF00F0C3
(1542708318.102844) can0 0CFDD733#0100FFFFFFFFFFFF
(1542708318.107431) can0 0CFDD734#0100FFFFFFFFFFFF
(1542708318.108845) can0 0CFDD633#01000100FF00F0C3
(1542708318.121379) can0 0CFDD634#01000100FF00F0C3
(1542708318.123821) can0 0CFDD733#0100FFFFFFFFFFFF
(1542708318.125167) can0 628#018EE941E061F81B
(1542708318.128383) can0 0CFDD734#0100FFFFFFFFFFFF
(1542708318.129829) can0 0CFDD633#01000100FF00F0C3
(1542708318.142322) can0 0CFDD634#01000100FF00F0C3
(1542708318.143796) can0 0CFDD733#0100FFFFFFFFFFFF
(1542708318.148349) can0 0CFDD734#0100FFFFFFFFFFFF
(1542708318.149705) can0 0CFDD633#01000100FF00F0C3
(1542708318.162323) can0 0CFDD634#01000100FF00F0C3
(1542708318.164731) can0 0CFDD733#0100FFFFFFFFFFFF
(1542708318.165221) can0 628#011BE9A8E080F81B
(1542708318.168327) can0 0CFDD734#0100FFFFFFFFFFFF
(1542708318.169685) can0 0CFDD633#01000100FF00F0C3
(1542708318.183229) can0 0CFDD634#01000100FF00F0C3
(1542708318.184695) can0 0CFDD733#0100FFFFFFFFFFFF
(1542708318.189275) can0 0CFDD734#0100FFFFFFFFFFFF
(1542708318.190704) can0 0CFDD633#01000100FF00F0C3
(1542708318.203248) can0 0CFDD634#01000100FF00F0C3
(1542708318.204669) can0 0CFDD733#0100FFFFFFFFFFFF
(1542708318.205146) can0 628#01CEE8D3E06CF81B
(1542708318.209212) can0 0CFDD734#0100FFFFFFFFFFFF
(1542708318.210644) can0 0CFDD633#01000100FF00F0C3
(1542708318.224147) can0 0CFDD634#01000100FF00F0C3
(1542708318.225690) can0 0CFDD733#0100FFFFFFFFFFFF
(1542708318.230219) can0 0CFDD734#0100FFFFFFFFFFFF
(1542708318.231663) can0 0CFDD633#01000100FF00F0C3
(1542708318.244122) can0 0CFDD634#01000100FF00F0C3
(1542708318.245155) can0 628#014CE82DE15EF81B
(1542708318.246600) can0 0CFDD733#0100FFFFFFFFFFFF
(1542708318.250167) can0 0CFDD734#0100FFFFFFFFFFFF
(1542708318.251575) can0 0CFDD633#01000100FF00F0C3
(1542708318.265068) can0 0CFDD634#01000100FF00F0C3
(1542708318.266575) can0 0CFDD733#0100FFFFFFFFFFFF
(1542708318.271140) can0 0CFDD734#0100FFFFFFFFFFFF
(1542708318.272550) can0 0CFDD633#01000100FF00F0C3
(1542708318.285066) can0 0CFDD634#01000100FF00F0C3
(1542708318.285495) can0 628#01BFE7A9E176F81B
(1542708318.286585) can0 0CFDD733#0100FFFFFFFFFFFF
(1542708318.291028) can0 0CFDD734#0100FFFFFFFFFFFF
(1542708318.292514) can0 0CFDD633#01000100FF00F0C3
(1542708318.306062) can0 0CFDD634#01000100FF00F0C3
(1542708318.307497) can0 0CFDD733#0100FFFFFFFFFFFF
(1542708318.312067) can0 0CFDD734#0100FFFFFFFFFFFF
(1542708318.313507) can0 0CFDD633#01000100FF00F0C3
(1542708318.325296) can0 628#0163E7E6E1B0F81B
(1542708318.326063) can0 0CFDD634#01000100FF00F0C3
(1542708318.328471) can0 0CFDD733#0100FFFFFFFFFFFF
(1542708318.332001) can0 0CFDD734#0100FFFFFFFFFFFF
(1542708318.333443) can0 0CFDD633#01000100FF00F0C3
(1542708318.346974) can0 0CFDD634#01000100FF00F0C3
(1542708318.348446) can0 0CFDD733#0100FFFFFFFFFFFF
(1542708318.352924) can0 0CFDD734#0100FFFFFFFFFFFF
(1542708318.354455) can0 0CFDD633#01000100FF00F0C3
(1542708318.365182) can0 628#0121E73EE28EF81B
(1542708318.366984) can0 0CFDD634#01000100FF00F0C3
(1542708318.369392) can0 0CFDD733#0100FFFFFFFFFFFF
(1542708318.372963) can0 0CFDD734#0100FFFFFFFFFFFF
(1542708318.374429) can0 0CFDD633#01000100FF00F0C3
(1542708318.387823) can0 0CFDD634#01000100FF00F0C3
(1542708318.389366) can0 0CFDD733#0100FFFFFFFFFFFF
(1542708318.393848) can0 0CFDD734#0100FFFFFFFFFFFF
(1542708318.395297) can0 0CFDD633#01000100FF00F0C3
(1542708318.405202) can0 628#0189E6B7E277F81B
(1542708318.407793) can0 0CFDD634#01000100FF00F0C3
(1542708318.410371) can0 0CFDD733#0100FFFFFFFFFFFF
(1542708318.413872) can0 0CFDD734#0100FFFFFFFFFFFF
(1542708318.415306) can0 0CFDD633#01000100FF00F0C3
(1542708318.428842) can0 0CFDD634#01000100FF00F0C3
(1542708318.430311) can0 0CFDD733#0100FFFFFFFFFFFF
(1542708318.434849) can0 0CFDD734#0100FFFFFFFFFFFF
(1542708318.436268) can0 0CFDD633#01000100FF00F0C3
(1542708318.445232) can0 628#0123E6FCE282F81B
(1542708318.448847) can0 0CFDD634#01000100FF00F0C3
(1542708318.451252) can0 0CFDD733#0100FFFFFFFFFFFF
(1542708318.454879) can0 0CFDD734#0100FFFFFFFFFFFF
(1542708318.456238) can0 0CFDD633#01000100FF00F0C3
(1542708318.469718) can0 0CFDD634#01000100FF00F0C3
(1542708318.471270) can0 0CFDD733#0100FFFFFFFFFFFF
(1542708318.475794) can0 0CFDD734#0100FFFFFFFFFFFF
(1542708318.477243) can0 0CFDD633#01000100FF00F0C3
(1542708318.485157) can0 628#01DAE543E384F81B
(1542708318.489709) can0 0CFDD634#01000100FF00F0C3
(1542708318.492211) can0 0CFDD733#0100FFFFFFFFFFFF
(1542708318.495740) can0 0CFDD734#0100FFFFFFFFFFFF
(1542708318.498131) can0 0CFDD633#01000100FF00F0C3
(1542708318.510688) can0 0CFDD634#01000100FF00F0C3
(1542708318.512222) can0 0CFDD733#0100FFFFFFFFFFFF
(1542708318.516719) can0 0CFDD734#0100FFFFFFFFFFFF
(1542708318.518104) can0 0CFDD633#01000100FF00F0C3
(1542708318.525269) can0 628#0155E5AAE383F81B
(1542708318.530662) can0 0CFDD634#01000100FF00F0C3
(1542708318.533170) can0 0CFDD733#0100FFFFFFFFFFFF
(1542708318.537662) can0 0CFDD734#0100FFFFFFFFFFFF
(1542708318.539081) can0 0CFDD633#01000100FF00F0C3
(1542708318.551610) can0 0CFDD634#01000100FF00F0C3
(1542708318.553100) can0 0CFDD733#0100FFFFFFFFFFFF
(1542708318.557637) can0 0CFDD734#0100FFFFFFFFFFFF
(1542708318.559076) can0 0CFDD633#01000100FF00F0C3
(1542708318.565269) can0 628#01E4E418E48CF81B
(1542708318.571583) can0 0CFDD634#01000100FF00F0C3
(1542708318.574087) can0 0CFDD733#0100FFFFFFFFFFFF
(1542708318.577616) can0 0CFDD734#0100FFFFFFFFFFFF
(1542708318.579003) can0 0CFDD633#01000100FF00F0C3
(1542708318.592526) can0 0CFDD634#01000100FF00F0C3
(1542708318.594061) can0 0CFDD733#0100FFFFFFFFFFFF
(1542708318.598473) can0 0CFDD734#0100FFFFFFFFFFFF
(1542708318.600063) can0 0CFDD633#01000100FF00F0C3
(1542708318.605283) can0 628#0196E478E47DF81B
(1542708318.612537) can0 0CFDD634#01000100FF00F0C3
(1542708318.615036) can0 0CFDD733#0100FFFFFFFFFFFF
(1542708318.618447) can0 0CFDD734#0100FFFFFFFFFFFF
(1542708318.620036) can0 0CFDD633#01000100FF00F0C3
(1542708318.633485) can0 0CFDD634#01000100FF00F0C3
(1542708318.635015) can0 0CFDD733#0100FFFFFFFFFFFF
(1542708318.639443) can0 0CFDD734#0100FFFFFFFFFFFF
(1542708318.640930) can0 0CFDD633#01000100FF00F0C3
(1542708318.645209) can0 628#014CE4CDE49CF81B
(1542708318.653408) can0 0CFDD634#01000100FF00F0C3
(1542708318.655922) can0 0CFDD733#0100FFFFFFFFFFFF
(1542708318.659454) can0 0CFDD734#0100FFFFFFFFFFFF
(1542708318.660936) can0 0CFDD633#01000100FF00F0C3
(1542708318.673381) can0 0CFDD634#01000100FF00F0C3
(1542708318.676931) can0 0CFDD733#0100FFFFFFFFFFFF
(1542708318.680391) can0 0CFDD734#0100FFFFFFFFFFFF
(1542708318.681868) can0 0CFDD633#01000100FF00F0C3
(1542708318.685247) can0 628#01ADE31EE54AF91B
(1542708318.693313) can0 0CFDD634#01000100FF00F0C3
(1542708318.696880) can0 0CFDD733#0100FFFFFFFFFFFF
(1542708318.700377) can0 0CFDD734#0100FFFFFFFFFFFF
(1542708318.701878) can0 0CFDD633#01000100FF00F0C3
(1542708318.713346) can0 0CFDD634#01000100FF00F0C3
(1542708318.717818) can0 0CFDD733#0100FFFFFFFFFFFF
(1542708318.721349) can0 0CFDD734#0100FFFFFFFFFFFF
(1542708318.722878) can0 0CFDD633#01000100FF00F0C3
(1542708318.725294) can0 628#018AE3D3E5E7F81B
(1542708318.734325) can0 0CFDD634#01000100FF00F0C3
(1542708318.737849) can0 0CFDD733#0100FFFFFFFFFFFF
(1542708318.741258) can0 0CFDD734#0100FFFFFFFFFFFF
(1542708318.742791) can0 0CFDD633#01000100FF00F0C3
(1542708318.746232) can0 18FECA34#00FF00000000FFFF
(1542708318.754269) can0 0CFDD634#01000100FF00F0C3
(1542708318.758704) can0 0CFDD733#0100FFFFFFFFFFFF
(1542708318.762172) can0 0CFDD734#0100FFFFFFFFFFFF
(1542708318.763668) can0 0CFDD633#01000100FF00F0C3
(1542708318.765391) can0 628#0126E3E1E581F81B
(1542708318.775243) can0 0CFDD634#01000100FF00F0C3
(1542708318.778729) can0 0CFDD733#0100FFFFFFFFFFFF
(1542708318.779724) can0 18FECA33#00FF00000000FFFF
(1542708318.782206) can0 0CFDD734#0100FFFFFFFFFFFF
(1542708318.783643) can0 0CFDD633#01000100FF00F0C3
(1542708318.795179) can0 0CFDD634#01000100FF00F0C3
(1542708318.799740) can0 0CFDD733#0100FFFFFFFFFFFF
(1542708318.803216) can0 0CFDD734#0100FFFFFFFFFFFF
(1542708318.804670) can0 0CFDD633#01000100FF00F0C3
(1542708318.805328) can0 628#01AFE266E695F81B
(1542708318.816195) can0 0CFDD634#01000100FF00F0C3
(1542708318.819676) can0 0CFDD733#0100FFFFFFFFFFFF
(1542708318.824133) can0 0CFDD734#0100FFFFFFFFFFFF
(1542708318.825661) can0 0CFDD633#01000100FF00F0C3
(1542708318.837106) can0 0CFDD634#01000100FF00F0C3
(1542708318.840619) can0 0CFDD733#0100FFFFFFFFFFFF
(1542708318.844107) can0 0CFDD734#0100FFFFFFFFFFFF
(1542708318.845284) can0 628#0156E28EE624F91B
(1542708318.845869) can0 0CFDD633#01000100FF00F0C3
(1542708318.857090) can0 0CFDD634#01000100FF00F0C3
(1542708318.860640) can0 0CFDD733#0100FFFFFFFFFFFF
(1542708318.864035) can0 0CFDD734#0100FFFFFFFFFFFF
(1542708318.865582) can0 0CFDD633#01000100FF00F0C3
(1542708318.877062) can0 0CFDD634#01000100FF00F0C3
(1542708318.881583) can0 0CFDD733#0100FFFFFFFFFFFF
(1542708318.885028) can0 0CFDD734#0100FFFFFFFFFFFF
(1542708318.885424) can0 628#0117E238E77DF91B
(1542708318.886547) can0 0CFDD633#01000100FF00F0C3
(1542708318.897975) can0 0CFDD634#01000100FF00F0C3
(1542708318.902536) can0 0CFDD733#0100FFFFFFFFFFFF
(1542708318.904983) can0 0CFDD734#0100FFFFFFFFFFFF
(1542708318.907468) can0 0CFDD633#01000100FF00F0C3
(1542708318.917894) can0 0CFDD634#01000100FF00F0C3
(1542708318.922437) can0 0CFDD733#0100FFFFFFFFFFFF
(1542708318.925338) can0 628#01C3E198E78EF81B
(1542708318.925997) can0 0CFDD734#0100FFFFFFFFFFFF
(1542708318.927456) can0 0CFDD633#01000100FF00F0C3
(1542708318.938909) can0 0CFDD634#01000100FF00F0C3
(1542708318.942453) can0 0CFDD733#0100FFFFFFFFFFFF
(1542708318.946919) can0 0CFDD734#0100FFFFFFFFFFFF
(1542708318.948400) can0 0CFDD633#01000100FF00F0C3
(1542708318.958892) can0 0CFDD634#01000100FF00F0C3
(1542708318.963416) can0 0CFDD733#0100FFFFFFFFFFFF
(1542708318.965330) can0 628#0167E1F3E78FF81B
(1542708318.966930) can0 0CFDD734#0100FFFFFFFFFFFF
(1542708318.968389) can0 0CFDD633#01000100FF00F0C3
(1542708318.979877) can0 0CFDD634#01000100FF00F0C3
(1542708318.983391) can0 0CFDD733#0100FFFFFFFFFFFF
(1542708318.987804) can0 0CFDD734#0100FFFFFFFFFFFF
(1542708318.989363) can0 0CFDD633#01000100FF00F0C3
(1542708318.999879) can0 0CFDD634#01000100FF00F0C3
(1542708319.004332) can0 0CFDD733#0100FFFFFFFFFFFF
(1542708319.005325) can0 628#011AE163E895F81B
(1542708319.007784) can0 0CFDD734#0100FFFFFFFFFFFF
(1542708319.009317) can0 0CFDD633#01000100FF00F0C3
(1542708319.020859) can0 0CFDD634#01000100FF00F0C3
(1542708319.024287) can0 0CFDD733#0100FFFFFFFFFFFF
(1542708319.027783) can0 0CFDD734#0100FFFFFFFFFFFF
(1542708319.030308) can0 0CFDD633#01000100FF00F0C3
(1542708319.041715) can0 0CFDD634#01000100FF00F0C3
(1542708319.045309) can0 0CFDD733#0100FFFFFFFFFFFF
(1542708319.045701) can0 628#01C8E0D5E87DF81B
(1542708319.048755) can0 0CFDD734#0100FFFFFFFFFFFF
(1542708319.050282) can0 0CFDD633#01000100FF00F0C3
(1542708319.061730) can0 0CFDD634#01000100FF00F0C3
(1542708319.065216) can0 0CFDD733#0100FFFFFFFFFFFF
(1542708319.068654) can0 0CFDD734#0100FFFFFFFFFFFF
(1542708319.070264) can0 0CFDD633#01000100FF00F0C3
(1542708319.081732) can0 0CFDD634#01000100FF00F0C3
(1542708319.085341) can0 628#015AE042E977F81B
(1542708319.086231) can0 0CFDD733#0100FFFFFFFFFFFF
(1542708319.089674) can0 0CFDD734#0100FFFFFFFFFFFF
(1542708319.091194) can0 0CFDD633#01000100FF00F0C3
(1542708319.102660) can0 0CFDD634#01000100FF00F0C3
(1542708319.107216) can0 0CFDD733#0100FFFFFFFFFFFF
(1542708319.109667) can0 0CFDD734#0100FFFFFFFFFFFF
(1542708319.112194) can0 0CFDD633#01000100FF00F0C3
(1542708319.122591) can0 0CFDD634#01000100FF00F0C3
(1542708319.125400) can0 628#0109E091E9BAF81B
(1542708319.127165) can0 0CFDD733#0100FFFFFFFFFFFF
(1542708319.130635) can0 0CFDD734#0100FFFFFFFFFFFF
(1542708319.132080) can0 0CFDD633#01000100FF00F0C3
(1542708319.143544) can0 0CFDD634#01000100FF00F0C3
(1542708319.147102) can0 0CFDD733#0100FFFFFFFFFFFF
(1542708319.150571) can0 0CFDD734#0100FFFFFFFFFFFF
(1542708319.153074) can0 0CFDD633#01000100FF00F0C3
(1542708319.164474) can0 0CFDD634#01000100FF00F0C3
(1542708319.165333) can0 628#01CADF21EAC3F81B
(1542708319.168072) can0 0CFDD733#0100FFFFFFFFFFFF
(1542708319.171521) can0 0CFDD734#0100FFFFFFFFFFFF
(1542708319.173037) can0 0CFDD633#01000100FF00F0C3
(1542708319.184488) can0 0CFDD634#01000100FF00F0C3
(1542708319.188046) can0 0CFDD733#0100FFFFFFFFFFFF
(1542708319.191518) can0 0CFDD734#0100FFFFFFFFFFFF
(1542708319.193022) can0 0CFDD633#01000100FF00F0C3
(1542708319.204436) can0 0CFDD634#01000100FF00F0C3
(1542708319.205503) can0 628#016BDF85EA92F81B
(1542708319.209063) can0 0CFDD733#0100FFFFFFFFFFFF
(1542708319.212508) can0 0CFDD734#0100FFFFFFFFFFFF
(1542708319.213967) can0 0CFDD633#01000100FF00F0C3
(1542708319.225478) can0 0CFDD634#01000100FF00F0C3
(1542708319.230030) can0 0CFDD733#0100FFFFFFFFFFFF
(1542708319.232457) can0 0CFDD734#0100FFFFFFFFFFFF
(1542708319.233981) can0 0CFDD633#01000100FF00F0C3
(1542708319.245410) can0 628#0126DF0CEB8BF81B
(1542708319.246426) can0 0CFDD634#01000100FF00F0C3
(1542708319.249894) can0 0CFDD733#0100FFFFFFFFFFFF
(1542708319.253404) can0 0CFDD734#0100FFFFFFFFFFFF
(1542708319.254918) can0 0CFDD633#01000100FF00F0C3
(1542708319.267373) can0 0CFDD634#01000100FF00F0C3
(1542708319.269881) can0 0CFDD733#0100FFFFFFFFFFFF
(1542708319.273364) can0 0CFDD734#0100FFFFFFFFFFFF
(1542708319.274880) can0 0CFDD633#01000100FF00F0C3
(1542708319.285415) can0 628#01EBDE6EEB87F81B
(1542708319.288308) can0 0CFDD634#01000100FF00F0C3
(1542708319.289883) can0 0CFDD733#0100FFFFFFFFFFFF
(1542708319.294345) can0 0CFDD734#0100FFFFFFFFFFFF
(1542708319.295876) can0 0CFDD633#01000100FF00F0C3
(1542708319.308321) can0 0CFDD634#01000100FF00F0C3
(1542708319.310877) can0 0CFDD733#0100FFFFFFFFFFFF
(1542708319.314259) can0 0CFDD734#0100FFFFFFFFFFFF
(1542708319.316877) can0 0CFDD633#01000100FF00F0C3
(1542708319.325452) can0 628#01A0DEF4EB85F81B
(1542708319.329271) can0 0CFDD634#01000100FF00F0C3
(1542708319.330876) can0 0CFDD733#0100FFFFFFFFFFFF
(1542708319.335260) can0 0CFDD734#0100FFFFFFFFFFFF
(1542708319.336876) can0 0CFDD633#01000100FF00F0C3
(1542708319.349205) can0 0CFDD634#01000100FF00F0C3
(1542708319.351790) can0 0CFDD733#0100FFFFFFFFFFFF
(1542708319.356207) can0 0CFDD734#0100FFFFFFFFFFFF
(1542708319.357702) can0 0CFDD633#01000100FF00F0C3
(1542708319.365545) can0 628#0154DE6AEC81F81B
(1542708319.370188) can0 0CFDD634#01000100FF00F0C3
(1542708319.371790) can0 0CFDD733#0100FFFFFFFFFFFF
(1542708319.376218) can0 0CFDD734#0100FFFFFFFFFFFF
(1542708319.377702) can0 0CFDD633#01000100FF00F0C3
(1542708319.390164) can0 0CFDD634#01000100FF00F0C3
(1542708319.392696) can0 0CFDD733#0100FFFFFFFFFFFF
(1542708319.397163) can0 0CFDD734#0100FFFFFFFFFFFF
(1542708319.398689) can0 0CFDD633#01000100FF00F0C3
(1542708319.405476) can0 628#01FADDB9ECADF81B
(1542708319.411136) can0 0CFDD634#01000100FF00F0C3
(1542708319.412716) can0 0CFDD733#0100FFFFFFFFFFFF
(1542708319.417140) can0 0CFDD734#0100FFFFFFFFFFFF
(1542708319.418711) can0 0CFDD633#01000100FF00F0C3
(1542708319.431084) can0 0CFDD634#01000100FF00F0C3
(1542708319.433690) can0 0CFDD733#0100FFFFFFFFFFFF
(1542708319.437110) can0 0CFDD734#0100FFFFFFFFFFFF
(1542708319.438622) can0 0CFDD633#01000100FF00F0C3
(1542708319.445467) can0 628#01ABDD55EDDDF81B
(1542708319.452063) can0 0CFDD634#01000100FF00F0C3
(1542708319.453598) can0 0CFDD733#0100FFFFFFFFFFFF
(1542708319.457974) can0 0CFDD734#0100FFFFFFFFFFFF
(1542708319.459633) can0 0CFDD633#01000100FF00F0C3
(1542708319.472037) can0 0CFDD634#01000100FF00F0C3
(1542708319.473596) can0 0CFDD733#0100FFFFFFFFFFFF
(1542708319.477948) can0 0CFDD734#0100FFFFFFFFFFFF
(1542708319.479538) can0 0CFDD633#01000100FF00F0C3
(1542708319.485448) can0 628#0183DDCAEDA7F81B
(1542708319.492936) can0 0CFDD634#01000100FF00F0C3
(1542708319.493539) can0 0CFDD733#0100FFFFFFFFFFFF
(1542708319.498955) can0 0CFDD734#0100FFFFFFFFFFFF
(1542708319.500554) can0 0CFDD633#01000100FF00F0C3
(1542708319.512894) can0 0CFDD634#01000100FF00F0C3
(1542708319.514554) can0 0CFDD733#0100FFFFFFFFFFFF
(1542708319.518954) can0 0CFDD734#0100FFFFFFFFFFFF
(1542708319.520439) can0 0CFDD633#01000100FF00F0C3
(1542708319.525430) can0 628#0142DD36EE85F81B
(1542708319.533884) can0 0CFDD634#01000100FF00F0C3
(1542708319.534461) can0 0CFDD733#0100FFFFFFFFFFFF
(1542708319.539865) can0 0CFDD734#0100FFFFFFFFFFFF
(1542708319.541430) can0 0CFDD633#01000100FF00F0C3
(1542708319.553839) can0 0CFDD634#01000100FF00F0C3
(1542708319.555440) can0 0CFDD733#0100FFFFFFFFFFFF
(1542708319.559876) can0 0CFDD734#0100FFFFFFFFFFFF
(1542708319.561450) can0 0CFDD633#01000100FF00F0C3
(1542708319.565493) can0 628#01F8DCBDEEA0F81B
(1542708319.574875) can0 0CFDD634#01000100FF00F0C3
(1542708319.576450) can0 0CFDD733#0100FFFFFFFFFFFF
(1542708319.580876) can0 0CFDD734#0100FFFFFFFFFFFF
(1542708319.582363) can0 0CFDD633#01000100FF00F0C3
(1542708319.594875) can0 0CFDD634#01000100FF00F0C3
(1542708319.597404) can0 0CFDD733#0100FFFFFFFFFFFF
(1542708319.600881) can0 0CFDD734#0100FFFFFFFFFFFF
(1542708319.602373) can0 0CFDD633#01000100FF00F0C3
(1542708319.605554) can0 628#01CDDC2EEF95F81B
(1542708319.615761) can0 0CFDD634#01000100FF00F0C3
(1542708319.617372) can0 0CFDD733#0100FFFFFFFFFFFF
(1542708319.621793) can0 0CFDD734#0100FFFFFFFFFFFF
(1542708319.623307) can0 0CFDD633#01000100FF00F0C3
(1542708319.635741) can0 0CFDD634#01000100FF00F0C3
(1542708319.638295) can0 0CFDD733#0100FFFFFFFFFFFF
(1542708319.641736) can0 0CFDD734#0100FFFFFFFFFFFF
(1542708319.643282) can0 0CFDD633#01000100FF00F0C3
(1542708319.645553) can0 628#0190DCB1EF95F81B
(1542708319.656683) can0 0CFDD634#01000100FF00F0C3
(1542708319.658268) can0 0CFDD733#0100FFFFFFFFFFFF
(1542708319.662714) can0 0CFDD734#0100FFFFFFFFFFFF
(1542708319.664218) can0 0CFDD633#01000100FF00F0C3
(1542708319.676606) can0 0CFDD634#01000100FF00F0C3
(1542708319.679184) can0 0CFDD733#0100FFFFFFFFFFFF
(1542708319.682606) can0 0CFDD734#0100FFFFFFFFFFFF
(1542708319.684175) can0 0CFDD633#01000100FF00F0C3
(1542708319.685494) can0 628#014ADC25F0A4F81B
(1542708319.697550) can0 0CFDD634#01000100FF00F0C3
(1542708319.699202) can0 0CFDD733#0100FFFFFFFFFFFF
(1542708319.703582) can0 0CFDD734#0100FFFFFFFFFFFF
(1542708319.705213) can0 0CFDD633#01000100FF00F0C3
(1542708319.717523) can0 0CFDD634#01000100FF00F0C3
(1542708319.720191) can0 0CFDD733#0100FFFFFFFFFFFF
(1542708319.723547) can0 0CFDD734#0100FFFFFFFFFFFF
(1542708319.725580) can0 628#010DDCB9F094F81B
(1542708319.726186) can0 0CFDD633#01000100FF00F0C3
(1542708319.738518) can0 0CFDD634#01000100FF00F0C3
(1542708319.740113) can0 0CFDD733#0100FFFFFFFFFFFF
(1542708319.744548) can0 0CFDD734#0100FFFFFFFFFFFF
(1542708319.745109) can0 18FECA34#00FF00000000FFFF
(1542708319.746124) can0 0CFDD633#01000100FF00F0C3
(1542708319.758527) can0 0CFDD634#01000100FF00F0C3
(1542708319.761135) can0 0CFDD733#0100FFFFFFFFFFFF
(1542708319.765485) can0 0CFDD734#0100FFFFFFFFFFFF
(1542708319.765909) can0 628#01D3DB1DF18BF81B
(1542708319.767072) can0 0CFDD633#01000100FF00F0C3
(1542708319.778044) can0 18FECA33#00FF00000000FFFF
(1542708319.779501) can0 0CFDD634#01000100FF00F0C3
(1542708319.781113) can0 0CFDD733#0100FFFFFFFFFFFF
(1542708319.785452) can0 0CFDD734#0100FFFFFFFFFFFF
(1542708319.788037) can0 0CFDD633#01000100FF00F0C3
(1542708319.800454) can0 0CFDD634#01000100FF00F0C3
(1542708319.801031) can0 0CFDD733#0100FFFFFFFFFFFF
(1542708319.805450) can0 0CFDD734#0100FFFFFFFFFFFF
(1542708319.805831) can0 628#019ADB99F1B1F81B
(1542708319.807980) can0 0CFDD633#01000100FF00F0C3
(1542708319.821402) can0 0CFDD634#01000100FF00F0C3
(1542708319.821981) can0 0CFDD733#0100FFFFFFFFFFFF
(1542708319.826424) can0 0CFDD734#0100FFFFFFFFFFFF
(1542708319.827982) can0 0CFDD633#01000100FF00F0C3
(1542708319.841334) can0 0CFDD634#01000100FF00F0C3
(1542708319.841956) can0 0CFDD733#0100FFFFFFFFFFFF
(1542708319.845489) can0 628#016ADB2AF2C7F81B
(1542708319.846325) can0 0CFDD734#0100FFFFFFFFFFFF
(1542708319.848856) can0 0CFDD633#01000100FF00F0C3
(1542708319.862332) can0 0CFDD634#01000100FF00F0C3
(1542708319.862911) can0 0CFDD733#0100FFFFFFFFFFFF
(1542708319.867342) can0 0CFDD734#0100FFFFFFFFFFFF
(1542708319.868908) can0 0CFDD633#01000100FF00F0C3
(1542708319.882290) can0 0CFDD634#01000100FF00F0C3
(1542708319.882905) can0 0CFDD733#0100FFFFFFFFFFFF
(1542708319.885608) can0 628#014FDBA9F29DF81B
(1542708319.887280) can0 0CFDD734#0100FFFFFFFFFFFF
(1542708319.888883) can0 0CFDD633#01000100FF00F0C3
(1542708319.903264) can0 0CFDD634#01000100FF00F0C3
(1542708319.903807) can0 0CFDD733#0100FFFFFFFFFFFF
(1542708319.908215) can0 0CFDD734#0100FFFFFFFFFFFF
(1542708319.908812) can0 0CFDD633#01000100FF00F0C3
(1542708319.923237) can0 0CFDD634#01000100FF00F0C3
(1542708319.923781) can0 0CFDD733#0100FFFFFFFFFFFF
(1542708319.925657) can0 628#011FDB1CF382F81B
(1542708319.928242) can0 0CFDD734#0100FFFFFFFFFFFF
(1542708319.928805) can0 0CFDD633#01000100FF00F0C3
(1542708319.944181) can0 0CFDD634#01000100FF00F0C3
(1542708319.944804) can0 0CFDD733#0100FFFFFFFFFFFF
(1542708319.949177) can0 0CFDD734#0100FFFFFFFFFFFF
(1542708319.949776) can0 0CFDD633#01000100FF00F0C3
(1542708319.965119) can0 0CFDD634#01000100FF00F0C3
(1542708319.965570) can0 628#01D1DA34F328F91B
(1542708319.966144) can0 0CFDD733#0100FFFFFFFFFFFF
(1542708319.969128) can0 0CFDD734#0100FFFFFFFFFFFF
(1542708319.969678) can0 0CFDD633#01000100FF00F0C3
(1542708319.985071) can0 0CFDD634#01000100FF00F0C3
(1542708319.986724) can0 0CFDD733#0100FFFFFFFFFFFF
(1542708319.990134) can0 0CFDD734#0100FFFFFFFFFFFF
(1542708319.990698) can0 0CFDD633#01000100FF00F0C3
(1542708320.005035) can0 0CFDD634#01000100FF00F0C3
(1542708320.005587) can0 628#01D2DA39F470FA1B
(1542708320.006700) can0 0CFDD733#0100FFFFFFFFFFFF
(1542708320.010081) can0 0CFDD734#0100FFFFFFFFFFFF
(1542708320.010663) can0 0CFDD633#01000100FF00F0C3
(1542708320.026055) can0 0CFDD634#01000100FF00F0C3
(1542708320.027673) can0 0CFDD733#0100FFFFFFFFFFFF
(1542708320.031020) can0 0CFDD734#0100FFFFFFFFFFFF
(1542708320.031627) can0 0CFDD633#01000100FF00F0C3
(1542708320.045630) can0 628#01A9DAD5F48BF81B
(1542708320.046968) can0 0CFDD634#01000100FF00F0C3
(1542708320.047648) can0 0CFDD733#0100FFFFFFFFFFFF
(1542708320.051030) can0 0CFDD734#0100FFFFFFFFFFFF
(1542708320.051594) can0 0CFDD633#01000100FF00F0C3
(1542708320.067917) can0 0CFDD634#01000100FF00F0C3
(1542708320.068605) can0 0CFDD733#0100FFFFFFFFFFFF
(1542708320.072005) can0 0CFDD734#0100FFFFFFFFFFFF
(1542708320.072563) can0 0CFDD633#01000100FF00F0C3
(1542708320.085667) can0 628#016DDA15F593F81B
(1542708320.088893) can0 0CFDD634#01000100FF00F0C3
(1542708320.089524) can0 0CFDD733#0100FFFFFFFFFFFF
(1542708320.092862) can0 0CFDD734#0100FFFFFFFFFFFF
(1542708320.093495) can0 0CFDD633#01000100FF00F0C3
(1542708320.108851) can0 0CFDD634#01000100FF00F0C3
(1542708320.109506) can0 0CFDD733#0100FFFFFFFFFFFF
(1542708320.112916) can0 0CFDD734#0100FFFFFFFFFFFF
(1542708320.113525) can0 0CFDD633#01000100FF00F0C3
(1542708320.125589) can0 628#0138DA94F584F81B
(1542708320.129825) can0 0CFDD634#01000100FF00F0C3
(1542708320.130501) can0 0CFDD733#0100FFFFFFFFFFFF
(1542708320.132863) can0 0CFDD734#0100FFFFFFFFFFFF
(1542708320.133463) can0 0CFDD633#01000100FF00F0C3
(1542708320.149823) can0 0CFDD634#01000100FF00F0C3
(1542708320.150474) can0 0CFDD733#0100FFFFFFFFFFFF
(1542708320.153872) can0 0CFDD734#0100FFFFFFFFFFFF
(1542708320.154435) can0 0CFDD633#01000100FF00F0C3
(1542708320.165645) can0 628#012FDA09F67EF81B
(1542708320.170786) can0 0CFDD634#01000100FF00F0C3
(1542708320.171455) can0 0CFDD733#0100FFFFFFFFFFFF
(1542708320.174873) can0 0CFDD734#0100FFFFFFFFFFFF
(1542708320.175386) can0 0CFDD633#01000100FF00F0C3
(1542708320.190706) can0 0CFDD634#01000100FF00F0C3
(1542708320.191359) can0 0CFDD733#0100FFFFFFFFFFFF
(1542708320.194744) can0 0CFDD734#0100FFFFFFFFFFFF
(1542708320.195363) can0 0CFDD633#01000100FF00F0C3
(1542708320.205671) can0 628#0105DAA4F686F81B
(1542708320.211723) can0 0CFDD634#01000100FF00F0C3
(1542708320.212340) can0 0CFDD733#0100FFFFFFFFFFFF
(1542708320.214652) can0 0CFDD734#0100FFFFFFFFFFFF
(1542708320.215284) can0 0CFDD633#01000100FF00F0C3
(1542708320.231633) can0 0CFDD634#01000100FF00F0C3
(1542708320.232365) can0 0CFDD733#0100FFFFFFFFFFFF
(1542708320.235701) can0 0CFDD734#0100FFFFFFFFFFFF
(1542708320.236272) can0 0CFDD633#01000100FF00F0C3
(1542708320.245756) can0 628#01DCD918F78DF81B
(1542708320.251657) can0 0CFDD634#01000100FF00F0C3
(1542708320.252301) can0 0CFDD733#0100FFFFFFFFFFFF
(1542708320.255649) can0 0CFDD734#0100FFFFFFFFFFFF
(1542708320.256269) can0 0CFDD633#01000100FF00F0C3
(1542708320.271568) can0 0CFDD634#01000100FF00F0C3
(1542708320.272319) can0 0CFDD733#0100FFFFFFFFFFFF
(1542708320.276635) can0 0CFDD734#0100FFFFFFFFFFFF
(1542708320.277224) can0 0CFDD633#01000100FF00F0C3
(1542708320.285672) can0 628#01C2D9A8F78AF81B
(1542708320.292608) can0 0CFDD634#01000100FF00F0C3
(1542708320.293206) can0 0CFDD733#0100FFFFFFFFFFFF
(1542708320.296590) can0 0CFDD734#0100FFFFFFFFFFFF
(1542708320.298199) can0 0CFDD633#01000100FF00F0C3
(1542708320.312557) can0 0CFDD634#01000100FF00F0C3
(1542708320.314165) can0 0CFDD733#0100FFFFFFFFFFFF
(1542708320.317465) can0 0CFDD734#0100FFFFFFFFFFFF
(1542708320.318157) can0 0CFDD633#01000100FF00F0C3
(1542708320.325733) can0 628#01B2D936F893F81B
(1542708320.332529) can0 0CFDD634#01000100FF00F0C3
(1542708320.334184) can0 0CFDD733#0100FFFFFFFFFFFF
(1542708320.337446) can0 0CFDD734#0100FFFFFFFFFFFF
(1542708320.338147) can0 0CFDD633#01000100FF00F0C3
(1542708320.353499) can0 0CFDD634#01000100FF00F0C3
(1542708320.354112) can0 0CFDD733#0100FFFFFFFFFFFF
(1542708320.358455) can0 0CFDD734#0100FFFFFFFFFFFF
(1542708320.359083) can0 0CFDD633#01000100FF00F0C3
(1542708320.365697) can0 628#0184D997F8C1F81B
(1542708320.374452) can0 0CFDD634#01000100FF00F0C3
(1542708320.375095) can0 0CFDD733#0100FFFFFFFFFFFF
(1542708320.378422) can0 0CFDD734#0100FFFFFFFFFFFF
(1542708320.379070) can0 0CFDD633#01000100FF00F0C3
(1542708320.394360) can0 0CFDD634#01000100FF00F0C3
(1542708320.395060) can0 0CFDD733#0100FFFFFFFFFFFF
(1542708320.399377) can0 0CFDD734#0100FFFFFFFFFFFF
(1542708320.400037) can0 0CFDD633#01000100FF00F0C3
(1542708320.405733) can0 628#015DD9E9F88DF91B
(1542708320.415368) can0 0CFDD634#01000100FF00F0C3
(1542708320.416048) can0 0CFDD733#0100FFFFFFFFFFFF
(1542708320.419332) can0 0CFDD734#0100FFFFFFFFFFFF
(1542708320.419975) can0 0CFDD633#01000100FF00F0C3
(1542708320.435308) can0 0CFDD634#01000100FF00F0C3
(1542708320.436993) can0 0CFDD733#0100FFFFFFFFFFFF
(1542708320.440346) can0 0CFDD734#0100FFFFFFFFFFFF
(1542708320.440937) can0 0CFDD633#01000100FF00F0C3
(1542708320.445725) can0 628#013FD960F9DDFA1B
(1542708320.455227) can0 0CFDD634#01000100FF00F0C3
(1542708320.456966) can0 0CFDD733#0100FFFFFFFFFFFF
(1542708320.460320) can0 0CFDD734#0100FFFFFFFFFFFF
(1542708320.460923) can0 0CFDD633#01000100FF00F0C3
(1542708320.476264) can0 0CFDD634#01000100FF00F0C3
(1542708320.476955) can0 0CFDD733#0100FFFFFFFFFFFF
(1542708320.481262) can0 0CFDD734#0100FFFFFFFFFFFF
(1542708320.481907) can0 0CFDD633#01000100FF00F0C3
(1542708320.485721) can0 628#0180D9B8FAADF81B
(1542708320.497162) can0 0CFDD634#01000100FF00F0C3
(1542708320.497871) can0 0CFDD733#0100FFFFFFFFFFFF
(1542708320.501204) can0 0CFDD734#0100FFFFFFFFFFFF
(1542708320.502834) can0 0CFDD633#01000100FF00F0C3
(1542708320.517153) can0 0CFDD634#01000100FF00F0C3
(1542708320.517846) can0 0CFDD733#0100FFFFFFFFFFFF
(1542708320.522215) can0 0CFDD734#0100FFFFFFFFFFFF
(1542708320.522819) can0 0CFDD633#01000100FF00F0C3
(1542708320.525873) can0 628#019AD7AFF99DF91B
(1542708320.537096) can0 0CFDD634#01000100FF00F0C3
(1542708320.537805) can0 0CFDD733#0100FFFFFFFFFFFF
(1542708320.542123) can0 0CFDD734#0100FFFFFFFFFFFF
(1542708320.543783) can0 0CFDD633#01000100FF00F0C3
(1542708320.558096) can0 0CFDD634#01000100FF00F0C3
(1542708320.558818) can0 0CFDD733#0100FFFFFFFFFFFF
(1542708320.563157) can0 0CFDD734#0100FFFFFFFFFFFF
(1542708320.563706) can0 0CFDD633#01000100FF00F0C3
(1542708320.565785) can0 628#01BCD577FBB0FC1B
(1542708320.579045) can0 0CFDD634#01000100FF00F0C3
(1542708320.579743) can0 0CFDD733#0100FFFFFFFFFFFF
(1542708320.583989) can0 0CFDD734#0100FFFFFFFFFFFF
(1542708320.584693) can0 0CFDD633#01000100FF00F0C3
(1542708320.599050) can0 0CFDD634#01000100FF00F0C3
(1542708320.599704) can0 0CFDD733#0100FFFFFFFFFFFF
(1542708320.603965) can0 0CFDD734#0100FFFFFFFFFFFF
(1542708320.604689) can0 0CFDD633#01000100FF00F0C3
(1542708320.605871) can0 628#01E9D57BFB02001B
(1542708320.619991) can0 0CFDD634#01000100FF00F0C3
(1542708320.620667) can0 0CFDD733#0100FFFFFFFFFFFF
(1542708320.623944) can0 0CFDD734#0100FFFFFFFFFFFF
(1542708320.625680) can0 0CFDD633#01000100FF00F0C3
(1542708320.639975) can0 0CFDD634#01000100FF00F0C3
(1542708320.640669) can0 0CFDD733#0100FFFFFFFFFFFF
(1542708320.644914) can0 0CFDD734#0100FFFFFFFFFFFF
(1542708320.645627) can0 0CFDD633#01000100FF00F0C3
(1542708320.646090) can0 628#013CD933FA8D001B
(1542708320.659949) can0 0CFDD634#01000100FF00F0C3
(1542708320.660629) can0 0CFDD733#0100FFFFFFFFFFFF
(1542708320.665951) can0 0CFDD734#0100FFFFFFFFFFFF
(1542708320.666616) can0 0CFDD633#01000100FF00F0C3
(1542708320.680902) can0 0CFDD634#01000100FF00F0C3
(1542708320.681603) can0 0CFDD733#0100FFFFFFFFFFFF
(1542708320.685886) can0 0CFDD734#0100FFFFFFFFFFFF
(1542708320.686311) can0 628#016DD9BDFA20001B
(1542708320.686899) can0 0CFDD633#01000100FF00F0C3
(1542708320.700871) can0 0CFDD634#01000100FF00F0C3
(1542708320.701544) can0 0CFDD733#0100FFFFFFFFFFFF
(1542708320.705897) can0 0CFDD734#0100FFFFFFFFFFFF
(1542708320.707513) can0 0CFDD633#01000100FF00F0C3
(1542708320.721784) can0 0CFDD634#01000100FF00F0C3
(1542708320.722469) can0 0CFDD733#0100FFFFFFFFFFFF
(1542708320.725781) can0 628#01B7D833FC99001B
(1542708320.726781) can0 0CFDD734#0100FFFFFFFFFFFF
(1542708320.727462) can0 0CFDD633#01000100FF00F0C3
(1542708320.742858) can0 0CFDD634#01000100FF00F0C3
(1542708320.743306) can0 18FECA34#00FF00000000FFFF
(1542708320.743913) can0 0CFDD733#0100FFFFFFFFFFFF
(1542708320.747812) can0 0CFDD734#0100FFFFFFFFFFFF
(1542708320.748441) can0 0CFDD633#01000100FF00F0C3
(1542708320.762747) can0 0CFDD634#01000100FF00F0C3
(1542708320.763435) can0 0CFDD733#0100FFFFFFFFFFFF
(1542708320.765870) can0 628#014FD964FA78001B
(1542708320.767710) can0 0CFDD734#0100FFFFFFFFFFFF
(1542708320.768440) can0 0CFDD633#01000100FF00F0C3
(1542708320.776471) can0 18FECA33#00FF00000000FFFF
(1542708320.783671) can0 0CFDD634#01000100FF00F0C3
(1542708320.784415) can0 0CFDD733#0100FFFFFFFFFFFF
(1542708320.787670) can0 0CFDD734#0100FFFFFFFFFFFF
(1542708320.789352) can0 0CFDD633#01000100FF00F0C3
(1542708320.803646) can0 0CFDD634#01000100FF00F0C3
(1542708320.804385) can0 0CFDD733#0100FFFFFFFFFFFF
(1542708320.805870) can0 628#0138D9E7FA3B001B
(1542708320.808673) can0 0CFDD734#0100FFFFFFFFFFFF
(1542708320.809352) can0 0CFDD633#01000100FF00F0C3
(1542708320.823604) can0 0CFDD634#01000100FF00F0C3
(1542708320.824359) can0 0CFDD733#0100FFFFFFFFFFFF
(1542708320.828659) can0 0CFDD734#0100FFFFFFFFFFFF
(1542708320.830290) can0 0CFDD633#01000100FF00F0C3
(1542708320.844582) can0 0CFDD634#01000100FF00F0C3
(1542708320.845308) can0 0CFDD733#0100FFFFFFFFFFFF
(1542708320.845911) can0 628#01EBD807FC8E001B
(1542708320.849644) can0 0CFDD734#0100FFFFFFFFFFFF
(1542708320.850295) can0 0CFDD633#01000100FF00F0C3
(1542708320.864567) can0 0CFDD634#01000100FF00F0C3
(1542708320.865302) can0 0CFDD733#0100FFFFFFFFFFFF
(1542708320.869607) can0 0CFDD734#0100FFFFFFFFFFFF
(1542708320.871286) can0 0CFDD633#01000100FF00F0C3
(1542708320.885512) can0 0CFDD634#01000100FF00F0C3
(1542708320.885932) can0 628#016AD960FA7C001B
(1542708320.886536) can0 0CFDD733#0100FFFFFFFFFFFF
(1542708320.890551) can0 0CFDD734#0100FFFFFFFFFFFF
(1542708320.891221) can0 0CFDD633#01000100FF00F0C3
(1542708320.906523) can0 0CFDD634#01000100FF00F0C3
(1542708320.907215) can0 0CFDD733#0100FFFFFFFFFFFF
(1542708320.910523) can0 0CFDD734#0100FFFFFFFFFFFF
(1542708320.912218) can0 0CFDD633#01000100FF00F0C3
(1542708320.925869) can0 628#012ED919FB45001B
(1542708320.926470) can0 0CFDD634#01000100FF00F0C3
(1542708320.927189) can0 0CFDD733#0100FFFFFFFFFFFF
(1542708320.931499) can0 0CFDD734#0100FFFFFFFFFFFF
(1542708320.932228) can0 0CFDD633#01000100FF00F0C3
(1542708320.947403) can0 0CFDD634#01000100FF00F0C3
(1542708320.948088) can0 0CFDD733#0100FFFFFFFFFFFF
(1542708320.951410) can0 0CFDD734#0100FFFFFFFFFFFF
(1542708320.953129) can0 0CFDD633#01000100FF00F0C3
(1542708320.965922) can0 628#01E9D8CFFB9A001B
(1542708320.967370) can0 0CFDD634#01000100FF00F0C3
(1542708320.968121) can0 0CFDD733#0100FFFFFFFFFFFF
(1542708320.972445) can0 0CFDD734#0100FFFFFFFFFFFF
(1542708320.973088) can0 0CFDD633#01000100FF00F0C3
(1542708320.988371) can0 0CFDD634#01000100FF00F0C3
(1542708320.989085) can0 0CFDD733#0100FFFFFFFFFFFF
(1542708320.993357) can0 0CFDD734#0100FFFFFFFFFFFF
(1542708320.994045) can0 0CFDD633#01000100FF00F0C3
(1542708321.005896) can0 628#0158D963FA67001B
(1542708321.008343) can0 0CFDD634#01000100FF00F0C3
(1542708321.010029) can0 0CFDD733#0100FFFFFFFFFFFF
(1542708321.013339) can0 0CFDD734#0100FFFFFFFFFFFF
(1542708321.014015) can0 0CFDD633#01000100FF00F0C3
(1542708321.028240) can0 0CFDD634#01000100FF00F0C3
(1542708321.030027) can0 0CFDD733#0100FFFFFFFFFFFF
(1542708321.033312) can0 0CFDD734#0100FFFFFFFFFFFF
(1542708321.034962) can0 0CFDD633#01000100FF00F0C3
(1542708321.045813) can0 628#0126D938FB54001B
(1542708321.049259) can0 0CFDD634#01000100FF00F0C3
(1542708321.050031) can0 0CFDD733#0100FFFFFFFFFFFF
(1542708321.054266) can0 0CFDD734#0100FFFFFFFFFFFF
(1542708321.054905) can0 0CFDD633#01000100FF00F0C3
(1542708321.069201) can0 0CFDD634#01000100FF00F0C3
(1542708321.070004) can0 0CFDD733#0100FFFFFFFFFFFF
(1542708321.074239) can0 0CFDD734#0100FFFFFFFFFFFF
(1542708321.075947) can0 0CFDD633#01000100FF00F0C3
(1542708321.085922) can0 628#01FAD89DFB94001B
(1542708321.090126) can0 0CFDD634#01000100FF00F0C3
(1542708321.090911) can0 0CFDD733#0100FFFFFFFFFFFF
(1542708321.095171) can0 0CFDD734#0100FFFFFFFFFFFF
(1542708321.095901) can0 0CFDD633#01000100FF00F0C3
(1542708321.110155) can0 0CFDD634#01000100FF00F0C3
(1542708321.110921) can0 0CFDD733#0100FFFFFFFFFFFF
(1542708321.115162) can0 0CFDD734#0100FFFFFFFFFFFF
(1542708321.116822) can0 0CFDD633#01000100FF00F0C3
(1542708321.125947) can0 628#0161D976FA6A001B
(1542708321.131129) can0 0CFDD634#01000100FF00F0C3
(1542708321.131828) can0 0CFDD733#0100FFFFFFFFFFFF
(1542708321.136049) can0 0CFDD734#0100FFFFFFFFFFFF
(1542708321.136808) can0 0CFDD633#01000100FF00F0C3
(1542708321.151103) can0 0CFDD634#01000100FF00F0C3
(1542708321.151806) can0 0CFDD733#0100FFFFFFFFFFFF
(1542708321.156069) can0 0CFDD734#0100FFFFFFFFFFFF
(1542708321.157822) can0 0CFDD633#01000100FF00F0C3
(1542708321.165921) can0 628#0111D955FB53001B
(1542708321.172083) can0 0CFDD634#01000100FF00F0C3
(1542708321.172869) can0 0CFDD733#0100FFFFFFFFFFFF
(1542708321.176990) can0 0CFDD734#0100FFFFFFFFFFFF
(1542708321.177733) can0 0CFDD633#01000100FF00F0C3
(1542708321.193026) can0 0CFDD634#01000100FF00F0C3
(1542708321.193722) can0 0CFDD733#0100FFFFFFFFFFFF
(1542708321.196965) can0 0CFDD734#0100FFFFFFFFFFFF
(1542708321.198731) can0 0CFDD633#01000100FF00F0C3
(1542708321.205947) can0 628#0104D974FB8A001B
(1542708321.212978) can0 0CFDD634#01000100FF00F0C3
(1542708321.213742) can0 0CFDD733#0100FFFFFFFFFFFF
(1542708321.217938) can0 0CFDD734#0100FFFFFFFFFFFF
(1542708321.218706) can0 0CFDD633#01000100FF00F0C3
(1542708321.233952) can0 0CFDD634#01000100FF00F0C3
(1542708321.234715) can0 0CFDD733#0100FFFFFFFFFFFF
(1542708321.237903) can0 0CFDD734#0100FFFFFFFFFFFF
(1542708321.239602) can0 0CFDD633#01000100FF00F0C3
(1542708321.245911) can0 628#0155D984FA54001B
(1542708321.253926) can0 0CFDD634#01000100FF00F0C3
(1542708321.255617) can0 0CFDD733#0100FFFFFFFFFFFF
(1542708321.258885) can0 0CFDD734#0100FFFFFFFFFFFF
(1542708321.259615) can0 0CFDD633#01000100FF00F0C3
(1542708321.273869) can0 0CFDD634#01000100FF00F0C3
(1542708321.275591) can0 0CFDD733#0100FFFFFFFFFFFF
(1542708321.278850) can0 0CFDD734#0100FFFFFFFFFFFF
(1542708321.280600) can0 0CFDD633#01000100FF00F0C3
(1542708321.286050) can0 628#0112D972FB55001B
(1542708321.294796) can0 0CFDD634#01000100FF00F0C3
(1542708321.295601) can0 0CFDD733#0100FFFFFFFFFFFF
(1542708321.299832) can0 0CFDD734#0100FFFFFFFFFFFF
(1542708321.300590) can0 0CFDD633#01000100FF00F0C3
(1542708321.315795) can0 0CFDD634#01000100FF00F0C3
(1542708321.316537) can0 0CFDD733#0100FFFFFFFFFFFF
(1542708321.319822) can0 0CFDD734#0100FFFFFFFFFFFF
(1542708321.321460) can0 0CFDD633#01000100FF00F0C3
(1542708321.325900) can0 628#0113D947FB89001B
(1542708321.335781) can0 0CFDD634#01000100FF00F0C3
(1542708321.336553) can0 0CFDD733#0100FFFFFFFFFFFF
(1542708321.340784) can0 0CFDD734#0100FFFFFFFFFFFF
(1542708321.341490) can0 0CFDD633#01000100FF00F0C3
(1542708321.356703) can0 0CFDD634#01000100FF00F0C3
(1542708321.357459) can0 0CFDD733#0100FFFFFFFFFFFF
(1542708321.361757) can0 0CFDD734#0100FFFFFFFFFFFF
(1542708321.362453) can0 0CFDD633#01000100FF00F0C3
(1542708321.365962) can0 628#014ED999FA5D001B
(1542708321.376681) can0 0CFDD634#01000100FF00F0C3
(1542708321.377424) can0 0CFDD733#0100FFFFFFFFFFFF
(1542708321.381710) can0 0CFDD734#0100FFFFFFFFFFFF
(1542708321.382407) can0 0CFDD633#01000100FF00F0C3
(1542708321.396630) can0 0CFDD634#01000100FF00F0C3
(1542708321.397396) can0 0CFDD733#0100FFFFFFFFFFFF
(1542708321.402683) can0 0CFDD734#0100FFFFFFFFFFFF
(1542708321.403375) can0 0CFDD633#01000100FF00F0C3
(1542708321.406024) can0 628#010BD976FB60001B
(1542708321.417567) can0 0CFDD634#01000100FF00F0C3
(1542708321.418381) can0 0CFDD733#0100FFFFFFFFFFFF
(1542708321.422627) can0 0CFDD734#0100FFFFFFFFFFFF
(1542708321.423344) can0 0CFDD633#01000100FF00F0C3
(1542708321.437536) can0 0CFDD634#01000100FF00F0C3
(1542708321.438355) can0 0CFDD733#0100FFFFFFFFFFFF
(1542708321.442516) can0 0CFDD734#0100FFFFFFFFFFFF
(1542708321.444275) can0 0CFDD633#01000100FF00F0C3
(1542708321.445987) can0 628#011BD91BFB7A001B
(1542708321.458496) can0 0CFDD634#01000100FF00F0C3
(1542708321.459337) can0 0CFDD733#0100FFFFFFFFFFFF
(1542708321.463554) can0 0CFDD734#0100FFFFFFFFFFFF
(1542708321.464292) can0 0CFDD633#01000100FF00F0C3
(1542708321.478521) can0 0CFDD634#01000100FF00F0C3
(1542708321.479263) can0 0CFDD733#0100FFFFFFFFFFFF
(1542708321.483539) can0 0CFDD734#0100FFFFFFFFFFFF
(1542708321.485170) can0 0CFDD633#01000100FF00F0C3
(1542708321.486025) can0 628#0148D9B6FA55001B
(1542708321.499434) can0 0CFDD634#01000100FF00F0C3
(1542708321.500227) can0 0CFDD733#0100FFFFFFFFFFFF
(1542708321.504456) can0 0CFDD734#0100FFFFFFFFFFFF
(1542708321.505258) can0 0CFDD633#01000100FF00F0C3
(1542708321.519443) can0 0CFDD634#01000100FF00F0C3
(1542708321.520200) can0 0CFDD733#0100FFFFFFFFFFFF
(1542708321.524412) can0 0CFDD734#0100FFFFFFFFFFFF
(1542708321.525233) can0 0CFDD633#01000100FF00F0C3
(1542708321.526024) can0 628#0106D979FB61001B
(1542708321.540396) can0 0CFDD634#01000100FF00F0C3
(1542708321.541141) can0 0CFDD733#0100FFFFFFFFFFFF
(1542708321.545352) can0 0CFDD734#0100FFFFFFFFFFFF
(1542708321.546093) can0 0CFDD633#01000100FF00F0C3
(1542708321.560300) can0 0CFDD634#01000100FF00F0C3
(1542708321.561081) can0 0CFDD733#0100FFFFFFFFFFFF
(1542708321.565312) can0 0CFDD734#0100FFFFFFFFFFFF
(1542708321.566020) can0 628#012CD901FB76001B
(1542708321.567046) can0 0CFDD633#01000100FF00F0C3
(1542708321.581344) can0 0CFDD634#01000100FF00F0C3
(1542708321.582096) can0 0CFDD733#0100FFFFFFFFFFFF
(1542708321.586312) can0 0CFDD734#0100FFFFFFFFFFFF
(1542708321.587074) can0 0CFDD633#01000100FF00F0C3
(1542708321.602302) can0 0CFDD634#01000100FF00F0C3
(1542708321.603055) can0 0CFDD733#0100FFFFFFFFFFFF
(1542708321.606039) can0 628#013ED9D2FA57001B
(1542708321.606584) can0 0CFDD734#0100FFFFFFFFFFFF
(1542708321.608043) can0 0CFDD633#01000100FF00F0C3
(1542708321.622240) can0 0CFDD634#01000100FF00F0C3
(1542708321.623031) can0 0CFDD733#0100FFFFFFFFFFFF
(1542708321.627249) can0 0CFDD734#0100FFFFFFFFFFFF
(1542708321.627996) can0 0CFDD633#01000100FF00F0C3
(1542708321.643177) can0 0CFDD634#01000100FF00F0C3
(1542708321.644000) can0 0CFDD733#0100FFFFFFFFFFFF
(1542708321.645967) can0 628#0109D977FB85001B
(1542708321.647220) can0 0CFDD734#0100FFFFFFFFFFFF
(1542708321.648936) can0 0CFDD633#01000100FF00F0C3
(1542708321.663147) can0 0CFDD634#01000100FF00F0C3
(1542708321.663945) can0 0CFDD733#0100FFFFFFFFFFFF
(1542708321.668210) can0 0CFDD734#0100FFFFFFFFFFFF
(1542708321.668934) can0 0CFDD633#01000100FF00F0C3
(1542708321.683076) can0 0CFDD634#01000100FF00F0C3
(1542708321.683923) can0 0CFDD733#0100FFFFFFFFFFFF
(1542708321.686023) can0 628#0132D9EAFA79001B
(1542708321.688126) can0 0CFDD734#0100FFFFFFFFFFFF
(1542708321.689870) can0 0CFDD633#01000100FF00F0C3
(1542708321.704081) can0 0CFDD634#01000100FF00F0C3
(1542708321.704874) can0 0CFDD733#0100FFFFFFFFFFFF
(1542708321.709133) can0 0CFDD734#0100FFFFFFFFFFFF
(1542708321.709867) can0 0CFDD633#01000100FF00F0C3
(1542708321.723992) can0 0CFDD634#01000100FF00F0C3
(1542708321.725868) can0 0CFDD733#0100FFFFFFFFFFFF
(1542708321.726254) can0 628#0137D9F1FA5A001B
(1542708321.729106) can0 0CFDD734#0100FFFFFFFFFFFF
(1542708321.730868) can0 0CFDD633#01000100FF00F0C3
(1542708321.741080) can0 18FECA34#00FF00000000FFFF
(1542708321.745000) can0 0CFDD634#01000100FF00F0C3
(1542708321.745830) can0 0CFDD733#0100FFFFFFFFFFFF
(1542708321.750049) can0 0CFDD734#0100FFFFFFFFFFFF
(1542708321.750801) can0 0CFDD633#01000100FF00F0C3
(1542708321.766024) can0 0CFDD634#01000100FF00F0C3
(1542708321.766383) can0 628#010DD96AFB79001B
(1542708321.767012) can0 0CFDD733#0100FFFFFFFFFFFF
(1542708321.770023) can0 0CFDD734#0100FFFFFFFFFFFF
(1542708321.771744) can0 0CFDD633#01000100FF00F0C3
(1542708321.774832) can0 18FECA33#00FF00000000FFFF
(1542708321.785997) can0 0CFDD634#01000100FF00F0C3
(1542708321.786792) can0 0CFDD733#0100FFFFFFFFFFFF
(1542708321.791024) can0 0CFDD734#0100FFFFFFFFFFFF
(1542708321.791708) can0 0CFDD633#01000100FF00F0C3
(1542708321.805944) can0 0CFDD634#01000100FF00F0C3
(1542708321.806304) can0 628#0136D9D9FA74001B
(1542708321.806971) can0 0CFDD733#0100FFFFFFFFFFFF
(1542708321.811908) can0 0CFDD734#0100FFFFFFFFFFFF
(1542708321.812739) can0 0CFDD633#01000100FF00F0C3
(1542708321.826893) can0 0CFDD634#01000100FF00F0C3
(1542708321.827703) can0 0CFDD733#0100FFFFFFFFFFFF
(1542708321.831919) can0 0CFDD734#0100FFFFFFFFFFFF
(1542708321.832711) can0 0CFDD633#01000100FF00F0C3
(1542708321.846064) can0 628#012DD910FB57001B
(1542708321.846856) can0 0CFDD634#01000100FF00F0C3
(1542708321.847675) can0 0CFDD733#0100FFFFFFFFFFFF
(1542708321.851893) can0 0CFDD734#0100FFFFFFFFFFFF
(1542708321.853585) can0 0CFDD633#01000100FF00F0C3
(1542708321.867800) can0 0CFDD634#01000100FF00F0C3
(1542708321.868628) can0 0CFDD733#0100FFFFFFFFFFFF
(1542708321.872867) can0 0CFDD734#0100FFFFFFFFFFFF
(1542708321.873634) can0 0CFDD633#01000100FF00F0C3
(1542708321.886065) can0 628#010BD95BFB82001B
(1542708321.888866) can0 0CFDD634#01000100FF00F0C3
(1542708321.889573) can0 0CFDD733#0100FFFFFFFFFFFF
(1542708321.892868) can0 0CFDD734#0100FFFFFFFFFFFF
(1542708321.894561) can0 0CFDD633#01000100FF00F0C3
(1542708321.908758) can0 0CFDD634#01000100FF00F0C3
(1542708321.909543) can0 0CFDD733#0100FFFFFFFFFFFF
(1542708321.913784) can0 0CFDD734#0100FFFFFFFFFFFF
(1542708321.914608) can0 0CFDD633#01000100FF00F0C3
(1542708321.926059) can0 628#013ED9D9FA63001B
(1542708321.928638) can0 0CFDD634#01000100FF00F0C3
(1542708321.929502) can0 0CFDD733#0100FFFFFFFFFFFF
(1542708321.934695) can0 0CFDD734#0100FFFFFFFFFFFF
(1542708321.935536) can0 0CFDD633#01000100FF00F0C3
(1542708321.949619) can0 0CFDD634#01000100FF00F0C3
(1542708321.950508) can0 0CFDD733#0100FFFFFFFFFFFF
(1542708321.954703) can0 0CFDD734#0100FFFFFFFFFFFF
(1542708321.955456) can0 0CFDD633#01000100FF00F0C3
(1542708321.966127) can0 628#0123D927FB69001B
(1542708321.969659) can0 0CFDD634#01000100FF00F0C3
(1542708321.970498) can0 0CFDD733#0100FFFFFFFFFFFF
(1542708321.974680) can0 0CFDD734#0100FFFFFFFFFFFF
(1542708321.976444) can0 0CFDD633#01000100FF00F0C3
(1542708321.990648) can0 0CFDD634#01000100FF00F0C3
(1542708321.991436) can0 0CFDD733#0100FFFFFFFFFFFF
(1542708321.995588) can0 0CFDD734#0100FFFFFFFFFFFF
(1542708321.996446) can0 0CFDD633#01000100FF00F0C3
(1542708322.006203) can0 628#0118D947FB79001B
(1542708322.011554) can0 0CFDD634#01000100FF00F0C3
(1542708322.012415) can0 0CFDD733#0100FFFFFFFFFFFF
(1542708322.015597) can0 0CFDD734#0100FFFFFFFFFFFF
(1542708322.017353) can0 0CFDD633#01000100FF00F0C3
(1542708322.031545) can0 0CFDD634#01000100FF00F0C3
(1542708322.032389) can0 0CFDD733#0100FFFFFFFFFFFF
(1542708322.036510) can0 0CFDD734#0100FFFFFFFFFFFF
(1542708322.037274) can0 0CFDD633#01000100FF00F0C3
(1542708322.046106) can0 628#013BD9D7FA6D001B
(1542708322.051507) can0 0CFDD634#01000100FF00F0C3
(1542708322.052352) can0 0CFDD733#0100FFFFFFFFFFFF
(1542708322.056437) can0 0CFDD734#0100FFFFFFFFFFFF
(1542708322.058271) can0 0CFDD633#01000100FF00F0C3
(1542708322.072472) can0 0CFDD634#01000100FF00F0C3
(1542708322.073334) can0 0CFDD733#0100FFFFFFFFFFFF
(1542708322.077432) can0 0CFDD734#0100FFFFFFFFFFFF
(1542708322.078271) can0 0CFDD633#01000100FF00F0C3
(1542708322.086177) can0 628#011DD93BFB63001B
(1542708322.092358) can0 0CFDD634#01000100FF00F0C3
(1542708322.093236) can0 0CFDD733#0100FFFFFFFFFFFF
(1542708322.097423) can0 0CFDD734#0100FFFFFFFFFFFF
(1542708322.099206) can0 0CFDD633#01000100FF00F0C3
(1542708322.113420) can0 0CFDD634#01000100FF00F0C3
(1542708322.114282) can0 0CFDD733#0100FFFFFFFFFFFF
(1542708322.118378) can0 0CFDD734#0100FFFFFFFFFFFF
(1542708322.119192) can0 0CFDD633#01000100FF00F0C3
(1542708322.126177) can0 628#011DD92EFB77001B
(1542708322.133393) can0 0CFDD634#01000100FF00F0C3
(1542708322.134255) can0 0CFDD733#0100FFFFFFFFFFFF
(1542708322.138389) can0 0CFDD734#0100FFFFFFFFFFFF
(1542708322.140182) can0 0CFDD633#01000100FF00F0C3
(1542708322.154333) can0 0CFDD634#01000100FF00F0C3
(1542708322.155141) can0 0CFDD733#0100FFFFFFFFFFFF
(1542708322.159297) can0 0CFDD734#0100FFFFFFFFFFFF
(1542708322.160112) can0 0CFDD633#01000100FF00F0C3
(1542708322.166255) can0 628#013AD9E0FA60001B
(1542708322.175312) can0 0CFDD634#01000100FF00F0C3
(1542708322.176153) can0 0CFDD733#0100FFFFFFFFFFFF
(1542708322.179273) can0 0CFDD734#0100FFFFFFFFFFFF
(1542708322.181101) can0 0CFDD633#01000100FF00F0C3
(1542708322.195218) can0 0CFDD634#01000100FF00F0C3
(1542708322.196083) can0 0CFDD733#0100FFFFFFFFFFFF
(1542708322.200224) can0 0CFDD734#0100FFFFFFFFFFFF
(1542708322.201099) can0 0CFDD633#01000100FF00F0C3
(1542708322.206203) can0 628#011BD945FB6C001B
(1542708322.215233) can0 0CFDD634#01000100FF00F0C3
(1542708322.216963) can0 0CFDD733#0100FFFFFFFFFFFF
(1542708322.221235) can0 0CFDD734#0100FFFFFFFFFFFF
(1542708322.222036) can0 0CFDD633#01000100FF00F0C3
(1542708322.236143) can0 0CFDD634#01000100FF00F0C3
(1542708322.236959) can0 0CFDD733#0100FFFFFFFFFFFF
(1542708322.241166) can0 0CFDD734#0100FFFFFFFFFFFF
(1542708322.241925) can0 0CFDD633#01000100FF00F0C3
(1542708322.246167) can0 628#0122D91CFB6E001B
(1542708322.256081) can0 0CFDD634#01000100FF00F0C3
(1542708322.257941) can0 0CFDD733#0100FFFFFFFFFFFF
(1542708322.261140) can0 0CFDD734#0100FFFFFFFFFFFF
(1542708322.262969) can0 0CFDD633#01000100FF00F0C3
(1542708322.277072) can0 0CFDD634#01000100FF00F0C3
(1542708322.277923) can0 0CFDD733#0100FFFFFFFFFFFF
(1542708322.282077) can0 0CFDD734#0100FFFFFFFFFFFF
(1542708322.282923) can0 0CFDD633#01000100FF00F0C3
(1542708322.286254) can0 628#0137D9F0FA60001B
(1542708322.297024) can0 0CFDD634#01000100FF00F0C3
(1542708322.297894) can0 0CFDD733#0100FFFFFFFFFFFF
(1542708322.302099) can0 0CFDD734#0100FFFFFFFFFFFF
(1542708322.303857) can0 0CFDD633#01000100FF00F0C3
(1542708322.318047) can0 0CFDD634#01000100FF00F0C3
(1542708322.318881) can0 0CFDD733#0100FFFFFFFFFFFF
(1542708322.323078) can0 0CFDD734#0100FFFFFFFFFFFF
(1542708322.323868) can0 0CFDD633#01000100FF00F0C3
(1542708322.326333) can0 628#0118D949FB75001B
(1542708322.338021) can0 0CFDD634#01000100FF00F0C3
(1542708322.338865) can0 0CFDD733#0100FFFFFFFFFFFF
(1542708322.343021) can0 0CFDD734#0100FFFFFFFFFFFF
(1542708322.343800) can0 0CFDD633#01000100FF00F0C3
(1542708322.358968) can0 0CFDD634#01000100FF00F0C3
(1542708322.359828) can0 0CFDD733#0100FFFFFFFFFFFF
(1542708322.363935) can0 0CFDD734#0100FFFFFFFFFFFF
(1542708322.364810) can0 0CFDD633#01000100FF00F0C3
(1542708322.366205) can0 628#012AD90BFB81001B
(1542708322.378943) can0 0CFDD634#01000100FF00F0C3
(1542708322.379828) can0 0CFDD733#0100FFFFFFFFFFFF
(1542708322.383884) can0 0CFDD734#0100FFFFFFFFFFFF
(1542708322.385714) can0 0CFDD633#01000100FF00F0C3
(1542708322.399880) can0 0CFDD634#01000100FF00F0C3
(1542708322.400738) can0 0CFDD733#0100FFFFFFFFFFFF
(1542708322.404878) can0 0CFDD734#0100FFFFFFFFFFFF
(1542708322.405669) can0 0CFDD633#01000100FF00F0C3
(1542708322.406170) can0 628#012FD900FB5D001B
(1542708322.420863) can0 0CFDD634#01000100FF00F0C3
(1542708322.421737) can0 0CFDD733#0100FFFFFFFFFFFF
(1542708322.424860) can0 0CFDD734#0100FFFFFFFFFFFF
(1542708322.426699) can0 0CFDD633#01000100FF00F0C3
(1542708322.440864) can0 0CFDD634#01000100FF00F0C3
(1542708322.441710) can0 0CFDD733#0100FFFFFFFFFFFF
(1542708322.445864) can0 0CFDD734#0100FFFFFFFFFFFF
(1542708322.446253) can0 628#0118D946FB6F001B
(1542708322.446828) can0 0CFDD633#01000100FF00F0C3
(1542708322.461827) can0 0CFDD634#01000100FF00F0C3
(1542708322.462611) can0 0CFDD733#0100FFFFFFFFFFFF
(1542708322.465864) can0 0CFDD734#0100FFFFFFFFFFFF
(1542708322.467621) can0 0CFDD633#01000100FF00F0C3
(1542708322.481777) can0 0CFDD634#01000100FF00F0C3
(1542708322.482626) can0 0CFDD733#0100FFFFFFFFFFFF
(1542708322.486244) can0 628#012ED9FBFA6F001B
(1542708322.486829) can0 0CFDD734#0100FFFFFFFFFFFF
(1542708322.487594) can0 0CFDD633#01000100FF00F0C3
(1542708322.502726) can0 0CFDD634#01000100FF00F0C3
(1542708322.503568) can0 0CFDD733#0100FFFFFFFFFFFF
(1542708322.506751) can0 0CFDD734#0100FFFFFFFFFFFF
(1542708322.508573) can0 0CFDD633#01000100FF00F0C3
(1542708322.522699) can0 0CFDD634#01000100FF00F0C3
(1542708322.523527) can0 0CFDD733#0100FFFFFFFFFFFF
(1542708322.526194) can0 628#012AD90EFB5B001B
(1542708322.527654) can0 0CFDD734#0100FFFFFFFFFFFF
(1542708322.528479) can0 0CFDD633#01000100FF00F0C3
(1542708322.542647) can0 0CFDD634#01000100FF00F0C3
(1542708322.544471) can0 0CFDD733#0100FFFFFFFFFFFF
(1542708322.548623) can0 0CFDD734#0100FFFFFFFFFFFF
(1542708322.549470) can0 0CFDD633#01000100FF00F0C3
(1542708322.563584) can0 0CFDD634#01000100FF00F0C3
(1542708322.564456) can0 0CFDD733#0100FFFFFFFFFFFF
(1542708322.566307) can0 628#011AD93FFB6D001B
(1542708322.568628) can0 0CFDD734#0100FFFFFFFFFFFF
(1542708322.570465) can0 0CFDD633#01000100FF00F0C3
(1542708322.584562) can0 0CFDD634#01000100FF00F0C3
(1542708322.585419) can0 0CFDD733#0100FFFFFFFFFFFF
(1542708322.588596) can0 0CFDD734#0100FFFFFFFFFFFF
(1542708322.591413) can0 0CFDD633#01000100FF00F0C3
(1542708322.604548) can0 0CFDD634#01000100FF00F0C3
(1542708322.605413) can0 0CFDD733#0100FFFFFFFFFFFF
(1542708322.606295) can0 628#0130D9F5FA6F001B
(1542708322.609574) can0 0CFDD734#0100FFFFFFFFFFFF
(1542708322.611388) can0 0CFDD633#01000100FF00F0C3
(1542708322.625517) can0 0CFDD634#01000100FF00F0C3
(1542708322.626350) can0 0CFDD733#0100FFFFFFFFFFFF
(1542708322.630517) can0 0CFDD734#0100FFFFFFFFFFFF
(1542708322.631360) can0 0CFDD633#01000100FF00F0C3
(1542708322.645471) can0 0CFDD634#01000100FF00F0C3
(1542708322.646326) can0 0CFDD733#0100FFFFFFFFFFFF
(1542708322.646813) can0 628#0125D91FFB5A001B
(1542708322.650490) can0 0CFDD734#0100FFFFFFFFFFFF
(1542708322.651331) can0 0CFDD633#01000100FF00F0C3
(1542708322.665439) can0 0CFDD634#01000100FF00F0C3
(1542708322.667306) can0 0CFDD733#0100FFFFFFFFFFFF
(1542708322.670438) can0 0CFDD734#0100FFFFFFFFFFFF
(1542708322.672285) can0 0CFDD633#01000100FF00F0C3
(1542708322.686412) can0 0CFDD634#01000100FF00F0C3
(1542708322.686801) can0 628#011AD933FB72001B
(1542708322.687400) can0 0CFDD733#0100FFFFFFFFFFFF
(1542708322.691412) can0 0CFDD734#0100FFFFFFFFFFFF
(1542708322.692228) can0 0CFDD633#01000100FF00F0C3
(1542708322.706386) can0 0CFDD634#01000100FF00F0C3
(1542708322.707217) can0 0CFDD733#0100FFFFFFFFFFFF
(1542708322.711386) can0 0CFDD734#0100FFFFFFFFFFFF
(1542708322.712195) can0 0CFDD633#01000100FF00F0C3
(1542708322.726250) can0 628#0133D9F6FA71001B
(1542708322.727294) can0 0CFDD634#01000100FF00F0C3
(1542708322.728233) can0 0CFDD733#0100FFFFFFFFFFFF
(1542708322.732366) can0 0CFDD734#0100FFFFFFFFFFFF
(1542708322.733203) can0 0CFDD633#01000100FF00F0C3
(1542708322.739331) can0 18FECA34#00FF00000000FFFF
(1542708322.748263) can0 0CFDD634#01000100FF00F0C3
(1542708322.749155) can0 0CFDD733#0100FFFFFFFFFFFF
(1542708322.752262) can0 0CFDD734#0100FFFFFFFFFFFF
(1542708322.753175) can0 0CFDD633#01000100FF00F0C3
(1542708322.766437) can0 628#0121D92AFB5F001B
(1542708322.768237) can0 0CFDD634#01000100FF00F0C3
(1542708322.769064) can0 0CFDD733#0100FFFFFFFFFFFF
(1542708322.773058) can0 18FECA33#00FF00000000FFFF
(1542708322.773636) can0 0CFDD734#0100FFFFFFFFFFFF
(1542708322.774222) can0 0CFDD633#01000100FF00F0C3
(1542708322.788141) can0 0CFDD634#01000100FF00F0C3
(1542708322.790120) can0 0CFDD733#0100FFFFFFFFFFFF
(1542708322.793250) can0 0CFDD734#0100FFFFFFFFFFFF
(1542708322.794058) can0 0CFDD633#01000100FF00F0C3
(1542708322.806360) can0 628#0123D925FB6F001B
(1542708322.809164) can0 0CFDD634#01000100FF00F0C3
(1542708322.810097) can0 0CFDD733#0100FFFFFFFFFFFF
(1542708322.814165) can0 0CFDD734#0100FFFFFFFFFFFF
(1542708322.815072) can0 0CFDD633#01000100FF00F0C3
(1542708322.830094) can0 0CFDD634#01000100FF00F0C3
(1542708322.831036) can0 0CFDD733#0100FFFFFFFFFFFF
(1542708322.834181) can0 0CFDD734#0100FFFFFFFFFFFF
(1542708322.836020) can0 0CFDD633#01000100FF00F0C3
(1542708322.846387) can0 628#012FD9FAFA64001B
(1542708322.850123) can0 0CFDD634#01000100FF00F0C3
(1542708322.852024) can0 0CFDD733#0100FFFFFFFFFFFF
(1542708322.855123) can0 0CFDD734#0100FFFFFFFFFFFF
(1542708322.855993) can0 0CFDD633#01000100FF00F0C3
(1542708322.870098) can0 0CFDD634#01000100FF00F0C3
(1542708322.871993) can0 0CFDD733#0100FFFFFFFFFFFF
(1542708322.875097) can0 0CFDD734#0100FFFFFFFFFFFF
(1542708322.876890) can0 0CFDD633#01000100FF00F0C3
(1542708322.886374) can0 628#011ED931FB66001B
(1542708322.891044) can0 0CFDD634#01000100FF00F0C3
(1542708322.891941) can0 0CFDD733#0100FFFFFFFFFFFF
(1542708322.896012) can0 0CFDD734#0100FFFFFFFFFFFF
(1542708322.896875) can0 0CFDD633#01000100FF00F0C3
(1542708322.911018) can0 0CFDD634#01000100FF00F0C3
(1542708322.912867) can0 0CFDD733#0100FFFFFFFFFFFF
(1542708322.916022) can0 0CFDD734#0100FFFFFFFFFFFF
(1542708322.917890) can0 0CFDD633#01000100FF00F0C3
(1542708322.926385) can0 628#0124D917FB6F001B
(1542708322.931993) can0 0CFDD634#01000100FF00F0C3
(1542708322.932914) can0 0CFDD733#0100FFFFFFFFFFFF
(1542708322.936992) can0 0CFDD734#0100FFFFFFFFFFFF
(1542708322.937863) can0 0CFDD633#01000100FF00F0C3
(1542708322.951903) can0 0CFDD634#01000100FF00F0C3
(1542708322.953862) can0 0CFDD733#0100FFFFFFFFFFFF
(1542708322.956897) can0 0CFDD734#0100FFFFFFFFFFFF
(1542708322.958815) can0 0CFDD633#01000100FF00F0C3
(1542708322.966385) can0 628#0130D901FB5E001B
(1542708322.972889) can0 0CFDD634#01000100FF00F0C3
(1542708322.973826) can0 0CFDD733#0100FFFFFFFFFFFF
(1542708322.977915) can0 0CFDD734#0100FFFFFFFFFFFF
(1542708322.978793) can0 0CFDD633#01000100FF00F0C3
(1542708322.992863) can0 0CFDD634#01000100FF00F0C3
(1542708322.994734) can0 0CFDD733#0100FFFFFFFFFFFF
(1542708322.997852) can0 0CFDD734#0100FFFFFFFFFFFF
(1542708322.999713) can0 0CFDD633#01000100FF00F0C3
(1542708323.006411) can0 628#011CD936FB75001B
(1542708323.013800) can0 0CFDD634#01000100FF00F0C3
(1542708323.014693) can0 0CFDD733#0100FFFFFFFFFFFF
(1542708323.018825) can0 0CFDD734#0100FFFFFFFFFFFF
(1542708323.019670) can0 0CFDD633#01000100FF00F0C3
(1542708323.034862) can0 0CFDD634#01000100FF00F0C3
(1542708323.035643) can0 0CFDD733#0100FFFFFFFFFFFF
(1542708323.039795) can0 0CFDD734#0100FFFFFFFFFFFF
(1542708323.040629) can0 0CFDD633#01000100FF00F0C3
(1542708323.046442) can0 628#012AD90FFB70001B
(1542708323.054754) can0 0CFDD634#01000100FF00F0C3
(1542708323.055656) can0 0CFDD733#0100FFFFFFFFFFFF
(1542708323.059709) can0 0CFDD734#0100FFFFFFFFFFFF
(1542708323.060630) can0 0CFDD633#01000100FF00F0C3
(1542708323.074713) can0 0CFDD634#01000100FF00F0C3
(1542708323.076566) can0 0CFDD733#0100FFFFFFFFFFFF
(1542708323.079715) can0 0CFDD734#0100FFFFFFFFFFFF
(1542708323.081574) can0 0CFDD633#01000100FF00F0C3
(1542708323.086392) can0 628#012BD90BFB67001B
(1542708323.095697) can0 0CFDD634#01000100FF00F0C3
(1542708323.096553) can0 0CFDD733#0100FFFFFFFFFFFF
(1542708323.100660) can0 0CFDD734#0100FFFFFFFFFFFF
(1542708323.101507) can0 0CFDD633#01000100FF00F0C3
(1542708323.116582) can0 0CFDD634#01000100FF00F0C3
(1542708323.117566) can0 0CFDD733#0100FFFFFFFFFFFF
(1542708323.120671) can0 0CFDD734#0100FFFFFFFFFFFF
(1542708323.122530) can0 0CFDD633#01000100FF00F0C3
(1542708323.126437) can0 628#011CD932FB5E001B
(1542708323.136527) can0 0CFDD634#01000100FF00F0C3
(1542708323.137506) can0 0CFDD733#0100FFFFFFFFFFFF
(1542708323.141551) can0 0CFDD734#0100FFFFFFFFFFFF
(1542708323.142501) can0 0CFDD633#01000100FF00F0C3
(1542708323.157592) can0 0CFDD634#01000100FF00F0C3
(1542708323.158478) can0 0CFDD733#0100FFFFFFFFFFFF
(1542708323.161593) can0 0CFDD734#0100FFFFFFFFFFFF
(1542708323.162517) can0 0CFDD633#01000100FF00F0C3
(1542708323.166401) can0 628#0129D908FB68001B
(1542708323.177455) can0 0CFDD634#01000100FF00F0C3
(1542708323.178423) can0 0CFDD733#0100FFFFFFFFFFFF
(1542708323.182530) can0 0CFDD734#0100FFFFFFFFFFFF
(1542708323.183416) can0 0CFDD633#01000100FF00F0C3
(1542708323.197455) can0 0CFDD634#01000100FF00F0C3
(1542708323.199437) can0 0CFDD733#0100FFFFFFFFFFFF
(1542708323.203478) can0 0CFDD734#0100FFFFFFFFFFFF
(1542708323.204374) can0 0CFDD633#01000100FF00F0C3
(1542708323.206542) can0 628#0127D916FB69001B
(1542708323.218488) can0 0CFDD634#01000100FF00F0C3
(1542708323.219374) can0 0CFDD733#0100FFFFFFFFFFFF
(1542708323.223488) can0 0CFDD734#0100FFFFFFFFFFFF
(1542708323.224352) can0 0CFDD633#01000100FF00F0C3
(1542708323.239436) can0 0CFDD634#01000100FF00F0C3
(1542708323.240348) can0 0CFDD733#0100FFFFFFFFFFFF
(1542708323.243462) can0 0CFDD734#0100FFFFFFFFFFFF
(1542708323.245362) can0 0CFDD633#01000100FF00F0C3
(1542708323.246426) can0 628#0121D92CFB75001B
(1542708323.259411) can0 0CFDD634#01000100FF00F0C3
(1542708323.260279) can0 0CFDD733#0100FFFFFFFFFFFF
(1542708323.264375) can0 0CFDD734#0100FFFFFFFFFFFF
(1542708323.265329) can0 0CFDD633#01000100FF00F0C3
(1542708323.280389) can0 0CFDD634#01000100FF00F0C3
(1542708323.281267) can0 0CFDD733#0100FFFFFFFFFFFF
(1542708323.284389) can0 0CFDD734#0100FFFFFFFFFFFF
(1542708323.286241) can0 0CFDD633#01000100FF00F0C3
(1542708323.286667) can0 628#012ED906FB6A001B
(1542708323.300334) can0 0CFDD634#01000100FF00F0C3
(1542708323.301232) can0 0CFDD733#0100FFFFFFFFFFFF
(1542708323.305330) can0 0CFDD734#0100FFFFFFFFFFFF
(1542708323.306214) can0 0CFDD633#01000100FF00F0C3
(1542708323.320307) can0 0CFDD634#01000100FF00F0C3
(1542708323.322216) can0 0CFDD733#0100FFFFFFFFFFFF
(1542708323.325266) can0 0CFDD734#0100FFFFFFFFFFFF
(1542708323.326441) can0 628#0122D921FB66001B
(1542708323.327157) can0 0CFDD633#01000100FF00F0C3
(1542708323.341214) can0 0CFDD634#01000100FF00F0C3
(1542708323.342188) can0 0CFDD733#0100FFFFFFFFFFFF
(1542708323.346237) can0 0CFDD734#0100FFFFFFFFFFFF
(1542708323.348113) can0 0CFDD633#01000100FF00F0C3
(1542708323.361190) can0 0CFDD634#01000100FF00F0C3
(1542708323.363173) can0 0CFDD733#0100FFFFFFFFFFFF
(1542708323.366226) can0 0CFDD734#0100FFFFFFFFFFFF
(1542708323.366610) can0 628#011FD928FB83001B
(1542708323.368088) can0 0CFDD633#01000100FF00F0C3
(1542708323.382162) can0 0CFDD634#01000100FF00F0C3
(1542708323.383098) can0 0CFDD733#0100FFFFFFFFFFFF
(1542708323.387199) can0 0CFDD734#0100FFFFFFFFFFFF
(1542708323.388125) can0 0CFDD633#01000100FF00F0C3
(1542708323.402110) can0 0CFDD634#01000100FF00F0C3
(1542708323.404048) can0 0CFDD733#0100FFFFFFFFFFFF
(1542708323.406513) can0 628#012BD905FB5E001B
(1542708323.407173) can0 0CFDD734#0100FFFFFFFFFFFF
(1542708323.408055) can0 0CFDD633#01000100FF00F0C3
(1542708323.423120) can0 0CFDD634#01000100FF00F0C3
(1542708323.424021) can0 0CFDD733#0100FFFFFFFFFFFF
(1542708323.428152) can0 0CFDD734#0100FFFFFFFFFFFF
(1542708323.429006) can0 0CFDD633#01000100FF00F0C3
(1542708323.444047) can0 0CFDD634#01000100FF00F0C3
(1542708323.444993) can0 0CFDD733#0100FFFFFFFFFFFF
(1542708323.446478) can0 628#0123D927FB6A001B
(1542708323.448089) can0 0CFDD734#0100FFFFFFFFFFFF
(1542708323.449938) can0 0CFDD633#01000100FF00F0C3
(1542708323.464007) can0 0CFDD634#01000100FF00F0C3
(1542708323.464903) can0 0CFDD733#0100FFFFFFFFFFFF
(1542708323.469074) can0 0CFDD734#0100FFFFFFFFFFFF
(1542708323.469950) can0 0CFDD633#01000100FF00F0C3
(1542708323.483981) can0 0CFDD634#01000100FF00F0C3
(1542708323.485965) can0 0CFDD733#0100FFFFFFFFFFFF
(1542708323.486536) can0 628#0125D91FFB76001B
(1542708323.488955) can0 0CFDD734#0100FFFFFFFFFFFF
(1542708323.490938) can0 0CFDD633#01000100FF00F0C3
(1542708323.504890) can0 0CFDD634#01000100FF00F0C3
(1542708323.505853) can0 0CFDD733#0100FFFFFFFFFFFF
(1542708323.509899) can0 0CFDD734#0100FFFFFFFFFFFF
(1542708323.510813) can0 0CFDD633#01000100FF00F0C3
(1542708323.524841) can0 0CFDD634#01000100FF00F0C3
(1542708323.526456) can0 628#012ED908FB67001B
(1542708323.527034) can0 0CFDD733#0100FFFFFFFFFFFF
(1542708323.529893) can0 0CFDD734#0100FFFFFFFFFFFF
(1542708323.531841) can0 0CFDD633#01000100FF00F0C3
(1542708323.545876) can0 0CFDD634#01000100FF00F0C3
(1542708323.546825) can0 0CFDD733#0100FFFFFFFFFFFF
(1542708323.550914) can0 0CFDD734#0100FFFFFFFFFFFF
(1542708323.551824) can0 0CFDD633#01000100FF00F0C3
(1542708323.565860) can0 0CFDD634#01000100FF00F0C3
(1542708323.566549) can0 628#0120D92AFB6A001B
(1542708323.567777) can0 0CFDD733#0100FFFFFFFFFFFF
(1542708323.570842) can0 0CFDD734#0100FFFFFFFFFFFF
(1542708323.571815) can0 0CFDD633#01000100FF00F0C3
(1542708323.586860) can0 0CFDD634#01000100FF00F0C3
(1542708323.587771) can0 0CFDD733#0100FFFFFFFFFFFF
(1542708323.591861) can0 0CFDD734#0100FFFFFFFFFFFF
(1542708323.592783) can0 0CFDD633#01000100FF00F0C3
(1542708323.606564) can0 628#0126D916FB66001B
(1542708323.607119) can0 0CFDD634#01000100FF00F0C3
(1542708323.607743) can0 0CFDD733#0100FFFFFFFFFFFF
(1542708323.611860) can0 0CFDD734#0100FFFFFFFFFFFF
(1542708323.613684) can0 0CFDD633#01000100FF00F0C3
(1542708323.627774) can0 0CFDD634#01000100FF00F0C3
(1542708323.628682) can0 0CFDD733#0100FFFFFFFFFFFF
(1542708323.632777) can0 0CFDD734#0100FFFFFFFFFFFF
(1542708323.633701) can0 0CFDD633#01000100FF00F0C3
(1542708323.646644) can0 628#012AD90EFB6C001B
(1542708323.647754) can0 0CFDD634#01000100FF00F0C3
