(1542701846.465632) can0 628#0164FF5AFF52001D
(1542701846.505709) can0 628#0160FF5AFF50001D
(1542701846.545790) can0 628#0164FF59FF56001D
(1542701846.585673) can0 628#0161FF59FF5B001D
(1542701846.625751) can0 628#0163FF59FF56001D
(1542701846.665776) can0 628#0164FF59FF51001D
(1542701846.705878) can0 628#0163FF59FF4B001D
(1542701846.745778) can0 628#0164FF58FF55001D
(1542701846.785803) can0 628#0164FF57FF54001D
(1542701846.825797) can0 628#0163FF59FF4B001D
(1542701846.865833) can0 628#0163FF5AFF46001D
(1542701846.905828) can0 628#0163FF59FF4B001D
(1542701846.945832) can0 628#0164FF58FF59001D
(1542701846.985886) can0 628#0161FF5AFF53001D
(1542701847.025846) can0 628#0163FF5AFF50001D
(1542701847.065852) can0 628#0162FF59FF61001D
(1542701847.105881) can0 628#0164FF58FF58001D
(1542701847.145960) can0 628#0163FF59FF48001D
(1542701847.185886) can0 628#0164FF5AFF59001D
(1542701847.225909) can0 628#0163FF5AFF56001D
(1542701847.265941) can0 628#0164FF59FF4E001D
(1542701847.305935) can0 628#0162FF57FF50001D
(1542701847.345941) can0 628#0162FF59FF4C001D
(1542701847.385962) can0 628#0164FF57FF3E001D
(1542701847.426040) can0 628#0164FF58FF59001D
(1542701847.465969) can0 628#0164FF59FF62001D
(1542701847.505989) can0 628#0164FF59FF50001D
(1542701847.546042) can0 628#0164FF58FF54001D
(1542701847.586021) can0 628#0164FF57FF60001D
(1542701847.626020) can0 628#0165FF57FF4F001D
(1542701847.666031) can0 628#0163FF5AFF4D001D
(1542701847.706088) can0 628#0163FF58FF54001D
(1542701847.746067) can0 628#01B0FFF7003F021D
(1542701847.786041) can0 628#011AFFAEFEED021D
(1542701847.826076) can0 628#0160FD71FFEE041D
(1542701847.866179) can0 628#01C7FF9C004E0F1D
(1542701847.906097) can0 628#01F1FE28FF55101D
(1542701847.946102) can0 628#01A3F9B00054161D
(1542701847.986098) can0 628#016D01D9FF4A051D
(1542701848.026124) can0 628#014F009601C0FA1D
(1542701848.066124) can0 628#0162FB520507FC1D
(1542701848.106151) can0 628#01DFFBD703DFFE1D
(1542701848.146237) can0 628#0133FC4D0583FC1D
(1542701848.186156) can0 628#018001AE0339FE1D
(1542701848.226182) can0 628#01EDFFB2027DFE1D
(1542701848.266179) can0 628#0194FECD0159041D
(1542701848.306286) can0 628#0146FEE2007C051D
(1542701848.346213) can0 628#0163FBD50029071D
(1542701848.386238) can0 628#012BFD05FFC3011D
(1542701848.426235) can0 628#01E3FB60FFFE011D
(1542701848.466261) can0 628#010EF9F6FE02051D
(1542701848.506262) can0 628#01FAFB67FE6F001D
(1542701848.546263) can0 628#01C0F9BCFE44021D
(1542701848.586346) can0 628#0117FA50FEB9021D
(1542701848.626242) can0 628#01DBFB47FEB4FE1D
(1542701848.666294) can0 628#01FDF94CFFAC001D
(1542701848.706342) can0 628#014BFB15FFDD001D
(1542701848.746321) can0 628#0175FA1D0059031D
(1542701848.786320) can0 628#01CBF83600C5031D
(1542701848.826349) can0 628#011BF9B5009E001D
(1542701848.866426) can0 628#01F7F8E50157011D
(1542701848.906308) can0 628#010DF83C0394021D
(1542701848.946374) can0 628#01D5F9950533FE1D
(1542701848.986334) can0 628#01BBF9610794F91D
(1542701849.026493) can0 628#019FF80A0AC6FF1D
(1542701849.066390) can0 628#01BCFB7A0B0CFB1D
(1542701849.106422) can0 628#012AFABF0F0EFF1D
(1542701849.146419) can0 628#019FFAA91031051D
(1542701849.186419) can0 628#0111FE1A16CD021D
(1542701849.226455) can0 628#0171FC4B17C4001D
(1542701849.266456) can0 628#014AFC641A40091D
(1542701849.306556) can0 628#0166FEBC18330D1D
(1542701849.346478) can0 628#0129FA871DE1051D
(1542701849.386481) can0 628#0130FEB91DF9051D
(1542701849.426509) can0 628#0118FCE7218A011D
(1542701849.466609) can0 628#0120FDE822BFFF1D
(1542701849.506441) can0 628#01C0FD4523E1FD1D
(1542701849.546433) can0 628#0148FE1025A7F91D
(1542701849.586562) can0 628#017FFE10241C041D
(1542701849.626563) can0 628#01CCFFEA2686FE1D
(1542701849.666538) can0 628#0164FD232875F91D
(1542701849.706550) can0 628#014AFEE6248AF91D
(1542701849.746719) can0 628#01D9FF762628FD1D
(1542701849.786607) can0 628#01CCFD9E27C5FE1D
(1542701849.826617) can0 628#01C1FF652729F91D
(1542701849.866644) can0 628#010DFF77270C071D
(1542701849.906639) can0 628#01DCFFB2273E0D1D
(1542701849.946644) can0 628#011C01F62779FB1D
(1542701849.986646) can0 628#0137FC99261B041D
(1542701850.026727) can0 628#011A00EF2739041D
(1542701850.066727) can0 628#01E2FFF727A8F61D
(1542701850.106729) can0 628#018EFED826D2FE1D
(1542701850.146734) can0 628#01E8005B273DF91D
(1542701850.186811) can0 628#01C4FF5F26F4F41D
(1542701850.226734) can0 628#0114009326DB001D
(1542701850.266733) can0 628#011D018927E1FD1D
(1542701850.306729) can0 628#01BAFFB1250C001D
(1542701850.346760) can0 628#010A0079255F0D1D
(1542701850.386761) can0 628#01E1001F2846031D
(1542701850.426761) can0 628#018900AF2762FE1D
(1542701850.466864) can0 628#01A40088256AF61D
(1542701850.506784) can0 628#01A0FF3F2945FE1D
(1542701850.546815) can0 628#015700F327E8011D
(1542701850.586815) can0 628#018F00D3268EFA1D
(1542701850.626919) can0 628#01E7FF092730021D
(1542701850.666744) can0 628#015A01312555051D
(1542701850.706838) can0 628#01F602B227F3FC1D
(1542701850.746868) can0 628#01E301D2295DFC1D
(1542701850.786870) can0 628#018BFEA126DBFD1D
(1542701850.826896) can0 628#0189FF5224FD011D
(1542701850.866896) can0 628#014E01C4260D031D
(1542701850.906995) can0 628#0176059C25B0E61D
(1542701850.946892) can0 628#0192FC8626FCF71D
(1542701850.986906) can0 628#014903622725011D
(1542701851.026972) can0 628#01D006472474F31D
(1542701851.066946) can0 628#017B008A24AF051D
(1542701851.106973) can0 628#01FE05A4247F041D
(1542701851.146972) can0 628#010005B923ADFE1D
(1542701851.187028) can0 628#017B01732046041D
(1542701851.226977) can0 628#01EC056E1EC2031D
(1542701851.266934) can0 628#01BA05AE1F4FF91D
(1542701851.307025) can0 628#018F02A31F74001D
(1542701851.347107) can0 628#01F905091EA2031D
(1542701851.387031) can0 628#0179038F1C09FA1D
(1542701851.427057) can0 628#018002E019AEFC1D
(1542701851.467058) can0 628#016502AA1896FB1D
(1542701851.506966) can0 628#01C8032F1739FB1D
(1542701851.547083) can0 628#01B503BC149D031D
(1542701851.587111) can0 628#01E1037E136AFD1D
(1542701851.627163) can0 628#01CA01271282FF1D
(1542701851.667108) can0 628#01F7037811ED051D
(1542701851.707122) can0 628#018C02AA0D04041D
(1542701851.747135) can0 628#0168FEA70E2A0D1D
(1542701851.787209) can0 628#011100960BD4021D
(1542701851.827161) can0 628#01EEFCB709B5071D
(1542701851.867100) can0 628#012DFC8207E4091D
(1542701851.907188) can0 628#017FFC790311011D
(1542701851.947188) can0 628#0142FD8C02200F1D
(1542701851.987214) can0 628#01A9FE780141061D
(1542701852.027220) can0 628#0196015B004A051D
(1542701852.067301) can0 628#011404D1FAFEFB1D
(1542701852.107215) can0 628#01680559F8C7FA1D
(1542701852.147248) can0 628#01120350F955F91D
(1542701852.187273) can0 628#01D2041BF594F71D
(1542701852.227270) can0 628#010A03AFF254F51D
(1542701852.267271) can0 628#018300D3EF94F31D
(1542701852.307272) can0 628#01EE01E6EC38F71D
(1542701852.347354) can0 628#01950075EB4FF81D
(1542701852.387302) can0 628#01C2FF4AE8E9FA1D
(1542701852.427329) can0 628#01E9FF6FE7B1FC1D
(1542701852.467263) can0 628#01310096E5D0FF1D
(1542701852.507431) can0 628#01990290E247FB1D
(1542701852.547352) can0 628#0149FE0FE396FD1D
(1542701852.587357) can0 628#019A0062DF63011D
(1542701852.627378) can0 628#01FBFFBDDEA3F91D
(1542701852.667383) can0 628#01E1FC93DE23001D
(1542701852.707380) can0 628#01D5FE53DAF5FF1D
(1542701852.747410) can0 628#01D3FEA7DA94FB1D
(1542701852.787464) can0 628#012DFEABD999FF1D
(1542701852.827436) can0 628#016EFF60D8D3FB1D
(1542701852.867350) can0 628#0126FD4DDA1DFC1D
(1542701852.907459) can0 628#01D8FD41D9E8FF1D
(1542701852.947542) can0 628#0191FC08DA8BFD1D
(1542701852.987401) can0 628#015BFD66D9BE011D
(1542701853.027451) can0 628#0108FEE6D8C3FE1D
(1542701853.067416) can0 628#012DFD41DA62FF1D
(1542701853.107483) can0 628#01C8FD72DA7C021D
(1542701853.147510) can0 628#01C5FDF3D9A4001D
(1542701853.187514) can0 628#01D8FC7FDAC9FE1D
(1542701853.227622) can0 628#0175FCAFDA39031D
(1542701853.267545) can0 628#0153FE13DABE021D
(1542701853.307543) can0 628#01C6FE9ED9ED001D
(1542701853.347597) can0 628#019CFE68D935001D
(1542701853.387567) can0 628#0152FEAED96F001D
(1542701853.427567) can0 628#01AEFE1BD954011D
(1542701853.467599) can0 628#0125FFA2D827FE1D
(1542701853.507673) can0 628#0197FE59D9F9FD1D
(1542701853.547626) can0 628#01A5FD65DA96001D
(1542701853.587625) can0 628#01CAFD01DBB6001D
(1542701853.627627) can0 628#01C8FD54D9F6021D
(1542701853.667670) can0 628#0124FE8CD861FF1D
(1542701853.707630) can0 628#01A6FD4AD9ECFE1D
(1542701853.747631) can0 628#01D3FC3AD993061D
(1542701853.787657) can0 628#01BBFE11DBAC021D
(1542701853.827753) can0 628#0187FFC2DB38031D
(1542701853.867757) can0 628#0150FE22DBD7001D
(1542701853.907763) can0 628#01E4FEE5DCF9FF1D
(1542701853.947793) can0 628#018CFE76DCC6001D
(1542701853.987763) can0 628#0112FE0CDDEB051D
(1542701854.027769) can0 628#01290082E05E021D
(1542701854.067764) can0 628#0122FEF0E376051D
(1542701854.107869) can0 628#019900ABE4D3011D
(1542701854.147770) can0 628#01B201D6E72EFA1D
(1542701854.187797) can0 628#01CDFDF6E947FE1D
(1542701854.227796) can0 628#01C9FC17EA56021D
(1542701854.267732) can0 628#01BBFB0EED96041D
(1542701854.307821) can0 628#0165FD04EF19071D
(1542701854.347849) can0 628#01C1FFF5EFAE031D
(1542701854.387927) can0 628#0104FF63F162001D
(1542701854.427850) can0 628#01F8FD6CF2FD031D
(1542701854.467877) can0 628#01090032F312001D
(1542701854.507855) can0 628#01D1FEDFF3D8001D
(1542701854.547904) can0 628#013400E1F76C001D
(1542701854.587903) can0 628#01870098FA4FFE1D
(1542701854.627900) can0 628#0138FEABF947001D
(1542701854.667992) can0 628#0136FFD2FD75FF1D
(1542701854.707927) can0 628#019EFEFDFCE4FF1D
(1542701854.747956) can0 628#01B9FDA1FDF5FF1D
(1542701854.787957) can0 628#0137FE84FFF7011D
(1542701854.827964) can0 628#01DDFF31FF1D021D
(1542701854.867984) can0 628#01B0FF68FF6E001D
(1542701854.907983) can0 628#0109FFE1FFD2001D
(1542701854.948011) can0 628#01B9FF0600E9001D
(1542701854.988011) can0 628#011AFF00FFF0011D
(1542701855.028007) can0 628#019401B5FE74001D
(1542701855.068051) can0 628#01C90115027EFE1D
(1542701855.108117) can0 628#01F8039EFF97FA1D
(1542701855.148066) can0 628#01FD039F00EBFE1D
(1542701855.188064) can0 628#012C05470090F81D
(1542701855.228065) can0 628#011F088C026FF91D
(1542701855.268170) can0 628#01360A90023CFD1D
(1542701855.308092) can0 628#01C30B5502FBFA1D
(1542701855.348093) can0 628#01560DD300E6021D
(1542701855.388118) can0 628#01D60C7802F2FA1D
(1542701855.428119) can0 628#012C12D3000BF21D
(1542701855.468122) can0 628#01531A31038B081D
(1542701855.508148) can0 628#01F5186F0390031D
(1542701855.548250) can0 628#01AE1A50019AFD1D
(1542701855.588147) can0 628#01E61CC50095FF1D
(1542701855.628115) can0 628#01AC1E500101011D
(1542701855.668227) can0 628#01681F300253FD1D
(1542701855.708136) can0 628#010622210366FD1D
(1542701855.748177) can0 628#012C23A9028EFC1D
(1542701855.788157) can0 628#016825D20105FC1D
(1542701855.828292) can0 628#01662437026EFB1D
(1542701855.868215) can0 628#01C323BC02D9FF1D
(1542701855.908162) can0 628#015525290200011D
(1542701855.948261) can0 628#017C27C3FE48FF1D
(1542701855.988304) can0 628#0161278400D1001D
(1542701856.028234) can0 628#01E225B50023011D
(1542701856.068220) can0 628#01A728E8FFD1021D
(1542701856.108244) can0 628#0180257E03C9FF1D
(1542701856.148256) can0 628#01F6273001C0FB1D
(1542701856.188238) can0 628#017426220260FF1D
(1542701856.228337) can0 628#01802750011DFA1D
(1542701856.268350) can0 628#017227D50037011D
(1542701856.308293) can0 628#011B26CF0157FF1D
(1542701856.348365) can0 628#013927A90056FF1D
(1542701856.388323) can0 628#0153271801F1001D
(1542701856.428373) can0 628#012727190112011D
(1542701856.468400) can0 628#0139272A01F0FF1D
(1542701856.508403) can0 628#0161272C01B5001D
(1542701856.548441) can0 628#01112713019C011D
(1542701856.588441) can0 628#011227F000BAFF1D
(1542701856.628442) can0 628#01BB261201C1FE1D
(1542701856.668392) can0 628#01C2268A001DFE1D
(1542701856.708576) can0 628#01F925D00057001D
(1542701856.748472) can0 628#013B26C10050FF1D
(1542701856.788414) can0 628#014A26750093021D
(1542701856.828525) can0 628#010D262300EAFE1D
(1542701856.868521) can0 628#01E02408014DFF1D
(1542701856.908521) can0 628#010724510092FC1D
(1542701856.948462) can0 628#01B0232E008AFE1D
(1542701856.988600) can0 628#01FA226C00B9FE1D
(1542701857.028537) can0 628#014122D6FF00FD1D
(1542701857.068539) can0 628#01492106FF2EFF1D
(1542701857.108580) can0 628#01DF1FBDFF39001D
(1542701857.148588) can0 628#01591D59FF3A001D
(1542701857.188603) can0 628#01AD1BB4FEE4FE1D
(1542701857.228602) can0 628#013F1A86FF97001D
(1542701857.268633) can0 628#01AD1799FF74FD1D
(1542701857.308634) can0 628#019B160EFE1BFC1D
(1542701857.348635) can0 628#01891498FEC1FC1D
(1542701857.388656) can0 628#01BA117EFE96FB1D
(1542701857.428708) can0 628#014310B3FD6CFF1D
(1542701857.468661) can0 628#01610ED8FDB3FE1D
(1542701857.508683) can0 628#011F0CCDFEF4FD1D
(1542701857.548688) can0 628#01F1094AFEF9FD1D
(1542701857.588801) can0 628#01880773FE14041D
(1542701857.628715) can0 628#013D044EFEBD011D
(1542701857.668799) can0 628#01490108FF27FC1D
(1542701857.708802) can0 628#0170004EFEFA071D
(1542701857.748777) can0 628#01A6FC78FFD0141D
(1542701857.788801) can0 628#01700435FC130B1D
(1542701857.828789) can0 628#01070197FDEBFB1D
(1542701857.868882) can0 628#01F9FFD4FD2F011D
(1542701857.908794) can0 628#01D600EDFD55021D
(1542701857.948799) can0 628#015A0074FE07FF1D
(1542701857.988856) can0 628#0143FEECFE0C031D
(1542701858.028828) can0 628#01910022FD21031D
(1542701858.068827) can0 628#01430038FEB4FF1D
(1542701858.108854) can0 628#015EFF3EFFC3031D
(1542701858.148937) can0 628#01E800E4FFEF011D
(1542701858.188884) can0 628#0173003E023B011D
(1542701858.228881) can0 628#012000250076021D
(1542701858.268885) can0 628#0109008EFCC7FF1D
(1542701858.309015) can0 628#0183FDDDFEE3001D
(1542701858.348912) can0 628#01B2FE3CFE42011D
(1542701858.388909) can0 628#0148FDA4FDE2FF1D
(1542701858.428937) can0 628#0191FA1DFFD4FB1D
(1542701858.468935) can0 628#0194FA3BFE9EFB1D
(1542701858.508966) can0 628#019FFA0CFDE4FC1D
(1542701858.548965) can0 628#01D6F5E1FD0BFD1D
(1542701858.589039) can0 628#019DF4EAFC11FE1D
(1542701858.628988) can0 628#01FCF154FD5EFF1D
(1542701858.668990) can0 628#01F0F150FDCAFF1D
(1542701858.709019) can0 628#0176EF62FD12FE1D
(1542701858.749093) can0 628#01D5ECCCFC57F81D
(1542701858.789041) can0 628#01BFE83BFC03021D
(1542701858.829042) can0 628#01C2E9BDFC6FFE1D
(1542701858.869047) can0 628#01ADE6B8FCE4FA1D
(1542701858.909069) can0 628#0153E4C7FC83001D
(1542701858.949069) can0 628#01ECE37BFC5BFC1D
(1542701858.989095) can0 628#0120E09CFC7FFF1D
(1542701859.029114) can0 628#016BE149FDFEFF1D
(1542701859.069101) can0 628#01E5DDADFC55001D
(1542701859.109059) can0 628#0122DD2CFDC2FC1D
(1542701859.149179) can0 628#0155DCC1FC11FC1D
(1542701859.189149) can0 628#012FDC0DFE62FD1D
(1542701859.229152) can0 628#014DDCC8FD11F71D
(1542701859.269154) can0 628#0163DABDFE4EF71D
(1542701859.309228) can0 628#011ED9E7FED1001D
(1542701859.349181) can0 628#0145DBC8FE16011D
(1542701859.389208) can0 628#01ECD641FE00051D
(1542701859.429207) can0 628#0136D9DCFE44011D
(1542701859.469251) can0 628#019FD7B8FD03041D
(1542701859.509186) can0 628#0185D87AFE06041D
(1542701859.549236) can0 628#0153D927FE2AFD1D
(1542701859.589256) can0 628#0187D8DBFD0C001D
(1542701859.629231) can0 628#018DD944FEE1FE1D
(1542701859.669261) can0 628#01D6D92DFEBF011D
(1542701859.709288) can0 628#01E1D959FEF3FE1D
(1542701859.749344) can0 628#01FBD99DFE5FFF1D
(1542701859.789264) can0 628#018CD903FE64001D
(1542701859.829277) can0 628#012ED984FE24011D
(1542701859.869305) can0 628#0153D9BBFEEDFE1D
(1542701859.909420) can0 628#01D8D85AFE3C021D
(1542701859.949346) can0 628#0174D9DDFD0D001D
(1542701859.989372) can0 628#01F7D8A5FD23FF1D
(1542701860.029371) can0 628#013ED841FEE8041D
(1542701860.069372) can0 628#015ED8FEFD8F0A1D
(1542701860.109398) can0 628#018DD91FFE91081D
(1542701860.149394) can0 628#01CFDAB1FC05071D
(1542701860.189503) can0 628#018CDAC7FBF5021D
(1542701860.229421) can0 628#01E6DC28FC7AF91D
(1542701860.269425) can0 628#0184DA85FCC0FC1D
(1542701860.309478) can0 628#014EDA1CFDD5011D
(1542701860.349453) can0 628#01D2DC28FD81011D
(1542701860.389449) can0 628#0179DC92FD63031D
(1542701860.429479) can0 628#0152DFC7FD70021D
(1542701860.469520) can0 628#014CDF6AFDE2001D
(1542701860.509475) can0 628#014EE24CFDE5FF1D
(1542701860.549506) can0 628#0103E2E0FD47FF1D
(1542701860.589507) can0 628#0118E2C1FDB8FE1D
(1542701860.629606) can0 628#016CE5DBFDFB001D
(1542701860.669533) can0 628#0188E519FE31041D
(1542701860.709559) can0 628#01E2E701FE99041D
(1542701860.749560) can0 628#01FFE7E8FD4B051D
(1542701860.789557) can0 628#0163EB5CFDB9031D
(1542701860.829587) can0 628#017EEDACFD27021D
(1542701860.869588) can0 628#012FEDCAFD0E051D
(1542701860.909661) can0 628#018FEF80FD97041D
(1542701860.949614) can0 628#01EAEFE7FCA2061D
(1542701860.989614) can0 628#01CCF381FD0D0D1D
(1542701861.029601) can0 628#01F4F7B6FDB7071D
(1542701861.069718) can0 628#01B6FAF3FE19091D
(1542701861.109636) can0 628#0128FEE8FE29061D
(1542701861.149662) can0 628#01AF00F3FE84021D
(1542701861.189664) can0 628#0147011100B7FD1D
(1542701861.229689) can0 628#012E0260FF7FF91D
(1542701861.269695) can0 628#01FE026FFF89FC1D
(1542701861.309721) can0 628#012D0249FEBE021D
(1542701861.349834) can0 628#01E90081FDE3061D
(1542701861.389722) can0 628#01F60299FE7AFF1D
(1542701861.429748) can0 628#012D058BFF61F91D
(1542701861.469833) can0 628#0154034DFE57F71D
(1542701861.509746) can0 628#0133FB9DFDE2EF1D
(1542701861.549835) can0 628#013A014E00EDE51D
(1542701861.589837) can0 628#011CFF21FD36F41D
(1542701861.629858) can0 628#01AE03E9FD9BFD1D
(1542701861.669838) can0 628#01790178FF06011D
(1542701861.709837) can0 628#01DD02F1FEF6061D
(1542701861.749833) can0 628#0114016AFFBD011D
(1542701861.789928) can0 628#013200A0FCA6F81D
(1542701861.829837) can0 628#01790030FE92F11D
(1542701861.869860) can0 628#0113001DFD58F31D
(1542701861.909861) can0 628#01B200ABFCE3F71D
(1542701861.949887) can0 628#013C0093FF00FB1D
(1542701861.989889) can0 628#018A0407FDCEF61D
(1542701862.029918) can0 628#01FFFFE1001FFD1D
(1542701862.069955) can0 628#01A101F800EA0B1D
(1542701862.109941) can0 628#01E9067DFE8A181D
(1542701862.149945) can0 628#018D0399FCBA0A1D
(1542701862.189941) can0 628#01CB01A00095FC1D
(1542701862.230018) can0 628#01B40163F956011D
(1542701862.269972) can0 628#015201A3FCF4111D
(1542701862.309999) can0 628#01CF0195040EFD1D
(1542701862.349999) can0 628#014EFF1FFE81F51D
(1542701862.389996) can0 628#01240276FD32F91D
(1542701862.429931) can0 628#01EB0558FD91F01D
(1542701862.470020) can0 628#01B0FFE7FA43FE1D
(1542701862.510104) can0 628#0124010300E9F21D
(1542701862.550053) can0 628#014E03BEFD30DF1D
(1542701862.590048) can0 628#01F6014EFD27DB1D
(1542701862.630130) can0 628#0194009EFE60DD1D
(1542701862.670079) can0 628#017D013DFEB3E01D
(1542701862.710079) can0 628#012C0230FF33E01D
(1542701862.750105) can0 628#01E103EAFF1FD61D
(1542701862.790179) can0 628#013E0309015FCB1D
(1542701862.830128) can0 628#010B011CFFEFD11D
(1542701862.870106) can0 628#010F03AEFF1DD71D
(1542701862.910132) can0 628#013C03120006DA1D
(1542701862.950233) can0 628#014E041300BCD51D
(1542701862.990143) can0 628#019704F400E2C61D
(1542701863.030153) can0 628#01DC011CFF0EC41D
(1542701863.070183) can0 628#01610039FED7CF1D
(1542701863.110183) can0 628#01AD0115FF9ADA1D
(1542701863.150183) can0 628#017802FCFE34D71D
(1542701863.190214) can0 628#01AE0189FEB7DB1D
(1542701863.230313) can0 628#016901A7FE07DB1D
(1542701863.270241) can0 628#016F0121FF94DC1D
(1542701863.310238) can0 628#01D9FECBFDF2E51D
(1542701863.350241) can0 628#0195FF8CFF08E91D
(1542701863.390370) can0 628#01460060FF07E51D
(1542701863.430294) can0 628#0176FECFFE4EE41D
(1542701863.470289) can0 628#0185FF88FFA7E31D
(1542701863.510291) can0 628#0181FFEEFEF5E61D
(1542701863.550321) can0 628#01B5FE4EFFF7ED1D
(1542701863.590317) can0 628#019CFE67FF9CF41D
(1542701863.630317) can0 628#0119FF66FE56F61D
(1542701863.670455) can0 628#019FFECFFEECFB1D
(1542701863.710347) can0 628#01C0FF16FF67FB1D
(1542701863.750378) can0 628#015DFFB7FEE7FD1D
(1542701863.790406) can0 628#0175FF30FF6B021D
(1542701863.830364) can0 628#010E009CFE9C001D
(1542701863.870400) can0 628#01DBFF05FF48021D
(1542701863.910355) can0 628#015700CFFECFFF1D
(1542701863.950483) can0 628#013E00BCFEE9FF1D
(1542701863.990431) can0 628#01A400B5FEB2FF1D
(1542701864.030454) can0 628#01CAFFEFFE4CFF1D
(1542701864.070376) can0 628#011A007FFEEF031D
(1542701864.110475) can0 628#01F7FF68FEC1061D
(1542701864.150396) can0 628#013100D5FEFF0A1D
(1542701864.190396) can0 628#0185FFAFFE99191D
(1542701864.230423) can0 628#016E0001FF4E181D
(1542701864.270423) can0 628#010D0044FFCA191D
(1542701864.310424) can0 628#01F1FD99FF92241D
(1542701864.350424) can0 628#017DFF2E00C2291D
(1542701864.390528) can0 628#011800C6FFD7301D
(1542701864.430451) can0 628#01D8FF5BFF5A301D
(1542701864.470476) can0 628#0139020B0078251D
(1542701864.510477) can0 628#011302EEFFB11E1D
(1542701864.550621) can0 628#01220009FFC11C1D
(1542701864.590570) can0 628#01E3FF55FFE7201D
(1542701864.630571) can0 628#01730051FF9A211D
(1542701864.670600) can0 628#0188FF68FE1C251D
(1542701864.710600) can0 628#015CFF7AFEFE2C1D
(1542701864.750630) can0 628#0167FFD3FDF7311D
(1542701864.790627) can0 628#01DD0033FF03351D
(1542701864.830677) can0 628#01FF025101222C1D
(1542701864.870656) can0 628#013002C800A6221D
(1542701864.910638) can0 628#01B900F6FEFD231D
(1542701864.950710) can0 628#01A6010F00662B1D
(1542701864.990675) can0 628#01CE028901232E1D
(1542701865.030684) can0 628#01C00359029D261D
(1542701865.070719) can0 628#01F5023103AE191D
(1542701865.110861) can0 628#013CFFFE00A9181D
(1542701865.150729) can0 628#01FA01C4001D1D1D
(1542701865.190683) can0 628#0105025CFF601E1D
(1542701865.230764) can0 628#016F04A802F9221D
(1542701865.270841) can0 628#019D03DB0380151D
(1542701865.310767) can0 628#01C504650703011D
(1542701865.350843) can0 628#014802E00116F61D
(1542701865.390852) can0 628#0180011DFD9CFE1D
(1542701865.430846) can0 628#0173FDCA0075F91D
(1542701865.470857) can0 628#01F0FB3AFE84FE1D
(1542701865.510785) can0 628#0177FE21FE4F001D
(1542701865.550838) can0 628#015BFE4EFB05FD1D
(1542701865.590852) can0 628#0189FC71FC94FE1D
(1542701865.630859) can0 628#0174023903C5FF1D
(1542701865.670866) can0 628#01AB032BFD89041D
(1542701865.711001) can0 628#0187039904B20F1D
(1542701865.750893) can0 628#01D101660477071D
(1542701865.790882) can0 628#013B000C01CB0A1D
(1542701865.830938) can0 628#01B600AF0483101D
(1542701865.870939) can0 628#01E10207064E051D
(1542701865.910939) can0 628#014402910442011D
(1542701865.950963) can0 628#01A201D1002D041D
(1542701865.991043) can0 628#01C9015502A70A1D
(1542701866.030966) can0 628#01E8FEB40438051D
(1542701866.070993) can0 628#01B800ED0091051D
(1542701866.110979) can0 628#017BFF5902210E1D
(1542701866.150989) can0 628#016DFA51068D301D
(1542701866.191019) can0 628#01190471FE6B221D
(1542701866.231017) can0 628#011B0253FFD1171D
(1542701866.271098) can0 628#01EB00D00136261D
(1542701866.311046) can0 628#01890393010D201D
(1542701866.351043) can0 628#01BC00AF0586221D
(1542701866.391019) can0 628#01A602D70253231D
(1542701866.431179) can0 628#01A902A701661F1D
(1542701866.471099) can0 628#0188011003F7211D
(1542701866.511100) can0 628#01F604E6FFA51E1D
(1542701866.551017) can0 628#016301FF01E81E1D
(1542701866.591123) can0 628#01C9015B015A201D
(1542701866.631128) can0 628#01AE018A0198211D
(1542701866.671165) can0 628#0197033B028D1C1D
(1542701866.711240) can0 628#0174047E0279151D
(1542701866.751166) can0 628#018E03CD003F1A1D
(1542701866.791187) can0 628#0178FFC7013F2D1D
(1542701866.831193) can0 628#017A07080449221D
(1542701866.871297) can0 628#018805CF0311181D
(1542701866.911215) can0 628#0158049DFF89191D
(1542701866.951215) can0 628#014905D90193211D
(1542701866.991241) can0 628#014D0684032D1D1D
(1542701867.031241) can0 628#01D30155FF4D1E1D
(1542701867.071273) can0 628#016E01CAFFE1271D
(1542701867.111273) can0 628#0174025BFE59211D
(1542701867.151376) can0 628#016900F6FFED191D
(1542701867.191301) can0 628#01FB005EFFF4121D
(1542701867.231296) can0 628#01CC0015FFAB091D
(1542701867.271352) can0 628#017AFF43FF95041D
(1542701867.311326) can0 628#0143FFF8FCEB051D
(1542701867.351353) can0 628#012AFE03FDC9081D
(1542701867.391353) can0 628#016DFD8CFED0051D
(1542701867.431435) can0 628#0138FD04FECC011D
(1542701867.471384) can0 628#011AFDCCFD01001D
(1542701867.511383) can0 628#015CFD8AFE83001D
(1542701867.551410) can0 628#0103FE24FE05FE1D
(1542701867.591483) can0 628#015DFEF4FECFF81D
(1542701867.631411) can0 628#01E7FDFCFE91F21D
(1542701867.671436) can0 628#01FEFEEBFED2EB1D
(1542701867.711433) can0 628#0156FECEFFEBE21D
(1542701867.751437) can0 628#0112FF2501F6DD1D
(1542701867.791459) can0 628#010101EFFECAE01D
(1542701867.831442) can0 628#01EFFDEAFD6CDE1D
(1542701867.871519) can0 628#010A000100D7D21D
(1542701867.911474) can0 628#01460005006FC31D
(1542701867.951507) can0 628#01CDFCE1FFB5C81D
(1542701867.991503) can0 628#011DFB96FBF3D61D
(1542701868.031595) can0 628#015EFCBCFFB2D91D
(1542701868.071519) can0 628#012CFCCEFF4EE61D
(1542701868.111544) can0 628#01D5FE4CFF46E11D
(1542701868.151541) can0 628#0145FC7A019FD91D
(1542701868.191571) can0 628#0197FC5201EBDC1D
(1542701868.231570) can0 628#017EFC540044DC1D
(1542701868.271597) can0 628#01AAF95FFF38E51D
(1542701868.311676) can0 628#01DCFCC8FFB8E31D
(1542701868.351625) can0 628#0115FDFAFE83D61D
(1542701868.391620) can0 628#019AFA11FC9BDB1D
(1542701868.431651) can0 628#01EEFAD9FB0EE81D
(1542701868.471652) can0 628#0178FB88FCCBED1D
(1542701868.511651) can0 628#016AFD01FE3EE71D
(1542701868.551627) can0 628#0123FC41FE37ED1D
(1542701868.591739) can0 628#0182FEA4FEAFF01D
(1542701868.631688) can0 628#01B7FE00FFF0EF1D
(1542701868.671685) can0 628#01A6FEEEFEF0F01D
(1542701868.711694) can0 628#019100B4FE3DEB1D
(1542701868.751799) can0 628#01A9FEA7FE6DF01D
(1542701868.791729) can0 628#01630093FFB7F31D
(1542701868.831731) can0 628#017B00E300EAF91D
(1542701868.871758) can0 628#01A8FDF3FF3FFC1D
(1542701868.911780) can0 628#0168FC27FE17FE1D
(1542701868.951785) can0 628#01FAFC7AFC59FF1D
(1542701868.991781) can0 628#0168FD3BFDAFFE1D
(1542701869.031895) can0 628#0174FFDCFE00001D
(1542701869.071811) can0 628#01840012012F001D
(1542701869.111812) can0 628#01D8002201DCFC1D
(1542701869.151899) can0 628#015D01760018FC1D
(1542701869.191926) can0 628#01E102EE002BFC1D
(1542701869.231901) can0 628#01FA020700A6FE1D
(1542701869.271896) can0 628#015802F10070FE1D
(1542701869.311901) can0 628#01E8009000A2FE1D
(1542701869.351896) can0 628#01EB00CBFF51FE1D
(1542701869.391902) can0 628#01ADFF460028FE1D
(1542701869.431901) can0 628#013AFFF6FF90FD1D
(1542701869.472001) can0 628#01F8FE46FF51FC1D
(1542701869.511903) can0 628#016AFE24FFB4FE1D
(1542701869.551924) can0 628#0169FE0700D1001D
(1542701869.591976) can0 628#01AFFF51018CFD1D
(1542701869.631955) can0 628#01B1FF8800BAFD1D
(1542701869.671956) can0 628#01460137006CFD1D
(1542701869.711982) can0 628#019C0125008BFD1D
(1542701869.752061) can0 628#018F01F3FF3F001D
(1542701869.791980) can0 628#019EFFF4FF4A011D
(1542701869.831950) can0 628#01ABFFD70063FD1D
(1542701869.872013) can0 628#0187FF4A0027FE1D
(1542701869.912103) can0 628#0113008000F2FF1D
(1542701869.952048) can0 628#01F6FF6100B0FE1D
(1542701869.991969) can0 628#010A003B0049FF1D
(1542701870.031993) can0 628#01D6FF560049001D
(1542701870.072066) can0 628#011400A0002EFF1D
