(1542703068.369194) can0 628#01A1FF8EFE59001D
(1542703068.409132) can0 628#01A1FF93FE4C001D
(1542703068.449131) can0 628#019EFF90FE53001D
(1542703068.489200) can0 628#019EFF92FE52001D
(1542703068.529329) can0 628#019EFF90FE54001D
(1542703068.569264) can0 628#01A0FF91FE50001D
(1542703068.609251) can0 628#019FFF91FE56001D
(1542703068.649243) can0 628#019FFF90FE61001D
(1542703068.689290) can0 628#019FFF90FE4C001D
(1542703068.729292) can0 628#01A0FF90FE4B001D
(1542703068.769319) can0 628#019FFF8FFE59001D
(1542703068.809457) can0 628#019FFF8FFE5F001D
(1542703068.849312) can0 628#019FFF93FE52001D
(1542703068.889341) can0 628#019FFF90FE5A001D
(1542703068.929255) can0 628#01A0FF92FE49001D
(1542703068.969384) can0 628#019EFF92FE58001D
(1542703069.009264) can0 628#019FFF92FE4B001D
(1542703069.049303) can0 628#019DFF92FE60001D
(1542703069.089368) can0 628#019EFF90FE57001D
(1542703069.129398) can0 628#019FFF92FE59001D
(1542703069.169351) can0 628#019DFF90FE55001D
(1542703069.209448) can0 628#019EFF92FE54001D
(1542703069.249525) can0 628#019FFF8EFE5A001D
(1542703069.289442) can0 628#01B2FFBEFEE9FF1D
(1542703069.329445) can0 628#019BFF88FEBCFE1D
(1542703069.369492) can0 628#0191FF6CFE22001D
(1542703069.409384) can0 628#019DFF90FE60001D
(1542703069.449384) can0 628#019EFF90FE4A001D
(1542703069.489400) can0 628#019FFF92FE5D001D
(1542703069.529485) can0 628#019EFF8FFE5E001D
(1542703069.569416) can0 628#01A0FF8FFE59001D
(1542703069.609421) can0 628#019EFF90FE52001D
(1542703069.649447) can0 628#019EFF90FE56001D
(1542703069.689537) can0 628#019EFF91FE5C001D
(1542703069.729456) can0 628#019FFF8FFE53001D
(1542703069.769450) can0 628#019EFF93FE5F001D
(1542703069.809511) can0 628#019FFF8DFE4C001D
(1542703069.849559) can0 628#019EFF92FE47001D
(1542703069.889479) can0 628#0197FF94FEEFFF1D
(1542703069.929535) can0 628#019CFF95FE41001D
(1542703069.969594) can0 628#01AAFF8CFED8FF1D
(1542703070.009504) can0 628#0196FF8BFE2C001D
(1542703070.049508) can0 628#01A6FFBCFE7CFF1D
(1542703070.089526) can0 628#013D00F9FEE4FF1D
(1542703070.129658) can0 628#01CAFFDFFE3B001D
(1542703070.169565) can0 628#015D0014FFF8001D
(1542703070.209563) can0 628#01BD0142FF0F001D
(1542703070.249643) can0 628#01EB0123FFDF001D
(1542703070.289560) can0 628#015103B3FF5CFF1D
(1542703070.329616) can0 628#01A90342FF2DFF1D
(1542703070.369642) can0 628#010E0476FF6DFF1D
(1542703070.409784) can0 628#019804BFFF01FF1D
(1542703070.449615) can0 628#010E05A3FFC3FE1D
(1542703070.489678) can0 628#017505BCFF2EFF1D
(1542703070.529741) can0 628#01FF063B0033FE1D
(1542703070.569750) can0 628#01B207FBFFD6FF1D
(1542703070.609751) can0 628#01D3084C00EAFF1D
(1542703070.649708) can0 628#01EB09260029001D
(1542703070.689825) can0 628#01C10B37004D001D
(1542703070.729776) can0 628#01AD0C560034FE1D
(1542703070.769802) can0 628#01840DBEFF33001D
(1542703070.809800) can0 628#0122106E0032FE1D
(1542703070.849907) can0 628#011B108DFFFBFF1D
(1542703070.889754) can0 628#010713010071FF1D
(1542703070.929811) can0 628#01651381FF9DFE1D
(1542703070.969807) can0 628#0177157EFF2E011D
(1542703071.009835) can0 628#01181799FF3E001D
(1542703071.049843) can0 628#01B717E5FF30FF1D
(1542703071.089848) can0 628#01D51715FF93FD1D
(1542703071.129831) can0 628#01D718B3FF5D001D
(1542703071.169820) can0 628#01551BA10042021D
(1542703071.209821) can0 628#01C61B5C0015FF1D
(1542703071.249898) can0 628#019D1AABFFF9FF1D
(1542703071.289970) can0 628#01321BC8FF04011D
(1542703071.329922) can0 628#011E1CC6FFD5001D
(1542703071.369858) can0 628#01E11CF0FF34001D
(1542703071.409920) can0 628#016D1D4AFF19FD1D
(1542703071.449941) can0 628#01B71C89FECBFB1D
(1542703071.489945) can0 628#01121DD8FFD2FE1D
(1542703071.529941) can0 628#01631C210045051D
(1542703071.570072) can0 628#01581EA20082051D
(1542703071.609992) can0 628#014C1E7C015C031D
(1542703071.649946) can0 628#01061E9E015F011D
(1542703071.690044) can0 628#01761FD10173001D
(1542703071.730012) can0 628#01D920A0014DFE1D
(1542703071.770016) can0 628#016122360115001D
(1542703071.810043) can0 628#014E246801EEFF1D
(1542703071.850088) can0 628#010A24AE01C4FF1D
(1542703071.890039) can0 628#01B6248301ECFE1D
(1542703071.930065) can0 628#01EA24810195FD1D
(1542703071.970022) can0 628#01A425470170FD1D
(1542703072.010162) can0 628#0190261B01EAFD1D
(1542703072.050087) can0 628#011226AA0026FF1D
(1542703072.090086) can0 628#01D825E40011001D
(1542703072.130043) can0 628#01B825D80000001D
(1542703072.170110) can0 628#018D2518012BFF1D
(1542703072.210110) can0 628#01AA25B4009DFE1D
(1542703072.250136) can0 628#0136268B0072FF1D
(1542703072.290182) can0 628#012926B2009EFF1D
(1542703072.330159) can0 628#0151267500A2FF1D
(1542703072.370158) can0 628#01C125820059001D
(1542703072.410183) can0 628#011D26970005001D
(1542703072.450262) can0 628#01B5254500A7FF1D
(1542703072.490182) can0 628#01DD25850051001D
(1542703072.530181) can0 628#0139267000C6001D
(1542703072.570205) can0 628#01F125B200E7001D
(1542703072.610230) can0 628#01F425990001011D
(1542703072.650185) can0 628#01BE25BA00A0001D
(1542703072.690229) can0 628#011626C400F9FF1D
(1542703072.730367) can0 628#01D2259700D5FF1D
(1542703072.770253) can0 628#01EC25910053001D
(1542703072.810251) can0 628#011E26A2005E001D
(1542703072.850361) can0 628#019025980038001D
(1542703072.890277) can0 628#010F269A0092001D
(1542703072.930361) can0 628#01FD25BE005F001D
(1542703072.970275) can0 628#01A325BE0096FF1D
(1542703073.010386) can0 628#0117268A00DAFF1D
(1542703073.050355) can0 628#018725910011001D
(1542703073.090358) can0 628#01FF25870021001D
(1542703073.130263) can0 628#01BB2587003A001D
(1542703073.170388) can0 628#01E725850079001D
(1542703073.210323) can0 628#012526860097001D
(1542703073.250377) can0 628#018625AB00BF001D
(1542703073.290381) can0 628#010326B50029001D
(1542703073.330405) can0 628#01FD2592003B001D
(1542703073.370406) can0 628#016125A80066001D
(1542703073.410403) can0 628#01042699006C001D
(1542703073.450502) can0 628#01DB25AA0061001D
(1542703073.490427) can0 628#01D625A700C1001D
(1542703073.530377) can0 628#01E225C2006E001D
(1542703073.570446) can0 628#01C825D0001A001D
(1542703073.610555) can0 628#01CC25A400FCFF1D
(1542703073.650369) can0 628#01A725A4003B001D
(1542703073.690471) can0 628#01E925B40043001D
(1542703073.730501) can0 628#019A259F0046001D
(1542703073.770500) can0 628#01A825AD0093001D
(1542703073.810499) can0 628#017A25BD0068001D
(1542703073.850492) can0 628#014725C200E9FF1D
(1542703073.890596) can0 628#01BD24970049001D
(1542703073.930522) can0 628#010E25A6002F001D
(1542703073.970460) can0 628#019524BE0099FF1D
(1542703074.010597) can0 628#019F247400F7FF1D
(1542703074.050546) can0 628#01EA23880000001D
(1542703074.090551) can0 628#01DE23770026001D
(1542703074.130469) can0 628#0176239800AFFF1D
(1542703074.170666) can0 628#0149238F0096FE1D
(1542703074.210586) can0 628#0146228600D1FE1D
(1542703074.250614) can0 628#0185223A003CFF1D
(1542703074.290618) can0 628#01502155000AFF1D
(1542703074.330747) can0 628#016521F7FF56001D
(1542703074.370642) can0 628#01B5205900F5FF1D
(1542703074.410640) can0 628#0124201E00AE001D
(1542703074.450666) can0 628#011120B8000AFF1D
(1542703074.490568) can0 628#01711EF6FF88FE1D
(1542703074.530607) can0 628#01151ED3FF92FF1D
(1542703074.570676) can0 628#01301DF8FF6AFF1D
(1542703074.610757) can0 628#01501C9AFFAEFF1D
(1542703074.650713) can0 628#015D1BB4FF45001D
(1542703074.690709) can0 628#01391AA4FF93001D
(1542703074.730739) can0 628#012219CCFFFF001D
(1542703074.770814) can0 628#014C18D2FF68001D
(1542703074.810717) can0 628#014017E1FF2D001D
(1542703074.850757) can0 628#01D516C9FFFCFF1D
(1542703074.890757) can0 628#016D16BAFF88001D
(1542703074.930760) can0 628#01A015D1FF54001D
(1542703074.970697) can0 628#01AC14E3FF89001D
(1542703075.010784) can0 628#012214E0FFD4FF1D
(1542703075.050889) can0 628#018A12EBFFF5001D
(1542703075.090727) can0 628#01E412290066001D
(1542703075.130707) can0 628#01461136009BFE1D
(1542703075.170754) can0 628#01A310EEFFE0FF1D
(1542703075.210847) can0 628#01FD0F010047001D
(1542703075.250845) can0 628#01E20F130005011D
(1542703075.290842) can0 628#01C60F2D00F7FF1D
(1542703075.330934) can0 628#01780E3800B7FF1D
(1542703075.370877) can0 628#01520D5600F7FE1D
(1542703075.410881) can0 628#01120C2F002CFF1D
(1542703075.450902) can0 628#01450B3E00A7FF1D
(1542703075.490982) can0 628#01670A29006C001D
(1542703075.530827) can0 628#01800A4300B1FF1D
(1542703075.570847) can0 628#019D081400C9FE1D
(1542703075.610869) can0 628#0126070C003F001D
(1542703075.650878) can0 628#01190737009F001D
(1542703075.690894) can0 628#01CE06010083001D
(1542703075.730973) can0 628#01000711009A001D
(1542703075.771055) can0 628#017C06FDFF5A001D
(1542703075.810976) can0 628#014706E9FF46001D
(1542703075.850996) can0 628#016905AFFFBE001D
(1542703075.891000) can0 628#010606F6FF5C001D
(1542703075.931099) can0 628#015E05C1FF4F001D
(1542703075.970970) can0 628#013D05B9FF3D001D
(1542703076.011019) can0 628#01D8049EFF6C001D
(1542703076.051049) can0 628#01BE04ABFF4A001D
(1542703076.091047) can0 628#015F0487FF5D001D
(1542703076.130979) can0 628#01240483FF65001D
(1542703076.171066) can0 628#01EE037AFF61001D
(1542703076.211175) can0 628#01C3036EFF54001D
(1542703076.251096) can0 628#01D30371FF4F001D
(1542703076.291089) can0 628#016B0354FF98001D
(1542703076.331142) can0 628#0178036BFF53001D
(1542703076.371114) can0 628#01350349FF6D001D
(1542703076.411139) can0 628#01E30250FF58001D
(1542703076.451145) can0 628#01E6023AFF7C001D
(1542703076.491281) can0 628#019F0244FF5B001D
(1542703076.531142) can0 628#01AE023EFF1E001D
(1542703076.571163) can0 628#011A0232FFEFFF1D
(1542703076.611188) can0 628#0100023BFF6C001D
(1542703076.651277) can0 628#01D40146FFCDFF1D
(1542703076.691191) can0 628#0162012DFF1E001D
(1542703076.731271) can0 628#012A0147FF7C001D
(1542703076.771270) can0 628#01B80032FF03001D
(1542703076.811275) can0 628#016C0140FF92001D
(1542703076.851270) can0 628#0198003CFFD4FF1D
(1542703076.891267) can0 628#016A0027FF53001D
(1542703076.931319) can0 628#016D0036FF4A001D
(1542703076.971267) can0 628#010B002EFF4B001D
(1542703077.011291) can0 628#0164002BFF6F001D
(1542703077.051289) can0 628#01D2FF37FF46001D
(1542703077.091371) can0 628#01070029FF56001D
(1542703077.131241) can0 628#01DEFF20FF5F001D
(1542703077.171292) can0 628#01D8FF18FF28001D
(1542703077.211312) can0 628#01D3FFFEFE8C001D
(1542703077.251342) can0 628#01A4FFFAFE1C001D
(1542703077.291336) can0 628#01B8FFE0FE6B001D
(1542703077.331366) can0 628#0198FFD2FE5E001D
(1542703077.371439) can0 628#01A4FFBAFE6A001D
(1542703077.411361) can0 628#019CFFAAFEDA001D
(1542703077.451359) can0 628#0189FF9EFE9E001D
(1542703077.491415) can0 628#018AFF90FE57001D
(1542703077.531383) can0 628#018DFF92FE47001D
(1542703077.571414) can0 628#018FFF92FE41001D
(1542703077.611386) can0 628#0190FF92FE4C001D
(1542703077.651391) can0 628#018EFF91FE43001D
(1542703077.691421) can0 628#0190FF91FE55001D
(1542703077.731417) can0 628#0191FF90FE56001D
(1542703077.771445) can0 628#0191FF92FE51001D
(1542703077.811530) can0 628#0190FF90FE57001D
(1542703077.851459) can0 628#0192FF90FE51001D
(1542703077.891484) can0 628#0190FF91FE4C001D
(1542703077.931482) can0 628#018FFF90FE4E001D
(1542703077.971504) can0 628#0191FF90FE49001D
(1542703078.011502) can0 628#0190FF91FE4C001D
(1542703078.051505) can0 628#018FFF93FE57001D
(1542703078.091578) can0 628#0191FF90FE52001D
(1542703078.131464) can0 628#018FFF92FE50001D
(1542703078.171555) can0 628#018FFF90FE56001D
(1542703078.211513) can0 628#0191FF91FE63001D
(1542703078.251657) can0 628#0191FF93FE42001D
(1542703078.291574) can0 628#0191FF91FE48001D
(1542703078.331573) can0 628#018CFF92FE39001D
(1542703078.371601) can0 628#0161FF83FE43FE1D
(1542703078.411521) can0 628#01B8FF8CFEFEFE1D
(1542703078.451601) can0 628#019FFFA3FE45001D
(1542703078.491627) can0 628#0186FF75FE07001D
(1542703078.531727) can0 628#0166FF2EFE8C001D
(1542703078.571651) can0 628#01A1FFE3FEF9001D
(1542703078.611644) can0 628#01AFFFE7FE2B001D
(1542703078.651614) can0 628#0187FF5EFED7001D
(1542703078.691668) can0 628#01A7FFD1FEAF001D
(1542703078.731608) can0 628#0177FFA7FEAAFF1D
(1542703078.771671) can0 628#019DFF89FEF0FE1D
(1542703078.811752) can0 628#019FFF8DFE4E001D
(1542703078.851696) can0 628#0190FF8FFE51001D
(1542703078.891724) can0 628#018EFF8FFE52001D
(1542703078.931723) can0 628#0191FF92FE4F001D
(1542703078.971821) can0 628#0190FF8FFE54001D
(1542703079.011748) can0 628#0177FF9CFE5BFF1D
(1542703079.051745) can0 628#018DFF2AFE3DFF1D
(1542703079.091652) can0 628#019CFFBDFEE5FF1D
(1542703079.131692) can0 628#01ADFFB3FE47011D
(1542703079.171669) can0 628#017AFFB8FE7A021D
(1542703079.211691) can0 628#0171FF90FEB3FF1D
(1542703079.251871) can0 628#0165FFE1FE3A031D
(1542703079.291793) can0 628#01A8FF39FE27001D
(1542703079.331813) can0 628#01C9FFC6FE59011D
(1542703079.371816) can0 628#010B00D3FE6DFF1D
(1542703079.411920) can0 628#010D0017FFE1FE1D
(1542703079.451837) can0 628#013DFDC8FF56FF1D
(1542703079.491866) can0 628#0163FDF6FE01FF1D
(1542703079.531865) can0 628#01F8FB1FFF9D001D
(1542703079.571806) can0 628#01A1FB7FFF63011D
(1542703079.611790) can0 628#01D4FB70FF85FF1D
(1542703079.651800) can0 628#0190FB5BFFEEFF1D
(1542703079.691976) can0 628#0147FB64FFAC001D
(1542703079.731908) can0 628#0109FB3AFFC6FE1D
(1542703079.771908) can0 628#01D9F9DAFF24001D
(1542703079.811990) can0 628#01CAF980FF2A001D
(1542703079.851936) can0 628#016BF71D0023001D
(1542703079.891945) can0 628#017CF8BAFF6EFF1D
(1542703079.931954) can0 628#0152F73200A5001D
(1542703079.972048) can0 628#015EF8C7FFDC001D
(1542703080.011983) can0 628#017FF719009A001D
(1542703080.051983) can0 628#0134F8BA00E1001D
(1542703080.091967) can0 628#0161F81CFF66FF1D
(1542703080.132070) can0 628#011BF83EFF4AFE1D
(1542703080.171906) can0 628#01ADF75C003BFE1D
(1542703080.212042) can0 628#01B9F82300D8001D
(1542703080.252031) can0 628#012FF8D9FF62001D
(1542703080.292068) can0 628#015BF8120020011D
(1542703080.332055) can0 628#0152F8DEFFD0011D
(1542703080.372079) can0 628#01A0F8D4FF6F001D
(1542703080.412192) can0 628#01A2F8E7FFBB011D
(1542703080.452103) can0 628#0163F8E5FF04011D
(1542703080.492103) can0 628#019CF8C7FF03011D
(1542703080.532102) can0 628#0179F8DFFF54001D
(1542703080.572215) can0 628#01ECF70300AE001D
(1542703080.612187) can0 628#0133F8E8FF12011D
(1542703080.652118) can0 628#010CF8F1FF61001D
(1542703080.692136) can0 628#012FF8FEFF2D011D
(1542703080.732115) can0 628#0115F9C2FF65001D
(1542703080.772183) can0 628#01D3F8F0FFDBFF1D
(1542703080.812183) can0 628#017EF6EDFFDAFE1D
(1542703080.852196) can0 628#01F6F4B3FFA8011D
(1542703080.892180) can0 628#0136F478FFF3021D
(1542703080.932180) can0 628#0169F234FF5A061D
(1542703080.972256) can0 628#0189F16BFF4B0A1D
(1542703081.012231) can0 628#018BF0BAFEA4091D
(1542703081.052229) can0 628#0110EF95FEDE061D
(1542703081.092229) can0 628#0121EE52FE8A031D
(1542703081.132237) can0 628#0186EC8CFE50021D
(1542703081.172194) can0 628#0175EB8CFEBB011D
(1542703081.212229) can0 628#01BEEA73FE83001D
(1542703081.252255) can0 628#01A2E97CFE37011D
(1542703081.292356) can0 628#01B7E830FEAF001D
(1542703081.332280) can0 628#01B4E7F8FD6BFF1D
(1542703081.372280) can0 628#01A0E645FE59001D
(1542703081.412303) can0 628#012AE6B8FD46001D
(1542703081.452310) can0 628#013AE5C2FD34001D
(1542703081.492311) can0 628#01B2E47CFD95FF1D
(1542703081.532310) can0 628#01B4E38AFD17FF1D
(1542703081.572416) can0 628#012FE3A1FDCFFE1D
(1542703081.612373) can0 628#01CFE2EFFDC6FE1D
(1542703081.652369) can0 628#01BDE20EFE5CFE1D
(1542703081.692371) can0 628#01B3E15DFE62FF1D
(1542703081.732470) can0 628#0159E120FE5F001D
(1542703081.772389) can0 628#016EE13EFEF1FD1D
(1542703081.812419) can0 628#0178E083FE08FD1D
(1542703081.852383) can0 628#0118E0B0FEFAFC1D
(1542703081.892414) can0 628#0159DFF2FE05FD1D
(1542703081.932438) can0 628#012DDF7DFFFBFD1D
(1542703081.972437) can0 628#017BDEA8FF2E011D
(1542703082.012540) can0 628#0192DED7FEB9011D
(1542703082.052465) can0 628#01E7DD61FFAB001D
(1542703082.092465) can0 628#01B0DD83FF31031D
(1542703082.132441) can0 628#0193DD44FF43041D
(1542703082.172404) can0 628#0131DDFFFEF2011D
(1542703082.212427) can0 628#01BCDC16FF66051D
(1542703082.252428) can0 628#0134DD20FE47041D
(1542703082.292501) can0 628#0117DDB0FD64001D
(1542703082.332451) can0 628#0103DDEFFDA7FA1D
(1542703082.372537) can0 628#013BDCACFE44FA1D
(1542703082.412536) can0 628#018BDB07FF87FC1D
(1542703082.452642) can0 628#0103DBAFFF49FF1D
(1542703082.492498) can0 628#011CDB74FF2E021D
(1542703082.532586) can0 628#01A3DA7DFF6E021D
(1542703082.572585) can0 628#01E8D946FF74051D
(1542703082.612611) can0 628#012FDAAAFE60031D
(1542703082.652606) can0 628#0137DAC1FE7E031D
(1542703082.692615) can0 628#01E3D91EFE47021D
(1542703082.732665) can0 628#01B1D954FEEA011D
(1542703082.772615) can0 628#018AD9FAFDD0021D
(1542703082.812618) can0 628#01A2D9E1FD0F001D
(1542703082.852606) can0 628#0170D914FE8A001D
(1542703082.892755) can0 628#0176D9FEFDF8001D
(1542703082.932678) can0 628#0150D905FE84001D
(1542703082.972678) can0 628#015FD9FAFD69001D
(1542703083.012707) can0 628#0159D909FE65001D
(1542703083.052702) can0 628#0163D9E6FDE8FF1D
(1542703083.092706) can0 628#0156D902FE4C001D
(1542703083.132656) can0 628#0139D9FAFD75001D
(1542703083.172829) can0 628#0160D904FE77FF1D
(1542703083.212728) can0 628#0111D929FE80001D
(1542703083.252754) can0 628#010CD929FE5E011D
(1542703083.292800) can0 628#0130D9F7FDC5001D
(1542703083.332777) can0 628#0152D957FE36001D
(1542703083.372779) can0 628#0124D9BEFD01001D
(1542703083.412802) can0 628#0127D9F3FDF7FF1D
(1542703083.452849) can0 628#0118D90DFE2C011D
(1542703083.492826) can0 628#0125D9E9FD7E011D
(1542703083.532825) can0 628#0151D9E0FD9F001D
(1542703083.572824) can0 628#0151D9DFFD29001D
(1542703083.612922) can0 628#0135D90CFE14001D
(1542703083.652749) can0 628#0130D910FEC3001D
(1542703083.692848) can0 628#013FD9F5FD33001D
(1542703083.732875) can0 628#015BD9EDFDA2001D
(1542703083.772873) can0 628#013AD9F8FD3A001D
(1542703083.812898) can0 628#0149D9F1FD24001D
(1542703083.852892) can0 628#0130D908FE81001D
(1542703083.892973) can0 628#0136D90AFED0001D
(1542703083.932920) can0 628#0153D9E3FD8E001D
(1542703083.972915) can0 628#0143D9F7FDDFFF1D
(1542703084.012920) can0 628#0130D90DFE8A001D
(1542703084.053022) can0 628#0140D9F6FDD3001D
(1542703084.092964) can0 628#013ED9F7FD5D001D
(1542703084.132877) can0 628#0161D9E3FD27001D
(1542703084.172897) can0 628#0126D914FE32001D
(1542703084.212894) can0 628#0144D9F5FDA2001D
(1542703084.252919) can0 628#0148D9FFFD50001D
(1542703084.292918) can0 628#0120D90DFE1F011D
(1542703084.333102) can0 628#0169D9DAFD87001D
(1542703084.373014) can0 628#013ED9FFFD0A001D
(1542703084.413013) can0 628#0142D9EEFD7A001D
(1542703084.453100) can0 628#013FD906FE49001D
(1542703084.493094) can0 628#014BD9FCFDD3001D
(1542703084.533098) can0 628#0166D9F3FD80001D
(1542703084.573097) can0 628#0179D9FBFD07011D
(1542703084.613055) can0 628#018BD9E6FD6A001D
(1542703084.653010) can0 628#0164D904FE68001D
(1542703084.693075) can0 628#016ED9DEFD8A001D
(1542703084.733100) can0 628#0179D9EDFD14001D
(1542703084.773203) can0 628#013BD9EFFDD1001D
(1542703084.813137) can0 628#01E6D9E0FD86001D
(1542703084.853135) can0 628#01C1D9F2FD16001D
(1542703084.893167) can0 628#01EDD9C7FDFD001D
(1542703084.933065) can0 628#01FDD9EBFD24001D
(1542703084.973159) can0 628#01F3D9B9FD50001D
(1542703085.013160) can0 628#0161DAF5FD86001D
(1542703085.053242) can0 628#01C4DAF0FDA0011D
(1542703085.093188) can0 628#01F7DAB3FDEF011D
(1542703085.133113) can0 628#0164DBC0FD34011D
(1542703085.173184) can0 628#0133DCB8FD27011D
(1542703085.213290) can0 628#01E2DC90FD9C001D
(1542703085.253118) can0 628#01C4DDE4FD53011D
(1542703085.293226) can0 628#01CDDE73FD47011D
(1542703085.333256) can0 628#0148DFB6FD1C001D
(1542703085.373260) can0 628#01DCDF8CFDC6001D
(1542703085.413260) can0 628#0162E0BBFDC5FF1D
(1542703085.453282) can0 628#01FAE0CDFDEA001D
(1542703085.493362) can0 628#0153E2DDFD94FF1D
(1542703085.533279) can0 628#019BE2E5FDA4FF1D
(1542703085.573303) can0 628#012BE3DDFD13011D
(1542703085.613355) can0 628#0183E3A6FD52011D
(1542703085.653303) can0 628#01F6E384FDEF011D
(1542703085.693331) can0 628#01D1E457FD36011D
(1542703085.733325) can0 628#0109E53DFD8AFF1D
(1542703085.773407) can0 628#01DAE438FD3B001D
(1542703085.813355) can0 628#01BCE53EFDFCFD1D
(1542703085.853353) can0 628#012FE6D9FD55FF1D
(1542703085.893378) can0 628#019BE799FD13011D
(1542703085.933389) can0 628#0115E8C0FDBDFF1D
(1542703085.973397) can0 628#01E2E77FFD49001D
(1542703086.013401) can0 628#015DE87CFD13FF1D
(1542703086.053427) can0 628#0196E8B6FD45001D
(1542703086.093425) can0 628#01A7E97FFDABFF1D
(1542703086.133409) can0 628#01ECE9CAFD2A001D
(1542703086.173450) can0 628#0171EA8EFD46001D
(1542703086.213455) can0 628#0108EBD2FDEAFF1D
(1542703086.253448) can0 628#01E7EBBDFD86011D
(1542703086.293469) can0 628#0101ED94FD05001D
(1542703086.333473) can0 628#017CEDCAFD44FF1D
(1542703086.373578) can0 628#01FEEDB2FD00FF1D
(1542703086.413493) can0 628#018DEEEBFD7FFE1D
(1542703086.453517) can0 628#0115EFFEFD69001D
(1542703086.493516) can0 628#01C2EFF0FDC0FF1D
(1542703086.533519) can0 628#0150F026FE7B011D
(1542703086.573543) can0 628#0138F227FEAD011D
(1542703086.613542) can0 628#019EF344FE22001D
(1542703086.653650) can0 628#0172F40AFE36001D
(1542703086.693572) can0 628#01BEF408FE9DFF1D
(1542703086.733591) can0 628#01F3F4FEFD31FF1D
(1542703086.773646) can0 628#017CF524FEEDFF1D
(1542703086.813595) can0 628#01FCF529FE01001D
(1542703086.853616) can0 628#01BEF64FFE2FFF1D
(1542703086.893619) can0 628#0133F770FE05001D
(1542703086.933691) can0 628#01BAF76CFEEEFF1D
(1542703086.973638) can0 628#014BF881FE36001D
(1542703087.013638) can0 628#01B3F875FEDC001D
(1542703087.053642) can0 628#012FF95CFEE4FF1D
(1542703087.093771) can0 628#018BF9C1FE51001D
(1542703087.133592) can0 628#01D6F9A5FE87011D
(1542703087.173690) can0 628#0162FA8EFE35001D
(1542703087.213715) can0 628#0192FAD1FEF6001D
(1542703087.253715) can0 628#01EAFACAFEFF001D
(1542703087.293714) can0 628#013DFBC9FE8D001D
(1542703087.333713) can0 628#016CFBDAFE64001D
(1542703087.373817) can0 628#018CFBCFFEFAFF1D
(1542703087.413732) can0 628#01D1FBF8FEF0FF1D
(1542703087.453757) can0 628#01F1FB00FFAE001D
(1542703087.493784) can0 628#0133FC0BFF83001D
(1542703087.533864) can0 628#015AFC00FFD0001D
(1542703087.573784) can0 628#0185FCF9FE58001D
(1542703087.613805) can0 628#019FFC21FFC6001D
(1542703087.653733) can0 628#01C1FCFBFE6E001D
(1542703087.693809) can0 628#01EDFC27FFBF001D
(1542703087.733834) can0 628#0130FD00FFA2001D
(1542703087.773832) can0 628#0136FD0AFF5E001D
(1542703087.813935) can0 628#015CFDFFFE5E001D
(1542703087.853858) can0 628#016CFD02FF4C001D
(1542703087.893855) can0 628#019CFDF7FE62001D
(1542703087.933813) can0 628#01A6FDF4FE42001D
(1542703087.973875) can0 628#01B8FDFBFE7A001D
(1542703088.013879) can0 628#01E1FDEDFEB9001D
(1542703088.053904) can0 628#0105FEE9FE5E001D
(1542703088.094012) can0 628#0155FEF0FE87011D
(1542703088.133841) can0 628#0175FEC3FEFF001D
(1542703088.173929) can0 628#01B5FEC8FE6C001D
(1542703088.213923) can0 628#01D3FECEFECE001D
(1542703088.254061) can0 628#01E6FEBAFE60001D
(1542703088.293989) can0 628#01F6FEC5FE74001D
(1542703088.333988) can0 628#0115FFBFFEDD001D
(1542703088.373987) can0 628#0147FFADFE82001D
(1542703088.413984) can0 628#017AFFA6FE65001D
(1542703088.453985) can0 628#017DFFA7FE59001D
(1542703088.493982) can0 628#017AFFA8FE56001D
(1542703088.534062) can0 628#017BFFA8FE50001D
(1542703088.574009) can0 628#0189FFA1FE66001D
(1542703088.614015) can0 628#018DFFA1FE50001D
(1542703088.654017) can0 628#0192FFA1FE52001D
(1542703088.694126) can0 628#0192FF9FFE4C001D
(1542703088.734047) can0 628#0194FF9FFE61001D
(1542703088.774072) can0 628#0193FF9FFE52001D
(1542703088.814078) can0 628#0195FF9EFE54001D
(1542703088.854077) can0 628#0195FFA0FE5A001D
(1542703088.894104) can0 628#0196FF9CFE5A001D
(1542703088.934102) can0 628#0196FF9DFE59001D
(1542703088.974178) can0 628#0195FF9DFE56001D
(1542703089.014112) can0 628#0195FF9FFE58001D
(1542703089.054113) can0 628#0198FF9DFE4F001D
(1542703089.094161) can0 628#0196FF9EFE59001D
(1542703089.134057) can0 628#0195FF9FFE4E001D
(1542703089.174174) can0 628#0195FF9EFE54001D
(1542703089.214173) can0 628#0196FF9EFE56001D
(1542703089.254250) can0 628#0196FF9CFE62001D
(1542703089.294198) can0 628#0196FF9EFE53001D
(1542703089.334197) can0 628#0194FF9DFE52001D
(1542703089.374221) can0 628#0195FF9EFE55001D
(1542703089.414325) can0 628#0196FF9EFE4E001D
(1542703089.454218) can0 628#0196FF9FFE58001D
(1542703089.494245) can0 628#0194FF9DFE5C001D
(1542703089.534243) can0 628#0196FF9FFE51001D
(1542703089.574265) can0 628#0197FF9CFE55001D
(1542703089.614268) can0 628#0198FF9BFE4E001D
