(1542895149.611179) can0 600#016D00A5007AFE09
(1542895149.611458) can0 600#067E01
(1542895149.622019) can0 618#0123F69B2587FF06
(1542895149.622388) can0 608#01E60BA5DA1CFF06
(1542895149.622935) can0 620#01ED2309F085FF06
(1542895149.623427) can0 628#0104DACC00B6FE06
(1542895149.625763) can0 780#BC800CFBBD077DDB
(1542895149.628199) can0 782#40486964
(1542895149.651269) can0 600#017500A7007EFE09
(1542895149.651552) can0 600#067501
(1542895149.656566) can0 780#BC800CFBBD077DDB
(1542895149.659235) can0 782#40486970
(1542895149.661888) can0 618#011FF6982586FF06
(1542895149.662317) can0 608#01E80BA5DA2AFF06
(1542895149.662830) can0 620#01E9230EF086FF06
(1542895149.663293) can0 628#0105DACD00B1FE06
(1542895149.687220) can0 780#BC7FEF9DBD07A2C7
(1542895149.689846) can0 782#404868D7
(1542895149.691297) can0 600#017500A30076FE09
(1542895149.691558) can0 600#068001
(1542895149.701780) can0 618#011BF6912584FF06
(1542895149.702273) can0 608#01E70BB4DA22FF06
(1542895149.702757) can0 620#01E72309F073FF06
(1542895149.703226) can0 628#0107DACD00B7FE06
(1542895149.731306) can0 600#016D00A50076FE09
(1542895149.731562) can0 600#067301
(1542895149.741811) can0 618#0126F69C2583FF06
(1542895149.742273) can0 608#01DD0BA4DA1AFF06
(1542895149.742759) can0 620#01EE230DF096FF06
(1542895149.743223) can0 628#0101DAC600C4FE06
(1542895149.746026) can0 780#BC8014C5BD076BF0
(1542895149.749181) can0 782#404869EC
(1542895149.771231) can0 600#017D00A8007DFE09
(1542895149.771513) can0 600#067C01
(1542895149.775755) can0 780#BC8014C5BD076BF0
(1542895149.779048) can0 782#404869F9
(1542895149.782093) can0 618#011AF6932584FF06
(1542895149.782527) can0 608#01EF0BB4DA1DFF06
(1542895149.782987) can0 620#01E5230BF077FF06
(1542895149.783480) can0 628#010ADACA00ADFE06
(1542895149.807090) can0 780#BC803ED8BD07629D
(1542895149.809868) can0 782#40486A35
(1542895149.811351) can0 600#016D00A4007EFE09
(1542895149.811562) can0 600#067A01
(1542895149.822041) can0 618#0120F6982584FF06
(1542895149.822475) can0 608#01EC0BA8DA17FF06
(1542895149.822954) can0 620#01EA2309F07BFF06
(1542895149.823432) can0 628#0100DAC500A7FE06
(1542895149.851339) can0 600#017800A3007AFE09
(1542895149.851560) can0 600#068001
(1542895149.861968) can0 618#0121F698257EFF06
(1542895149.862327) can0 608#01E80BAADA2CFF06
(1542895149.862805) can0 620#01EA230FF076FF07
(1542895149.863354) can0 628#0106DAC400B7FE06
(1542895149.863834) can0 780#BC803CB1BD079A46
(1542895149.865891) can0 782#4048693E
(1542895149.891366) can0 600#017500A60085FE09
(1542895149.891560) can0 600#067801
(1542895149.894512) can0 780#BC803CB1BD079A46
(1542895149.897592) can0 782#40486949
(1542895149.901944) can0 618#0118F6902579FF06
(1542895149.902405) can0 608#01F50BB0DA20FF06
(1542895149.902859) can0 620#01E2230AF081FF06
(1542895149.903353) can0 628#0107DAC700B9FE06
(1542895149.926642) can0 780#BC7FA570BD075C47
(1542895149.929592) can0 782#40486A75
(1542895149.931389) can0 600#016E00A4007BFE09
(1542895149.931574) can0 600#067F01
(1542895149.942113) can0 618#0122F69E2583FF06
(1542895149.942555) can0 608#01DE0BA7DA1EFF06
(1542895149.943032) can0 620#01EF230BF080FF06
(1542895149.943506) can0 628#0101DAC600AFFE06
(1542895149.971400) can0 600#017D00A7007DFE09
(1542895149.971616) can0 600#068001
(1542895149.982073) can0 618#0118F695257DFF06
(1542895149.982506) can0 608#01EC0BB1DA22FF06
(1542895149.983009) can0 620#01E92309F073FF06
(1542895149.983488) can0 628#0104DACD00BFFE06
(1542895149.983926) can0 780#BC7FA570BD075C47
(1542895149.985814) can0 782#40486A80
(1542895150.011488) can0 600#017200A3007AFE09
(1542895150.011818) can0 600#068101
(1542895150.014315) can0 780#BC800365BD07347F
(1542895150.017340) can0 782#40486B46
(1542895150.021986) can0 618#0118F698257DFF06
(1542895150.022427) can0 608#01F40BA6DA1CFF06
(1542895150.022914) can0 620#01E82307F098FF06
(1542895150.023380) can0 628#0104DACE00B4FE06
(1542895150.043981) can0 780#BC800365BD07347F
(1542895150.047141) can0 782#40486B50
(1542895150.051395) can0 600#017100AA0075FE09
(1542895150.051606) can0 600#068501
(1542895150.062024) can0 618#011DF6A2257FFF06
(1542895150.062454) can0 608#01E20BA8DA16FF06
(1542895150.062905) can0 620#01F12309F074FF07
(1542895150.063402) can0 628#01FFD9CA00ACFE06
(1542895150.091386) can0 600#017700A00073FE09
(1542895150.091713) can0 600#067001
(1542895150.102168) can0 618#0117F6922579FF06
(1542895150.102596) can0 608#01F80BABDA27FF06
(1542895150.103082) can0 620#01E52308F097FF07
(1542895150.103555) can0 628#0104DACA00B8FE06
(1542895150.106548) can0 780#BC802F34BD0794CC
(1542895150.109694) can0 782#40486997
(1542895150.131443) can0 600#016D00A4007DFE09
(1542895150.131628) can0 600#067A01
(1542895150.133484) can0 780#BC805EA2BD07B36C
(1542895150.136289) can0 782#40486910
(1542895150.142116) can0 618#0124F69B2580FF06
(1542895150.142557) can0 608#01DF0BA5DA20FF06
(1542895150.143031) can0 620#01EE230BF095FF06
(1542895150.143533) can0 628#0101DAC600B2FE06
(1542895150.164439) can0 780#BC805EA2BD07B36C
(1542895150.166993) can0 782#4048690A
(1542895150.171444) can0 600#017500A3007EFE09
(1542895150.171628) can0 600#067301
(1542895150.182018) can0 618#0122F6932582FF06
(1542895150.182480) can0 608#01E00BAEDA2AFF06
(1542895150.182963) can0 620#01E8230EF07BFF07
(1542895150.183432) can0 628#0107DAC700B4FE06
(1542895150.211330) can0 600#016F00A20078FE09
(1542895150.211623) can0 600#067501
(1542895150.222003) can0 618#011DF692257FFF06
(1542895150.222391) can0 608#01ED0BADDA1EFF06
(1542895150.222939) can0 620#01E6230FF07CFF07
(1542895150.223431) can0 628#0109DACA00AFFE06
(1542895150.224620) can0 318#00063300000039
(1542895150.226325) can0 780#BC7FC285BD0766E7
(1542895150.229460) can0 782#40486A68
(1542895150.251475) can0 600#017400A7007CFE09
(1542895150.251807) can0 600#067701
(1542895150.256214) can0 780#BC805082BD079220
(1542895150.259313) can0 782#40486997
(1542895150.262186) can0 618#0129F697258FFF06
(1542895150.262630) can0 608#01DA0BAADA14FF06
(1542895150.263110) can0 620#01EA2310F077FF06
(1542895150.263583) can0 628#0107DAC700C2FE06
(1542895150.287341) can0 780#BC805082BD079220
(1542895150.290062) can0 782#40486994
(1542895150.291453) can0 600#017700A1007CFE09
(1542895150.291783) can0 600#067601
(1542895150.302140) can0 618#011AF691258FFF06
(1542895150.302578) can0 608#01F60BABDA22FF06
(1542895150.303056) can0 620#01E3230AF085FF07
(1542895150.303558) can0 628#0109DACB00BFFE06
(1542895150.331568) can0 600#016D00A8008EFE09
(1542895150.331759) can0 600#067201
(1542895150.342062) can0 618#011EF69D2585FF06
(1542895150.342509) can0 608#01E90BA6DA20FF06
(1542895150.342989) can0 620#01EF2307F085FF06
(1542895150.343457) can0 628#01FED9C600B4FE06
(1542895150.344263) can0 780#BC7FF920BD075CF4
(1542895150.347166) can0 782#40486A8A
(1542895150.371495) can0 600#017800A5007CFE09
(1542895150.371713) can0 600#066501
(1542895150.374004) can0 780#BC7FF920BD075CF4
(1542895150.376893) can0 782#40486A88
(1542895150.382060) can0 618#0119F69D258DFF06
(1542895150.382509) can0 608#01E90BABDA19FF06
(1542895150.382989) can0 620#01ED2305F088FF06
(1542895150.383459) can0 628#0103DAC700ACFE06
(1542895150.405532) can0 780#BC7FF213BD076D25
(1542895150.408672) can0 782#40486A3A
(1542895150.411517) can0 600#017400A6007DFE09
(1542895150.411719) can0 600#067D01
(1542895150.422162) can0 618#0114F6942589FF06
(1542895150.422626) can0 608#01F30BB4DA1BFF06
(1542895150.423083) can0 620#01E7230BF07DFF07
(1542895150.423580) can0 628#0101DAC900B4FE06
(1542895150.451508) can0 600#016C00A30079FE09
(1542895150.451709) can0 600#067401
(1542895150.462140) can0 618#0121F69D2587FF06
(1542895150.462602) can0 608#01E00BA6DA2BFF06
(1542895150.463053) can0 620#01ED2309F074FF07
(1542895150.463531) can0 628#0104DAC700B0FE06
(1542895150.467211) can0 780#BC8065E8BD07EFD0
(1542895150.470265) can0 782#404867B7
(1542895150.491521) can0 600#017D00A50084FE09
(1542895150.491712) can0 600#067C01
(1542895150.493100) can0 780#BC8065E8BD07EFD0
(1542895150.495716) can0 782#40486799
(1542895150.502095) can0 618#011AF6912586FF06
(1542895150.502539) can0 608#01EB0BADDA26FF06
(1542895150.503021) can0 620#01E4230AF071FF07
(1542895150.503483) can0 628#0104DACA00C6FE06
(1542895150.523958) can0 780#BC806FDBBD07BD47
(1542895150.526388) can0 782#4048686B
(1542895150.531542) can0 600#016C00A80088FE09
(1542895150.531733) can0 600#067F01
(1542895150.542119) can0 618#0121F6942580FF06
(1542895150.542554) can0 608#01EA0BA4DA23FF06
(1542895150.543031) can0 620#01E8230CF075FF06
(1542895150.543505) can0 628#0107DACA00A3FE06
(1542895150.571539) can0 600#0178009F006CFE09
(1542895150.571744) can0 600#067501
(1542895150.582260) can0 618#0120F698257BFF06
(1542895150.582787) can0 608#01DF0BA7DA1BFF06
(1542895150.583208) can0 620#01EA2309F08AFF06
(1542895150.583681) can0 628#0107DACD00B8FE06
(1542895150.587446) can0 780#BC8078CFBD0777C8
(1542895150.590067) can0 782#404869B8
(1542895150.611540) can0 600#017400A7007AFE09
(1542895150.611741) can0 600#068401
(1542895150.612923) can0 780#BC8078CFBD0777C8
(1542895150.615520) can0 782#404869BE
(1542895150.622220) can0 618#011CF6932582FF06
(1542895150.622661) can0 608#01EA0BB3DA1BFF06
(1542895150.623146) can0 620#01E8230CF073FF06
(1542895150.623613) can0 628#0106DACF00B8FE06
(1542895150.646290) can0 780#BC8060DBBD07914D
(1542895150.649419) can0 782#404869BB
(1542895150.651618) can0 600#016F009F0071FE09
(1542895150.651947) can0 600#067E01
(1542895150.662142) can0 618#0120F69C2578FF06
(1542895150.662572) can0 608#01E80BA3DA1EFF06
(1542895150.663058) can0 620#01EC230FF073FF07
(1542895150.663528) can0 628#0106DACA00B1FE06
(1542895150.691642) can0 600#017A00A50080FE09
(1542895150.691968) can0 600#067801
(1542895150.702098) can0 618#0118F6992579FF06
(1542895150.702584) can0 608#01E60BB3DA2AFF06
(1542895150.703058) can0 620#01EA2302F08EFF06
(1542895150.703448) can0 628#0100DACD00B7FE06
(1542895150.706642) can0 780#BC8060DBBD07914D
(1542895150.711144) can0 782#40486940
(1542895150.731570) can0 600#016E00A20082FE09
(1542895150.731781) can0 600#067E01
(1542895150.733565) can0 780#BC7F8680BD078C3F
(1542895150.736343) can0 782#40486951
(1542895150.742315) can0 618#011DF698258FFF06
(1542895150.742789) can0 608#01F40BA5DA20FF06
(1542895150.743228) can0 620#01EC230BF075FF06
(1542895150.743784) can0 628#0106DAC500C0FE06
(1542895150.764576) can0 780#BC7F8680BD078C3F
(1542895150.767045) can0 782#4048694E
(1542895150.771591) can0 600#017500A70077FE09
(1542895150.771794) can0 600#067801
(1542895150.782269) can0 618#011FF6992584FF06
(1542895150.782713) can0 608#01E50BA9DA1DFF06
(1542895150.783171) can0 620#01EC230BF08CFF06
(1542895150.783648) can0 628#0100DAC200B4FE06
(1542895150.811413) can0 600#017700A80076FE09
(1542895150.811778) can0 600#067A01
(1542895150.822141) can0 618#011BF6922579FF06
(1542895150.822524) can0 608#01F00BB0DA1DFF06
(1542895150.823088) can0 620#01E3230AF075FF06
(1542895150.823562) can0 628#0109DAC600C4FE06
(1542895150.826398) can0 780#BC7F4AE3BD077FB1
(1542895150.829539) can0 782#40486985
(1542895150.851482) can0 600#016D00A10079FE09
(1542895150.851886) can0 600#068401
(1542895150.856081) can0 780#BC7FD54FBD07C475
(1542895150.859393) can0 782#40486841
(1542895150.862190) can0 618#0121F69B258BFF06
(1542895150.862634) can0 608#01E50BA7DA20FF06
(1542895150.863110) can0 620#01EA230EF07FFF07
(1542895150.863579) can0 628#0105DACA00ABFE06
(1542895150.887445) can0 780#BC7FD54FBD07C475
(1542895150.890087) can0 782#4048683E
(1542895150.891513) can0 600#017E00A70082FE09
(1542895150.891892) can0 600#067701
(1542895150.902342) can0 618#0119F6952580FF06
(1542895150.902784) can0 608#01E50BB2DA26FF06
(1542895150.903284) can0 620#01E72303F081FF07
(1542895150.903790) can0 628#0107DAC900A4FE06
(1542895150.931624) can0 600#016B00A40078FE09
(1542895150.931835) can0 600#067D01
(1542895150.942290) can0 618#011BF6992578FF06
(1542895150.942784) can0 608#01ED0BA5DA24FF06
(1542895150.943205) can0 620#01EA230BF088FF06
(1542895150.943689) can0 628#0101DAC700A8FE06
(1542895150.946388) can0 780#BC7F61CDBD07AE47
(1542895150.949446) can0 782#404868A3
(1542895150.971695) can0 600#017600A7007FFE09
(1542895150.971896) can0 600#066201
(1542895150.976465) can0 780#BC7F39DEBD079650
(1542895150.979070) can0 782#40486913
(1542895150.982226) can0 618#011EF69A257AFF06
(1542895150.982661) can0 608#01E80BA8DA2DFF06
(1542895150.983121) can0 620#01EA230DF080FF07
(1542895150.983590) can0 628#0107DAC700B6FE06
(1542895151.007091) can0 780#BC7F39DEBD079650
(1542895151.009895) can0 782#40486913
(1542895151.011815) can0 600#017600A50077FE09
(1542895151.011942) can0 600#068601
(1542895151.022205) can0 618#0117F6952582FF06
(1542895151.022686) can0 608#01ED0BABDA23FF06
(1542895151.023173) can0 620#01E82304F07CFF07
(1542895151.023647) can0 628#0100DACF00B8FE06
(1542895151.051670) can0 600#016F00A4007BFE09
(1542895151.051835) can0 600#067601
(1542895151.062398) can0 618#0121F69D2588FF06
(1542895151.062817) can0 608#01E30BA6DA21FF06
(1542895151.063303) can0 620#01EA230DF079FF07
(1542895151.063784) can0 628#0109DACE00ADFE06
(1542895151.064234) can0 780#BC7F65F4BD07A4C6
(1542895151.066038) can0 782#404868D0
(1542895151.091669) can0 600#017800A90083FE09
(1542895151.091894) can0 600#067C01
(1542895151.094476) can0 780#BC7F65F4BD07A4C6
(1542895151.097640) can0 782#404868D2
(1542895151.102342) can0 618#011CF694257EFF06
(1542895151.102790) can0 608#01E60BAEDA1FFF06
(1542895151.103263) can0 620#01E72308F08AFF07
(1542895151.103785) can0 628#0107DAD000B1FE06
(1542895151.126569) can0 780#BC7F9DA4BD07E1D4
(1542895151.129820) can0 782#404867B3
(1542895151.131640) can0 600#017500A2007EFE09
(1542895151.131966) can0 600#067601
(1542895151.142271) can0 618#0117F697257CFF06
(1542895151.142586) can0 608#01EC0BABDA2BFF06
(1542895151.143199) can0 620#01E82303F087FF06
(1542895151.143664) can0 628#0105DACB00BDFE06
(1542895151.171698) can0 600#017100A4007EFE09
(1542895151.171900) can0 600#067C01
(1542895151.182249) can0 618#011FF6992585FF06
(1542895151.182683) can0 608#01EB0BACDA21FF06
(1542895151.183178) can0 620#01ED230DF07CFF06
(1542895151.183642) can0 628#01FFD9C200B0FE06
(1542895151.184135) can0 780#BC801FE6BD07F0BE
(1542895151.186849) can0 782#4048678E
(1542895151.211693) can0 600#017B00A40079FE09
(1542895151.212036) can0 600#067701
(1542895151.213711) can0 780#BC801FE6BD07F0BE
(1542895151.216645) can0 782#404867A9
(1542895151.222418) can0 618#0117F693258EFF06
(1542895151.222864) can0 608#01F20BACDA12FF06
(1542895151.223357) can0 620#01E72304F082FF06
(1542895151.223812) can0 628#0103DAC500B6FE06
(1542895151.228894) can0 318#00063300000039
(1542895151.244819) can0 780#BC7F3196BD07EA27
(1542895151.247351) can0 782#404867D2
(1542895151.251698) can0 600#016B00A20084FE09
(1542895151.252023) can0 600#067C01
(1542895151.262357) can0 618#0124F69C258BFF06
(1542895151.262839) can0 608#01E60BAADA23FF06
(1542895151.263314) can0 620#01EE230AF07BFF06
(1542895151.263787) can0 628#0104DAC200B0FE06
(1542895151.291818) can0 600#017A00A40084FE09
(1542895151.292010) can0 600#067901
(1542895151.302293) can0 618#0125F68C257FFF06
(1542895151.302793) can0 608#01EA0BA4DA14FF06
(1542895151.303232) can0 620#01DF2313F07AFF06
(1542895151.303684) can0 628#0112DAC800B8FE06
(1542895151.304176) can0 780#BC7E6E6ABD081041
(1542895151.305810) can0 782#40486729
(1542895151.331818) can0 600#018300AB0076FE09
(1542895151.331971) can0 600#067501
(1542895151.334219) can0 780#BC7E6E6ABD081041
(1542895151.337250) can0 782#40486733
(1542895151.342293) can0 618#014EF64F257FFF06
(1542895151.342785) can0 608#01C70BB4DA2EFF06
(1542895151.343207) can0 620#01A12329F089FF07
(1542895151.343677) can0 628#0155DAC700AFFE06
(1542895151.366344) can0 780#BC791E5CBD086296
(1542895151.369116) can0 782#4048673D
(1542895151.371820) can0 600#017800AA0077FE09
(1542895151.371945) can0 600#067F01
(1542895151.382398) can0 618#0168F64B2589FF06
(1542895151.382842) can0 608#01A90BA8DA2DFF06
(1542895151.383310) can0 620#01962337F078FF07
(1542895151.383786) can0 628#0163DAC600B7FE06
(1542895151.411619) can0 600#015D009B007EFE09
(1542895151.411871) can0 600#067701
(1542895151.422348) can0 618#0146F6752598FF06
(1542895151.422795) can0 608#01C20BB6DA2BFF06
(1542895151.423265) can0 620#01C52329F05CFF07
(1542895151.423774) can0 628#012DDAC900AFFE06
(1542895151.426424) can0 780#BC791E5CBD086296
(1542895151.431851) can0 782#40486595
(1542895151.451817) can0 600#0161009C007EFE09
(1542895151.451984) can0 600#068501
(1542895151.456243) can0 780#BC82DC0EBD074469
(1542895151.459449) can0 782#40486AE8
(1542895151.462200) can0 618#0156F6742597FF06
(1542895151.462787) can0 608#01CD0B9CDA34FF06
(1542895151.463230) can0 620#01CD2340F068FF06
(1542895151.463713) can0 628#0123DABF00B5FE06
(1542895151.487446) can0 780#BC82DC0EBD074469
(1542895151.490174) can0 782#40486AD5
(1542895151.491807) can0 600#019700AC0078FE09
(1542895151.492009) can0 600#068201
(1542895151.502343) can0 618#0177F626259FFF06
(1542895151.502785) can0 608#01C10BA2DA3CFF06
(1542895151.503260) can0 620#01792355F05CFF07
(1542895151.503787) can0 628#017ADAC000BBFE06
(1542895151.531818) can0 600#017900AD0077FE09
(1542895151.532011) can0 600#068001
(1542895151.542493) can0 618#015FF63125A2FF06
(1542895151.542940) can0 608#01A80BBBDA4EFF06
(1542895151.543409) can0 620#017B2320F04EFF06
(1542895151.543883) can0 628#017FDAD500C8FE06
(1542895151.546438) can0 780#BC795D01BD07D329
(1542895151.549491) can0 782#404867FF
(1542895151.571818) can0 600#014B009A007FFE09
(1542895151.572017) can0 600#068301
(1542895151.576543) can0 780#BC81600BBD08E7C3
(1542895151.579141) can0 782#40486302
(1542895151.582441) can0 618#015BF66125ADFF06
(1542895151.582888) can0 608#01A10BA5DA4CFF06
(1542895151.583360) can0 620#01A62326F043FF07
(1542895151.583838) can0 628#0164DAD900A3FE06
(1542895151.607319) can0 780#BC81600BBD08E7C3
(1542895151.610042) can0 782#404862F9
(1542895151.611814) can0 600#0177009F0070FE09
(1542895151.612138) can0 600#068401
(1542895151.622373) can0 618#0163F63A25BAFF06
(1542895151.622814) can0 608#01C80BBBDA51FF06
(1542895151.623287) can0 620#0192234DF039FF06
(1542895151.623786) can0 628#0164DAC1009DFE06
(1542895151.651898) can0 600#017700AC006EFE09
(1542895151.652068) can0 600#067101
(1542895151.662371) can0 618#0151F66125C6FF06
(1542895151.662814) can0 608#01D90BA6DA68FF06
(1542895151.663288) can0 620#01BA2330F02EFF06
(1542895151.663684) can0 628#0122DAAA00D1FE06
(1542895151.664234) can0 780#BC80E8F1BD06EC20
(1542895151.666113) can0 782#40486C3F
(1542895151.691819) can0 600#016F009C007BFE09
(1542895151.692011) can0 600#069501
(1542895151.696214) can0 780#BC828DF3BD08BBFB
(1542895151.698874) can0 782#404863C0
(1542895151.702570) can0 618#010BF69F25CAFF06
(1542895151.703013) can0 608#01F60BB0DA6AFF06
(1542895151.703485) can0 620#01ED23F2EF40FF06
(1542895151.703957) can0 628#01FED9BF00C8FE06
(1542895151.727069) can0 780#BC828DF3BD08BBFB
(1542895151.729820) can0 782#404863B7
(1542895151.731848) can0 600#016D009F0080FE09
(1542895151.732038) can0 600#067801
(1542895151.742495) can0 618#01DEF59E25B8FF06
(1542895151.742910) can0 608#01230CB8DA6AFF06
(1542895151.743408) can0 620#01EA23D4EF3EFF07
(1542895151.743888) can0 628#0100DAD900C7FE06
(1542895151.771816) can0 600#017C00AA007CFE09
(1542895151.772139) can0 600#067C01
(1542895151.782386) can0 618#01EAF59925C8FF06
(1542895151.782843) can0 608#01170CAADA5DFF06
(1542895151.783305) can0 620#01E223D6EF3BFF06
(1542895151.783787) can0 628#0109DAD600C1FE06
(1542895151.784231) can0 780#BC80B88CBD06F8C2
(1542895151.786896) can0 782#40486BCD
(1542895151.811846) can0 600#019000B6007DFE09
(1542895151.812043) can0 600#067B01
(1542895151.813811) can0 780#BC80B88CBD06F8C2
(1542895151.816749) can0 782#40486BAA
(1542895151.822398) can0 618#01EBF58125B9FF06
(1542895151.822865) can0 608#01190CB8DA5BFF06
(1542895151.823361) can0 620#01CC23D8EF41FF06
(1542895151.823809) can0 628#0118DACE00D2FE06
(1542895151.844846) can0 780#BC7A23D6BD099F90
(1542895151.847449) can0 782#40485EFF
(1542895151.851857) can0 600#017500A20080FE09
(1542895151.852038) can0 600#067A01
(1542895151.862420) can0 618#0101F67225C1FF06
(1542895151.863045) can0 608#010A0CB1DA63FF06
(1542895151.863513) can0 620#01BA23E7EF2DFF07
(1542895151.863988) can0 628#0134DAC100AAFE06
(1542895151.891894) can0 600#016E009F0079FE09
(1542895151.892084) can0 600#067301
(1542895151.902553) can0 618#0139F65125C3FF06
(1542895151.902992) can0 608#01D40BB3DA6AFF06
(1542895151.903463) can0 620#019A2311F031FF07
(1542895151.903938) can0 628#0151DAAC00A7FE06
(1542895151.904414) can0 780#BC7BD239BD07C995
(1542895151.905887) can0 782#40486789
(1542895151.931949) can0 600#017800A70080FE09
(1542895151.932147) can0 600#066D01
(1542895151.934272) can0 780#BC7BD239BD07C995
(1542895151.937373) can0 782#4048676E
(1542895151.942422) can0 618#0170F6FE24D8FF06
(1542895151.942884) can0 608#01C60BC1DA7FFF06
(1542895151.943359) can0 620#01502346F031FF07
(1542895151.943837) can0 628#01A2DAAC00B1FE06
(1542895151.964077) can0 780#BC7DE5A0BD08E325
(1542895151.967122) can0 782#40486234
(1542895151.971972) can0 600#016E00A5007FFE09
(1542895151.972191) can0 600#067601
(1542895151.982453) can0 618#0184F6F324E1FF06
(1542895151.982869) can0 608#01A10BBCDA8CFF06
(1542895151.983362) can0 620#0142234BF016FF06
(1542895151.983839) can0 628#01C0DABC00A9FE06
(1542895152.011717) can0 600#015B009E0080FE09
(1542895152.012050) can0 600#067B01
(1542895152.022609) can0 618#0155F61925E6FF06
(1542895152.022989) can0 608#01C00BCCDA99FF06
(1542895152.023449) can0 620#01642322F016FF07
(1542895152.023925) can0 628#0199DAD200B8FE06
(1542895152.026083) can0 780#BC834A4FBD07A419
(1542895152.028650) can0 782#40486814
(1542895152.051881) can0 600#015A009A0082FE09
(1542895152.052216) can0 600#068501
(1542895152.056847) can0 780#BC834A4FBD07A419
(1542895152.059523) can0 782#40486803
(1542895152.062538) can0 618#011CF64825EDFF06
(1542895152.063020) can0 608#01040CC3DA93FF06
(1542895152.063490) can0 620#01962307F00DFF07
(1542895152.063973) can0 628#0154DAD500A3FE06
(1542895152.089305) can0 780#BC83C24ABD072512
(1542895152.091921) can0 600#017A00A6007BFE09
(1542895152.092111) can0 600#067D01
(1542895152.092531) can0 782#40486A41
(1542895152.102498) can0 618#01DCF57F25FEFF06
(1542895152.102935) can0 608#01370CBBDA98FF06
(1542895152.103384) can0 620#01CD23CCEFFFFE07
(1542895152.103861) can0 628#0105DAD000B2FE06
(1542895152.131931) can0 600#018400A2007FFE09
(1542895152.132139) can0 600#067501
(1542895152.142495) can0 618#0180F5AF25F3FF06
(1542895152.142936) can0 608#017E0CCBDA8BFF06
(1542895152.143442) can0 620#01F92384EF11FF07
(1542895152.143887) can0 628#01D7D9DF00B9FE06
(1542895152.145869) can0 780#BC83C24ABD072512
(1542895152.148525) can0 782#40486A2A
(1542895152.171929) can0 600#017900A60082FE09
(1542895152.172148) can0 600#066901
(1542895152.176661) can0 780#BC814E02BD0786EA
(1542895152.179180) can0 782#40486843
(1542895152.182645) can0 618#0167F5DD25E5FF06
(1542895152.183094) can0 608#01900CC3DA8EFF06
(1542895152.183562) can0 620#0127247DEF07FF06
(1542895152.184023) can0 628#01B6D9EA00BBFE06
(1542895152.207350) can0 780#BC814E02BD0786EA
(1542895152.210121) can0 782#40486831
(1542895152.211943) can0 600#018600AC0071FE09
(1542895152.212139) can0 600#067B01
(1542895152.222592) can0 618#0175F5D525CFFF06
(1542895152.223066) can0 608#019C0CC5DA80FF06
(1542895152.223538) can0 620#012E24A7EF1DFF07
(1542895152.223995) can0 628#01B3D9E100B8FE06
(1542895152.235026) can0 318#00063300000039
(1542895152.252050) can0 600#018500AC0087FE09
(1542895152.252243) can0 600#066601
(1542895152.262517) can0 618#014FF6D025AAFF06
(1542895152.262971) can0 608#01E10CCFDA7FFF06
(1542895152.263441) can0 620#018A24C4F12DFF06
(1542895152.263914) can0 628#01CDD96300C1FE06
(1542895152.264381) can0 780#BC7CC0FEBD080B02
(1542895152.266193) can0 782#404865C2
(1542895152.292029) can0 600#01D800B30074FE09
(1542895152.292210) can0 600#067401
(1542895152.296096) can0 780#BC6C1B0BBD0A5652
(1542895152.298953) can0 782#40485AD3
(1542895152.302549) can0 618#011AF90A26A7FE06
(1542895152.302996) can0 608#01DF0CA9DA76FF06
(1542895152.303467) can0 620#01E726EDF6A3FF07
(1542895152.303938) can0 628#0185D78E0089FE06
(1542895152.327201) can0 780#BC6C1B0BBD0A5652
(1542895152.329872) can0 782#40485ADD
(1542895152.331838) can0 600#01B700DA0079FE09
(1542895152.332246) can0 600#066A01
(1542895152.342646) can0 618#0110FC0627FBFC06
(1542895152.343091) can0 608#01A60CECDA79FF06
(1542895152.343558) can0 620#01722975FCDE0107
(1542895152.344037) can0 628#01FFD5FA0002FF06
(1542895152.372001) can0 600#012A007A006EFE09
(1542895152.372190) can0 600#066D01
(1542895152.382598) can0 618#0129FB80272CFB06
(1542895152.383041) can0 608#01570CDBDA6FFF06
(1542895152.383510) can0 620#0114297DFB0F0407
(1542895152.383993) can0 628#01E0D648FF98FE06
(1542895152.384462) can0 780#BC4FFE75BD0EDF9C
(1542895152.386137) can0 782#4048450F
(1542895152.411999) can0 600#01B4FF7A006DFE09
(1542895152.412197) can0 600#066401
(1542895152.416871) can0 780#BC882877BD03F645
(1542895152.419902) can0 782#4048790C
(1542895152.422574) can0 618#0177FA3526F1F906
(1542895152.422991) can0 608#01BD0BE5DA54FF06
(1542895152.423460) can0 620#012527B0F7500506
(1542895152.423940) can0 628#01D1D71001B5FE06
(1542895152.445976) can0 780#BC882877BD03F645
(1542895152.448550) can0 782#404878F5
(1542895152.451996) can0 600#012D00D70092FE09
(1542895152.452186) can0 600#068501
(1542895152.462544) can0 618#019DF9B02478F906
(1542895152.463021) can0 608#016D0BE4DA6FFF06
(1542895152.463492) can0 620#015424B2F3D20506
(1542895152.463969) can0 628#0146DAB801A5FE06
(1542895152.492008) can0 600#019A008A0082FE09
(1542895152.492222) can0 600#067601
(1542895152.502724) can0 618#01D9F88C2476F906
(1542895152.503157) can0 608#016E0BD1DA9AFF06
(1542895152.503626) can0 620#015123D0F2AE0507
(1542895152.504119) can0 628#01EADA7E0096FE06
(1542895152.507249) can0 780#BC8683ADBD039D62
(1542895152.510074) can0 782#40487A79
(1542895152.532023) can0 600#018900A40079FE09
(1542895152.532221) can0 600#067A01
(1542895152.538151) can0 780#BC8683ADBD039D62
(1542895152.540822) can0 782#40487A66
(1542895152.542674) can0 618#01AAF7F624BDF906
(1542895152.543141) can0 608#01A70BE0DABAFF06
(1542895152.543590) can0 620#012923F8EF570507
(1542895152.544064) can0 628#0159DADA00B5FE06
(1542895152.564275) can0 780#BC8B61A5BD080E88
(1542895152.567258) can0 782#404865A9
(1542895152.572124) can0 600#012200760073FE09
(1542895152.572325) can0 600#069901
(1542895152.582495) can0 618#01C6F6E72539FA06
(1542895152.583042) can0 608#011D0CE0DAC6FF06
(1542895152.583518) can0 620#01A423C6EEEB0406
(1542895152.583973) can0 628#01FAD9E000F1FE06
(1542895152.612125) can0 600#014500820067FE09
(1542895152.612238) can0 600#06A501
(1542895152.622585) can0 618#0184F63226A2FA06
(1542895152.623017) can0 608#01A30CD6DAC8FF06
(1542895152.623475) can0 620#01E523A6EE4F0407
(1542895152.623949) can0 628#01CBD94801DAFE06
(1542895152.626147) can0 780#BC98C47CBD02BC24
(1542895152.628631) can0 782#40487EB8
(1542895152.652051) can0 600#019300AD007AFE09
(1542895152.652232) can0 600#06A501
(1542895152.656901) can0 780#BC98C47CBD02BC24
(1542895152.659428) can0 782#40487E97
(1542895152.662804) can0 618#0116F77526FDFA06
(1542895152.663211) can0 608#01EC0CEEDAB7FF06
(1542895152.663706) can0 620#017C24BBEFF30306
(1542895152.664182) can0 628#0166D93E01D9FE06
(1542895152.684556) can0 780#BC8E0DEEBD049B1C
(1542895152.687101) can0 782#40487576
(1542895152.692068) can0 600#01B200CE007DFE09
(1542895152.692267) can0 600#06A501
(1542895152.702578) can0 618#018CF7D9262BFB06
(1542895152.703178) can0 608#01520DDEDAB0FF06
(1542895152.703616) can0 620#012E25D0F0C80306
(1542895152.704117) can0 628#01E7D81201BAFE06
(1542895152.732080) can0 600#01DF00AF0072FE09
(1542895152.732263) can0 600#067F01
(1542895152.742623) can0 618#01CCF84D270BFB06
(1542895152.743073) can0 608#01A90DE2DAA2FF06
(1542895152.743547) can0 620#01862688F3BB0306
(1542895152.743996) can0 628#0127D8830071FE06
(1542895152.746601) can0 780#BC7A6256BD08B6D1
(1542895152.749656) can0 782#404862FC
(1542895152.772101) can0 600#01AF00C10066FE09
(1542895152.772265) can0 600#066E01
(1542895152.776199) can0 780#BC7A6256BD08B6D1
(1542895152.779304) can0 782#4048640D
(1542895152.782655) can0 618#011BFAC527A2FA06
(1542895152.783087) can0 608#01740DF4DA90FF06
(1542895152.783568) can0 620#019A2756F5620406
(1542895152.784024) can0 628#016AD63B01AFFE06
(1542895152.810132) can0 780#BC6C6937BD0BE534
(1542895152.812093) can0 600#017000B80077FE09
(1542895152.812306) can0 600#067501
(1542895152.812918) can0 782#404855DE
(1542895152.822832) can0 618#01C2FA1E28FCF906
(1542895152.823264) can0 608#01640DE2DA79FF06
(1542895152.823792) can0 620#011C2873F6140507
(1542895152.824213) can0 628#01E4D63E00AAFE06
(1542895152.852125) can0 600#0153007C0074FE09
(1542895152.852319) can0 600#066C01
(1542895152.862834) can0 618#0115FBA8278AF906
(1542895152.863212) can0 608#01070DFDDA61FF06
(1542895152.863697) can0 620#018027FAF58C0507
(1542895152.864149) can0 628#0107D73A00ABFE06
(1542895152.864624) can0 780#BC6C6937BD0BE534
(1542895152.867278) can0 782#404856F2
(1542895152.892200) can0 600#016F00B20073FE09
(1542895152.892395) can0 600#067801
(1542895152.896176) can0 780#BC789810BD08ECE9
(1542895152.899053) can0 782#40486606
(1542895152.902650) can0 618#0182FBDC264AF906
(1542895152.903121) can0 608#01AA0CEDDA5AFF06
(1542895152.903592) can0 620#016F26ABF5C70506
(1542895152.904043) can0 628#011AD80B00C8FE06
(1542895152.927201) can0 780#BC789810BD08ECE9
(1542895152.929947) can0 782#404866DE
(1542895152.932092) can0 600#019300A5007BFE09
(1542895152.932418) can0 600#067201
(1542895152.942685) can0 618#01BBFB202646F906
(1542895152.943131) can0 608#016C0CFBDA6CFF06
(1542895152.943600) can0 620#01662530F5DA0506
(1542895152.944065) can0 628#0136D96100DAFE06
(1542895152.972127) can0 600#016A00B70084FE09
(1542895152.972338) can0 600#067C01
(1542895152.982877) can0 618#01FFFBFE2555F906
(1542895152.983311) can0 608#012D0C00DB83FF06
(1542895152.983790) can0 620#010F2506F5B20506
(1542895152.984260) can0 628#01A8D99900D5FE06
(1542895152.984718) can0 780#BC6C9CE5BD06D0BD
(1542895152.986239) can0 782#40487185
(1542895153.012151) can0 600#014C00A9008CFE09
(1542895153.012346) can0 600#068101
(1542895153.014622) can0 780#BC7B76ECBD08333A
(1542895153.017648) can0 782#40486BFC
(1542895153.022827) can0 618#011AFCFE25A2F906
(1542895153.023189) can0 608#01280C00DB9CFF06
(1542895153.023796) can0 620#01EE24D9F4720507
(1542895153.024190) can0 628#01D0D9E700C8FE06
(1542895153.044401) can0 780#BC7B76ECBD08333A
(1542895153.047603) can0 782#40486CC0
(1542895153.052146) can0 600#015600970085FE09
(1542895153.052328) can0 600#068A01
(1542895153.062708) can0 618#0189FC1726CFF906
(1542895153.063159) can0 608#014F0C01DBA8FF06
(1542895153.063628) can0 620#01192557F52F0507
(1542895153.064098) can0 628#01A8D9E300B3FE06
(1542895153.092180) can0 600#0175009C0082FE09
(1542895153.092364) can0 600#068D01
(1542895153.102728) can0 618#010FFD5626F8F906
(1542895153.103180) can0 608#017A0CFADAB3FF06
(1542895153.103657) can0 620#01972530F6FC0406
(1542895153.104113) can0 628#0111D9E800AFFE06
(1542895153.104594) can0 780#BC85C28FBD0789DE
(1542895153.106045) can0 782#404870BA
(1542895153.132176) can0 600#01770091007BFE09
(1542895153.132369) can0 600#069101
(1542895153.136676) can0 780#BC88338BBD07B999
(1542895153.139753) can0 782#40487157
(1542895153.142875) can0 618#0156FDC82613FA06
(1542895153.143341) can0 608#01C00C0CDBC4FF06
(1542895153.143820) can0 620#012F26B4F60A0506
(1542895153.144261) can0 628#01BBD81301C6FE06
(1542895153.165832) can0 780#BC88338BBD07B999
(1542895153.168326) can0 782#40487117
(1542895153.172203) can0 600#015600920079FE09
(1542895153.172388) can0 600#068701
(1542895153.182854) can0 618#01B5FD4827FAF906
(1542895153.183294) can0 608#01F30C05DBC8FF06
(1542895153.183806) can0 620#01CC263BF7FC0406
(1542895153.184253) can0 628#013BD84201CFFE06
(1542895153.212275) can0 600#016B00AA0077FE09
(1542895153.212461) can0 600#069601
(1542895153.222598) can0 618#01C1FD7B27F7F906
(1542895153.223190) can0 608#01300D12DBBAFF06
(1542895153.223848) can0 620#01F82647F7040507
(1542895153.224124) can0 628#011DD84701A7FE06
(1542895153.227604) can0 780#BC8C3E3EBD058C20
(1542895153.230833) can0 782#40487FAF
(1542895153.252203) can0 600#017C00A30072FE09
(1542895153.252398) can0 600#069501
(1542895153.257326) can0 780#BC8C3E3EBD058C20
(1542895153.257792) can0 318#00063300000039
(1542895153.260700) can0 782#40488390
(1542895153.262807) can0 618#01F5FD9327FBF906
(1542895153.263214) can0 608#01560D0CDBB8FF06
(1542895153.263685) can0 620#010D274DF7140507
(1542895153.264163) can0 628#01F9D70B01A1FE06
(1542895153.285554) can0 780#BC8858B7BD05D6D0
(1542895153.288178) can0 782#40488596
(1542895153.292212) can0 600#019800A90071FE09
(1542895153.292392) can0 600#069D01
(1542895153.302878) can0 618#011DFE9B2702FA06
(1542895153.303293) can0 608#01770D08DBAEFF06
(1542895153.303800) can0 620#01022747F7070506
(1542895153.304269) can0 628#0103D8BC00A1FE06
(1542895153.332210) can0 600#01A700B1007DFE09
(1542895153.332419) can0 600#068401
(1542895153.342828) can0 618#015FFE8B2720FA06
(1542895153.343278) can0 608#018D0D1BDBA6FF06
(1542895153.343795) can0 620#01FE2693F7F10407
(1542895153.344217) can0 628#01F7D79600B6FE06
(1542895153.346975) can0 780#BC7EED18BD087E95
(1542895153.349574) can0 782#40487C52
(1542895153.372227) can0 600#01A300A90076FE09
(1542895153.372548) can0 600#068601
(1542895153.377817) can0 780#BC7EED18BD087E95
(1542895153.380531) can0 782#40487F5B
(1542895153.382836) can0 618#0108FF6F2725FA06
(1542895153.383240) can0 608#01790D00DBA8FF06
(1542895153.383700) can0 620#01FC263AF8EF0406
(1542895153.384097) can0 628#013AD87600C9FE06
(1542895153.405426) can0 780#BC6AAF51BD09D61E
(1542895153.407876) can0 782#40487B8C
(1542895153.412251) can0 600#01A900BD0073FE09
(1542895153.412448) can0 600#066B01
(1542895153.422828) can0 618#01AAFF1A272BFA06
(1542895153.423239) can0 608#01520D1EDBA5FF06
(1542895153.423722) can0 620#01C726FFF8D90407
(1542895153.424104) can0 628#018DD87B00C2FE06
(1542895153.452259) can0 600#018A00BB006FFE09
(1542895153.452456) can0 600#066A01
(1542895153.462978) can0 618#016700BC2629FA06
(1542895153.463422) can0 608#01100D19DBB6FF06
(1542895153.463871) can0 620#018C26CCF9D20407
(1542895153.464343) can0 628#01F2D85D00AAFE06
(1542895153.467292) can0 780#BC60483CBD0BD77E
(1542895153.470553) can0 782#40487471
(1542895153.492267) can0 600#017C00AE0078FE09
(1542895153.492473) can0 600#067001
(1542895153.497087) can0 780#BC60483CBD0BD77E
(1542895153.500306) can0 782#404876A2
(1542895153.502891) can0 618#0102015C2640FA06
(1542895153.503368) can0 608#01CE0C1FDBBFFF06
(1542895153.503845) can0 620#012C2642FAC20407
(1542895153.504320) can0 628#0168D946009CFE06
(1542895153.530931) can0 780#BC64CC9BBD0A38CC
(1542895153.532312) can0 600#016700A50078FE09
(1542895153.532515) can0 600#066A01
(1542895153.533968) can0 782#4048804B
(1542895153.542825) can0 618#0170010B2661FA06
(1542895153.543266) can0 608#01A70C31DBDCFF06
(1542895153.543793) can0 620#01E825AFFAB00406
(1542895153.544243) can0 628#01AAD93E00ACFE06
(1542895153.572378) can0 600#015100A10071FE09
(1542895153.572572) can0 600#068001
(1542895153.582861) can0 618#010502E42577FA06
(1542895153.583291) can0 608#01850C25DBECFF06
(1542895153.583797) can0 620#01CE2538FB940407
(1542895153.584239) can0 628#01E2D95000B5FE06
(1542895153.585561) can0 780#BC64CC9BBD0A38CC
(1542895153.588205) can0 782#40488218
(1542895153.612311) can0 600#015100940072FE09
(1542895153.612495) can0 600#067901
(1542895153.616981) can0 780#BC788F3EBD08C392
(1542895153.620207) can0 782#40488AB9
(1542895153.623006) can0 618#017C02C5258EFA06
(1542895153.623469) can0 608#01940C37DB030006
(1542895153.623944) can0 620#01D525D6FB6A0407
(1542895153.624422) can0 628#01F3D99900D3FE06
(1542895153.648180) can0 780#BC788F3EBD08C392
(1542895153.650826) can0 782#40488C2B
(1542895153.652289) can0 600#015D009D0081FE09
(1542895153.652501) can0 600#068501
(1542895153.662952) can0 618#010903D32593FA06
(1542895153.663396) can0 608#01B20C37DB270006
(1542895153.663870) can0 620#010E26AFFC680407
(1542895153.664371) can0 628#01F0D9C000DBFE06
(1542895153.692269) can0 600#016900A1007CFE09
(1542895153.692592) can0 600#069201
(1542895153.702883) can0 618#019803132675FA06
(1542895153.703321) can0 608#01E50C3FDB3A0006
(1542895153.703732) can0 620#0195268CFD770407
(1542895153.704263) can0 628#0178D9F600CCFE06
(1542895153.705001) can0 780#BC825B9EBD072B9E
(1542895153.707914) can0 782#4048956A
(1542895153.732333) can0 600#016500A10073FE09
(1542895153.732519) can0 600#068301
(1542895153.735510) can0 780#BC868BDBBD06E0AB
(1542895153.738581) can0 782#4048985B
(1542895153.742881) can0 618#01E90385265FFA06
(1542895153.743319) can0 608#01280D4BDB450006
(1542895153.743796) can0 620#012F2734FEA90406
(1542895153.744240) can0 628#010BD9D200DDFE06
(1542895153.765121) can0 780#BC868BDBBD06E0AB
(1542895153.768359) can0 782#404899AE
(1542895153.772332) can0 600#015D00920073FE09
(1542895153.772524) can0 600#069D01
(1542895153.783055) can0 618#0105040A271FFA06
(1542895153.783493) can0 608#016E0D45DB5E0006
(1542895153.783967) can0 620#01AB2746FEF90407
(1542895153.784442) can0 628#0190D8BF00D4FE06
(1542895153.812354) can0 600#0158009D0083FE09
(1542895153.812549) can0 600#06A201
(1542895153.822948) can0 618#0184036D27FAF906
(1542895153.823414) can0 608#01DD0D56DB4A0006
(1542895153.823900) can0 620#01C02730FD090506
(1542895153.824381) can0 628#0162D8F100C2FE06
(1542895153.824931) can0 780#BC8AF8F3BD04D8E6
(1542895153.827641) can0 782#4048A475
(1542895153.852398) can0 600#017400A90082FE09
(1542895153.852593) can0 600#06A201
(1542895153.856827) can0 780#BC8B1C4FBD058993
(1542895153.859475) can0 782#4048A588
(1542895153.862893) can0 618#014603572712FA06
(1542895153.863347) can0 608#01150E46DB470006
(1542895153.863824) can0 620#01552726FC110506
(1542895153.864299) can0 628#01A8D817019FFE06
(1542895153.885711) can0 780#BC8B1C4FBD058993
(1542895153.888308) can0 782#4048A33D
(1542895153.892453) can0 600#01D400C10081FE09
(1542895153.892792) can0 600#069801
(1542895153.902904) can0 618#015603A32649FA06
(1542895153.903369) can0 608#012F0E5BDB450006
(1542895153.903823) can0 620#018C26E7FBCD0406
(1542895153.904298) can0 628#0158D9070191FE06
(1542895153.932357) can0 600#011901C70074FE09
(1542895153.932573) can0 600#066D01
(1542895153.943064) can0 618#01D403D52577FA06
(1542895153.943519) can0 608#01190E5ADB590006
(1542895153.944024) can0 620#01B82558FC7D0407
(1542895153.944466) can0 628#013DDAA500A9FE06
(1542895153.947104) can0 780#BC6674C8BD0A71B4
(1542895153.949904) can0 782#40488CC7
(1542895153.972403) can0 600#01FD00BE007AFE09
(1542895153.972601) can0 600#066401
(1542895153.977858) can0 780#BC6674C8BD0A71B4
(1542895153.980606) can0 782#40488DA5
(1542895153.983058) can0 618#0183048725C1FA06
(1542895153.983486) can0 608#01CC0D6BDB860006
(1542895153.983951) can0 620#0191253DFD450407
(1542895153.984441) can0 628#0188DA630097FE06
(1542895154.005532) can0 780#BC3D27DDBD0E6814
(1542895154.007981) can0 782#40487B61
(1542895154.012385) can0 600#018F00B10063FE09
(1542895154.012567) can0 600#065D01
(1542895154.022966) can0 618#0186057725DFFA06
(1542895154.023376) can0 608#01790D8ADBA20006
(1542895154.023846) can0 620#01CA2590FE100406
(1542895154.024344) can0 628#018DDA5400A6FE06
(1542895154.052409) can0 600#011100990074FE09
(1542895154.052587) can0 600#066001
(1542895154.062941) can0 618#016C068825F7FA06
(1542895154.063417) can0 608#01350D7CDBB30006
(1542895154.063876) can0 620#012926F7FFFE0306
(1542895154.064369) can0 628#0167DA1000A6FE06
(1542895154.067430) can0 780#BC5C629EBD0C27A8
(1542895154.070608) can0 782#40488703
(1542895154.092413) can0 600#01F8FF880089FE09
(1542895154.092597) can0 600#068801
(1542895154.097158) can0 780#BC5C629EBD0C27A8
(1542895154.100380) can0 782#404887A7
(1542895154.103108) can0 618#01E8066925EEFA06
(1542895154.103569) can0 608#01460DA4DBD10006
(1542895154.104044) can0 620#012426B400050407
(1542895154.104522) can0 628#0185DAB5FFB7FE06
(1542895154.128381) can0 780#BC865958BD06004E
(1542895154.131105) can0 782#4048A58A
(1542895154.132418) can0 600#012900810076FE09
(1542895154.132621) can0 600#069B01
(1542895154.143082) can0 618#01D9063B25F9FA06
(1542895154.143518) can0 608#01870D9DDBDA0006
(1542895154.144001) can0 620#01E5255000040407
(1542895154.144470) can0 628#01A4DAF4FFB9FE06
(1542895154.172479) can0 600#015D00AD0080FE09
(1542895154.172810) can0 600#069A01
(1542895154.182969) can0 618#018906552527FB06
(1542895154.183448) can0 608#01F00DA5DBEC0006
(1542895154.183921) can0 620#01C0255CFFDD0307
(1542895154.184310) can0 628#01AFDA5C00D3FE06
(1542895154.186829) can0 780#BC8B7392BD056F36
(1542895154.189258) can0 782#4048A8AC
(1542895154.212533) can0 600#018900AD007EFE09
(1542895154.212731) can0 600#069F01
(1542895154.217497) can0 780#BC8B7392BD056F36
(1542895154.220217) can0 782#4048A913
(1542895154.223007) can0 618#013E069E2556FB06
(1542895154.223446) can0 608#016C0EC4DBFE0006
(1542895154.223925) can0 620#01E425FCFEA10306
(1542895154.224390) can0 628#018CDA9600DFFE06
(1542895154.250829) can0 780#BC859227BD06E90B
(1542895154.252445) can0 600#019C00B1007DFE09
(1542895154.252788) can0 600#069C01
(1542895154.253699) can0 782#4048A96A
(1542895154.261829) can0 318#00063300000039
(1542895154.263094) can0 618#01AB06F9258AFB06
(1542895154.263540) can0 608#01B30EB9DB100106
(1542895154.264030) can0 620#015B2697FF720307
(1542895154.264501) can0 628#012EDAC100E3FE06
(1542895154.292454) can0 600#019C00AA0088FE09
(1542895154.292649) can0 600#069601
(1542895154.303075) can0 618#0104076B26AAFB06
(1542895154.303527) can0 608#010D0FD7DB200106
(1542895154.304003) can0 620#01002782005C0307
(1542895154.304478) can0 628#01BAD9B400D5FE06
(1542895154.306072) can0 780#BC859227BD06E90B
(1542895154.309003) can0 782#4048A2BA
(1542895154.332482) can0 600#017F00A10086FE09
(1542895154.332810) can0 600#069601
(1542895154.337830) can0 780#BC811F56BD07F106
(1542895154.341033) can0 782#40489E1B
(1542895154.343031) can0 618#017207EB269FFB06
(1542895154.343468) can0 608#014B0FD6DB120106
(1542895154.343947) can0 620#01A2270201650306
(1542895154.344425) can0 628#012DD9BD00D8FE06
(1542895154.363636) can0 780#BC811F56BD07F106
(1542895154.366498) can0 782#40489E50
(1542895154.372483) can0 600#017F00AC007BFE09
(1542895154.372817) can0 600#069A01
(1542895154.383031) can0 618#018407312796FB06
(1542895154.383469) can0 608#019A0FF0DB090106
(1542895154.383974) can0 620#01F0270C01710306
(1542895154.384446) can0 628#01E7D80001CBFE06
(1542895154.412482) can0 600#019400A90073FE09
(1542895154.412808) can0 600#069201
(1542895154.423130) can0 618#01BC072D278DFB06
(1542895154.423602) can0 608#01D70FF5DBF70006
(1542895154.424078) can0 620#01F2272C016E0307
(1542895154.424555) can0 628#01E4D8F500C2FE06
(1542895154.425835) can0 780#BC829EE4BD08968B
(1542895154.428818) can0 782#40489B7E
(1542895154.452499) can0 600#01B200B4006CFE09
(1542895154.452829) can0 600#069201
(1542895154.456380) can0 780#BC795EF0BD096390
(1542895154.459479) can0 782#404897D7
(1542895154.463150) can0 618#01DB0709278DFB06
(1542895154.463598) can0 608#01F80F06DCF00006
(1542895154.464072) can0 620#01CE275C01760307
(1542895154.464545) can0 628#0110D9D400ADFE06
(1542895154.486257) can0 780#BC795EF0BD096390
(1542895154.489378) can0 782#40489808
(1542895154.492530) can0 600#01C800B0005FFE09
(1542895154.492723) can0 600#067B01
(1542895154.503057) can0 618#013008DB268AFB06
(1542895154.503494) can0 608#0114101BDCEA0006
(1542895154.503976) can0 620#01AE279C01670307
(1542895154.504444) can0 628#012DD9BC00A8FE06
(1542895154.532607) can0 600#01AD00B3007CFE09
(1542895154.532934) can0 600#067801
(1542895154.543049) can0 618#017A08C12689FB06
(1542895154.543519) can0 608#01141016DCDB0006
(1542895154.543996) can0 620#019C27FA017E0307
(1542895154.544384) can0 628#0158D99000BAFE06
(1542895154.545945) can0 780#BC646F4BBD0A7829
(1542895154.548635) can0 782#404892F5
(1542895154.572532) can0 600#019D00B5007FFE09
(1542895154.572731) can0 600#066F01
(1542895154.577754) can0 780#BC5BA849BD0AD8F7
(1542895154.580527) can0 782#4048931C
(1542895154.583238) can0 618#01F90884268FFB06
(1542895154.583697) can0 608#01051030DCCF0006
(1542895154.584160) can0 620#017B2788026B0307
(1542895154.584636) can0 628#0195D95C0096FE06
(1542895154.606605) can0 780#BC5BA849BD0AD8F7
(1542895154.609111) can0 782#4048914D
(1542895154.612556) can0 600#018400AB0082FE09
(1542895154.612761) can0 600#067601
(1542895154.623206) can0 618#016C09312683FB06
(1542895154.623641) can0 608#01F20F34DCCD0006
(1542895154.624125) can0 620#0149272303750307
(1542895154.624594) can0 628#01D3D92D00A9FE06
(1542895154.652556) can0 600#017B00AA007EFE09
(1542895154.652759) can0 600#067D01
(1542895154.663103) can0 618#01CA09EC257BFB06
(1542895154.663549) can0 608#01F00F3FDCD10006
(1542895154.664033) can0 620#010A2762037F0307
(1542895154.664503) can0 628#011DDA0200AAFE06
(1542895154.667888) can0 780#BC5D82C2BD0B0C0F
(1542895154.670831) can0 782#4048902E
(1542895154.692583) can0 600#018300AA0083FE09
(1542895154.692775) can0 600#067A01
(1542895154.698829) can0 780#BC5D82C2BD0B0C0F
(1542895154.701465) can0 782#40489003
(1542895154.703109) can0 618#01DB09AF2580FB06
(1542895154.703549) can0 608#010B105CDCD90006
(1542895154.704028) can0 620#01CD267303870307
(1542895154.704499) can0 628#0156DAFEFFB8FE06
(1542895154.726429) can0 780#BC5FADD5BD0AFDFE
(1542895154.728978) can0 782#40489023
(1542895154.732406) can0 600#017D00B10079FE09
(1542895154.732849) can0 600#067E01
(1542895154.743282) can0 618#01300A7D2590FB06
(1542895154.743726) can0 608#0117104EDCE00006
(1542895154.744191) can0 620#019926A303770307
(1542895154.744659) can0 628#0199DA0B00B5FE06
(1542895154.772581) can0 600#019500AF0079FE09
(1542895154.772784) can0 600#067B01
(1542895154.783224) can0 618#01640A55259BFB06
(1542895154.783672) can0 608#01301075DCE10006
(1542895154.784157) can0 620#017E26F503600307
(1542895154.784629) can0 628#01D0DA2C00BCFE06
(1542895154.787956) can0 780#BC601142BD0B7D74
(1542895154.790640) can0 782#40488DAB
(1542895154.812657) can0 600#018100AD007FFE09
(1542895154.812856) can0 600#068A01
(1542895154.818586) can0 780#BC601142BD0B7D74
(1542895154.821331) can0 782#40488D8B
(1542895154.823133) can0 618#01CD0A512599FB06
(1542895154.823570) can0 608#014A1076DCE50006
(1542895154.824024) can0 620#018C265B04770306
(1542895154.824520) can0 628#01D6DA5800BDFE06
(1542895154.843810) can0 780#BC649B20BD0AF3F6
(1542895154.846690) can0 782#40488FF2
(1542895154.852704) can0 600#018000AA007FFE09
(1542895154.852917) can0 600#067A01
(1542895154.863132) can0 618#01FA0A6525A8FB06
(1542895154.863599) can0 608#016E1081DCE40006
(1542895154.864050) can0 620#01A3269B04690307
(1542895154.864553) can0 628#01D0DA7200B9FE06
(1542895154.892615) can0 600#017D00A30082FE09
(1542895154.892800) can0 600#068B01
(1542895154.903329) can0 618#01400B6E25B3FB06
(1542895154.903797) can0 608#019F1096DCEF0006
(1542895154.904221) can0 620#01BA26D304660307
(1542895154.904696) can0 628#01B3DA9300D2FE06
(1542895154.907981) can0 780#BC6AB102BD0A1424
(1542895154.911252) can0 782#404893F5
(1542895154.932636) can0 600#018800A50076FE09
(1542895154.932833) can0 600#068601
(1542895154.937885) can0 780#BC6AB102BD0A1424
(1542895154.941112) can0 782#404893D7
(1542895154.943260) can0 618#016F0B7525A5FB06
(1542895154.943722) can0 608#01C1109CDCF00006
(1542895154.944117) can0 620#01C1260D05550307
(1542895154.944601) can0 628#01C0DAA300BFFE06
(1542895154.963831) can0 780#BC6AB102BD0A1424
(1542895154.966583) can0 782#404893BC
(1542895154.972635) can0 600#018F00A4007AFE09
(1542895154.972824) can0 600#068A01
(1542895154.983161) can0 618#01A90B6B25ADFB06
(1542895154.983622) can0 608#01F410B2DCF50006
(1542895154.984099) can0 620#01BF263A05670307
(1542895154.984574) can0 628#01CADABD00CCFE06
(1542895155.012664) can0 600#018C00A8007CFE09
(1542895155.012844) can0 600#068701
(1542895155.023133) can0 618#01D30B6525B2FB06
(1542895155.023604) can0 608#011111B3DCEC0006
(1542895155.024086) can0 620#01BA266C054B0307
(1542895155.024558) can0 628#01E0DAC200B3FE06
(1542895155.025914) can0 780#BC6C8ABFBD09D6CF
(1542895155.028807) can0 782#404894C6
(1542895155.052642) can0 600#019E00AE007FFE09
(1542895155.052865) can0 600#068301
(1542895155.056611) can0 780#BC668475BD0A37BC
(1542895155.059585) can0 782#404892DD
(1542895155.063328) can0 618#011D0C4A25B7FB06
(1542895155.063724) can0 608#013711D5DCEE0006
(1542895155.064266) can0 620#01AE26B205460307
(1542895155.064801) can0 628#01F7DAB700AFFE06
(1542895155.086337) can0 780#BC668475BD0A37BC
(1542895155.089430) can0 782#404892BF
(1542895155.092664) can0 600#019500A90074FE09
(1542895155.092985) can0 600#067E01
(1542895155.103309) can0 618#014F0C3925C6FB06
(1542895155.103800) can0 608#015511D4DCFA0006
(1542895155.104198) can0 620#01A726F3054D0307
(1542895155.104673) can0 628#0105DB9A00AEFE06
(1542895155.132758) can0 600#019800AF007AFE09
(1542895155.132966) can0 600#067E01
(1542895155.143235) can0 618#01A20C2725C2FB06
(1542895155.143672) can0 608#017211E5DCEB0006
(1542895155.144134) can0 620#01A2263E06360307
(1542895155.144530) can0 628#0115DB6A00BBFE06
(1542895155.145618) can0 780#BC5E5831BD0B0F14
(1542895155.148664) can0 782#40488C07
(1542895155.172729) can0 600#019900A90073FE09
(1542895155.173053) can0 600#067F01
(1542895155.175609) can0 780#BC5A0D63BD0B6CCD
(1542895155.178482) can0 782#404887D8
(1542895155.183220) can0 618#01CC0C1225C6FB06
(1542895155.183673) can0 608#018E1100DDE20006
(1542895155.184136) can0 620#019A2684063A0307
(1542895155.184606) can0 628#011FDB4A00AAFE06
(1542895155.206668) can0 780#BC5A0D63BD0B6CCD
(1542895155.209185) can0 782#40488591
(1542895155.212689) can0 600#018E00A70075FE09
(1542895155.212899) can0 600#068C01
(1542895155.223332) can0 618#01250DF624C5FB06
(1542895155.223800) can0 608#01A911F3DCED0006
(1542895155.224246) can0 620#018526C906340307
(1542895155.224703) can0 628#0145DB2600BAFE06
(1542895155.252686) can0 600#019900B50078FE09
(1542895155.252828) can0 600#067F01
(1542895155.263291) can0 618#01430DD924CBFB06
(1542895155.263728) can0 608#01C2111EDDF00006
(1542895155.264119) can0 620#0171260207370307
(1542895155.264520) can0 628#0160DB1500B6FE06
(1542895155.265126) can0 318#00063300000039
(1542895155.268410) can0 780#BC5A40CABD0B5910
(1542895155.271587) can0 782#404883E2
(1542895155.292710) can0 600#018D00AE006FFE09
(1542895155.293033) can0 600#067A01
(1542895155.300613) can0 780#BC5A7F0FBD0AFF3E
(1542895155.303268) can0 618#019A0DB924D1FB06
(1542895155.303700) can0 608#01E1111BDDFE0006
(1542895155.304186) can0 620#015E2646071E0307
(1542895155.304638) can0 628#0180DB0A00C4FE06
(1542895155.305001) can0 782#404883B0
(1542895155.325903) can0 780#BC5A7F0FBD0AFF3E
(1542895155.329039) can0 782#404881FE
(1542895155.332729) can0 600#019600B50078FE09
(1542895155.332940) can0 600#068C01
(1542895155.343265) can0 618#01CC0D9D24D5FB06
(1542895155.343722) can0 608#01F3112DDDF20006
(1542895155.344191) can0 620#014A2688072F0307
(1542895155.344663) can0 628#01A3DB0100B9FE06
(1542895155.372681) can0 600#019500AF007BFE09
(1542895155.373013) can0 600#067F01
(1542895155.383411) can0 618#010C0E8424CFFB06
(1542895155.383770) can0 608#01141246DDE90006
(1542895155.384171) can0 620#013C26CA07310307
(1542895155.384804) can0 628#01B3DB0D00CBFE06
(1542895155.388290) can0 780#BC58D6F2BD0AE272
(1542895155.391509) can0 782#404880DD
(1542895155.412766) can0 600#019200AD007FFE09
(1542895155.412968) can0 600#068301
(1542895155.418062) can0 780#BC58D6F2BD0AE272
(1542895155.421409) can0 782#40487F63
(1542895155.423385) can0 618#01420E7724D5FB06
(1542895155.423797) can0 608#012B1243DDE50006
(1542895155.424276) can0 620#01332608082E0307
(1542895155.424800) can0 628#01D1DB1B00CDFE06
(1542895155.443980) can0 780#BC56692ABD0B0895
(1542895155.446836) can0 782#40487D66
(1542895155.452839) can0 600#019500AD0081FE09
(1542895155.453021) can0 600#068D01
(1542895155.463285) can0 618#018B0E5524DFFB06
(1542895155.463728) can0 608#014A1261DDE90006
(1542895155.464192) can0 620#0123264F081A0307
(1542895155.464668) can0 628#01EADB3A00C2FE06
(1542895155.492802) can0 600#019100B0006EFE09
(1542895155.493133) can0 600#067F01
(1542895155.503314) can0 618#01B80E4624E0FB06
(1542895155.503723) can0 608#0165126ADDEA0006
(1542895155.504221) can0 620#0116268908270306
(1542895155.504683) can0 628#010DDC5700C1FE06
(1542895155.507738) can0 780#BC54098CBD0B52F0
(1542895155.510433) can0 782#40487ADF
(1542895155.532839) can0 600#019900AF007FFE09
(1542895155.533010) can0 600#068C01
(1542895155.538463) can0 780#BC54098CBD0B52F0
(1542895155.541136) can0 782#404879DA
(1542895155.543484) can0 618#01EF0E3824F3FB06
(1542895155.543925) can0 608#01881277DDF30006
(1542895155.544395) can0 620#010626A4080C0307
(1542895155.544876) can0 628#0124DC6F00B7FE06
(1542895155.564068) can0 780#BC5356CFBD0BD1E8
(1542895155.566608) can0 782#4048768D
(1542895155.572837) can0 600#019300A9007BFE09
(1542895155.572994) can0 600#068F01
(1542895155.583437) can0 618#010E0F2024F4FB06
(1542895155.583878) can0 608#01A9128EDDE50006
(1542895155.584354) can0 620#01EE25C708040307
(1542895155.584833) can0 628#013FDC8000D2FE06
(1542895155.612815) can0 600#019D00B0007AFE09
(1542895155.613022) can0 600#067D01
(1542895155.623287) can0 618#01540FFA23FAFB06
(1542895155.623784) can0 608#01C01293DDE30006
(1542895155.624227) can0 620#01D1250A090A0307
(1542895155.624630) can0 628#016EDC7D00C0FE06
(1542895155.628240) can0 780#BC5215E5BD0BF81E
(1542895155.631160) can0 782#404872B8
(1542895155.652839) can0 600#01A600AE0077FE09
(1542895155.653016) can0 600#068501
(1542895155.657263) can0 780#BC5215E5BD0BF81E
(1542895155.659806) can0 782#40486FEB
(1542895155.663356) can0 618#017C0FDA230BFC06
(1542895155.663799) can0 608#01D912B0DDEC0006
(1542895155.664281) can0 620#01BC254809FD0207
(1542895155.664801) can0 628#0186DC8200C3FE06
(1542895155.687967) can0 780#BC5215E5BD0BF81E
(1542895155.691920) can0 782#40486D55
(1542895155.692809) can0 600#019400AC007DFE09
(1542895155.693133) can0 600#068101
(1542895155.703513) can0 618#01C90FC82312FC06
(1542895155.703957) can0 608#01F212ABDDE30006
(1542895155.704427) can0 620#01B1257E09E00206
(1542895155.704904) can0 628#01A3DC7300B4FE06
(1542895155.732836) can0 600#019D00B1006FFE09
(1542895155.733029) can0 600#067401
(1542895155.743457) can0 618#01EF0FA7232FFC06
(1542895155.743896) can0 608#010A13D0DDEB0006
(1542895155.744374) can0 620#019C25C609DE0206
(1542895155.744828) can0 628#01C4DC6100B0FE06
(1542895155.745811) can0 780#BC51851EBD0C1A81
(1542895155.748842) can0 782#40486A7C
(1542895155.772912) can0 600#019500AA007DFE09
(1542895155.773243) can0 600#067C01
(1542895155.775838) can0 780#BC50F2D0BD0BA956
(1542895155.778395) can0 782#40486A90
(1542895155.783360) can0 618#013E10852337FC06
(1542895155.783800) can0 608#012713D0DDEC0006
(1542895155.784299) can0 620#0186250C0AD60207
(1542895155.784807) can0 628#01DBDC4300AAFE06
(1542895155.806732) can0 780#BC50F2D0BD0BA956
(1542895155.809231) can0 782#404868BC
(1542895155.812840) can0 600#019900B40072FE09
(1542895155.813051) can0 600#068001
(1542895155.823392) can0 618#016210712335FC06
(1542895155.823823) can0 608#013F13E1DDEA0006
(1542895155.824301) can0 620#0176253C0ABA0207
(1542895155.824804) can0 628#01F9DC2300B0FE06
(1542895155.852833) can0 600#019D00A70078FE09
(1542895155.853160) can0 600#068C01
(1542895155.863421) can0 618#0195105E2342FC06
(1542895155.864009) can0 608#01681301DEE90006
(1542895155.864478) can0 620#016A25680AC70207
(1542895155.864955) can0 628#0103DD1400B3FE06
(1542895155.868205) can0 780#BC4EAEFFBD0B7B88
(1542895155.870887) can0 782#404867C9
(1542895155.892861) can0 600#019800B60076FE09
(1542895155.893072) can0 600#068501
(1542895155.896212) can0 780#BC4CD52DBD0BF671
(1542895155.899291) can0 782#404863EC
(1542895155.903508) can0 618#01CC10492352FC06
(1542895155.903952) can0 608#018113FADDE20006
(1542895155.904429) can0 620#015E25AB0ABC0207
(1542895155.904910) can0 628#0121DD04009EFE06
(1542895155.926032) can0 780#BC4CD52DBD0BF671
(1542895155.929140) can0 782#4048628D
(1542895155.932865) can0 600#01A600B10076FE09
(1542895155.933051) can0 600#068601
(1542895155.943414) can0 618#010711302352FC06
(1542895155.943853) can0 608#01A2131FDEE90006
(1542895155.944327) can0 620#015525F10AA90207
(1542895155.944804) can0 628#0138DDFCFFAFFE06
(1542895155.972881) can0 600#019700B00082FE09
(1542895155.973078) can0 600#068001
(1542895155.983412) can0 618#014A113A2355FC06
(1542895155.983860) can0 608#01C01326DEF10006
(1542895155.984324) can0 620#0164255B0BA20206
(1542895155.984805) can0 628#0125DDFFFFB6FE06
(1542895155.988088) can0 780#BC4B6AC2BD0CC526
(1542895155.990739) can0 782#40485D81
(1542895156.012882) can0 600#01A400B10079FE09
(1542895156.013215) can0 600#068901
(1542895156.021384) can0 780#BC4B74B1BD0D4B23
(1542895156.023587) can0 618#013211092370FC06
(1542895156.024029) can0 608#01EC1332DEEA0006
(1542895156.024502) can0 620#011E25E30A9A0207
(1542895156.024977) can0 628#017BDDFAFFB0FE06
(1542895156.025297) can0 782#404859F6
(1542895156.044766) can0 780#BC4B74B1BD0D4B23
(1542895156.047839) can0 782#404858F1
(1542895156.052917) can0 600#01A500B5007DFE09
(1542895156.053101) can0 600#067E01
(1542895156.063540) can0 618#01AF11B92271FC06
(1542895156.063987) can0 608#01DB134ADEE30006
(1542895156.064452) can0 620#010825D60B960207
(1542895156.064933) can0 628#019FDD1000B7FE06
(1542895156.092968) can0 600#019700B50078FE09
(1542895156.093174) can0 600#068601
(1542895156.103443) can0 618#01D611FC226FFC06
(1542895156.103860) can0 608#0116144DDEEF0006
(1542895156.104354) can0 620#013825C50B950207
(1542895156.104828) can0 628#0183DD2500B6FE06
(1542895156.107738) can0 780#BC4A6D8BBD0D1394
(1542895156.110520) can0 782#40485944
(1542895156.132925) can0 600#019E00A90071FE09
(1542895156.133114) can0 600#068D01
(1542895156.138488) can0 780#BC4A6D8BBD0D1394
(1542895156.141223) can0 782#404858A0
(1542895156.143463) can0 618#01E811D02279FC06
(1542895156.143903) can0 608#0134146BDEEC0006
(1542895156.144377) can0 620#011725E70B800207
(1542895156.144850) can0 628#01A7DD3B00AAFE06
(1542895156.164110) can0 780#BC4B60DDBD0C0967
(1542895156.166692) can0 782#40485CE5
(1542895156.172939) can0 600#019D00AF0081FE09
(1542895156.173134) can0 600#067C01
(1542895156.183570) can0 618#013F127E2278FC06
(1542895156.184011) can0 608#01381475DEE80006
(1542895156.184480) can0 620#01DF245A0C8C0207
(1542895156.184954) can0 628#01EFDD4300B4FE06
(1542895156.212933) can0 600#01AE00B6007CFE09
(1542895156.213129) can0 600#067B01
(1542895156.223462) can0 618#015412882275FC06
(1542895156.223936) can0 608#0162148ADEE70006
(1542895156.224413) can0 620#01E3246C0C720207
(1542895156.224886) can0 628#01F3DD4B00AEFE06
(1542895156.226046) can0 780#BC466B65BD0CB22E
(1542895156.228890) can0 782#4048592B
(1542895156.252963) can0 600#019C00AB0082FE09
(1542895156.253188) can0 600#067E01
(1542895156.255840) can0 780#BC466B65BD0CB22E
(1542895156.258806) can0 782#404858AA
(1542895156.263489) can0 618#018A12762286FC06
(1542895156.263932) can0 608#017F1496DEF00006
(1542895156.264374) can0 620#01D724940C860207
(1542895156.264856) can0 628#0102DE5600BCFE06
(1542895156.269465) can0 318#00063300000039
(1542895156.283838) can0 780#BC44B515BD0D8E24
(1542895156.286439) can0 782#4048541C
(1542895156.292972) can0 600#019E00B10073FE09
(1542895156.293145) can0 600#069501
(1542895156.303466) can0 618#01C3123C2290FC06
(1542895156.303931) can0 608#018714A7DEE00006
(1542895156.304404) can0 620#01B024FC0C7B0207
(1542895156.304885) can0 628#0146DE4A00AAFE06
(1542895156.332967) can0 600#01A500AE0082FE09
(1542895156.333285) can0 600#068101
(1542895156.343664) can0 618#01F1122E227CFC06
(1542895156.344103) can0 608#01AA14C1DEE00006
(1542895156.344585) can0 620#01AA241F0D730207
(1542895156.344976) can0 628#0144DE4200B6FE06
(1542895156.348155) can0 780#BC43AAA3BD0E3012
(1542895156.351061) can0 782#404853A9
(1542895156.372988) can0 600#019500AB007AFE09
(1542895156.373179) can0 600#068801
(1542895156.377086) can0 780#BC43AAA3BD0E3012
(1542895156.379640) can0 782#40485041
(1542895156.383616) can0 618#011E13272283FC06
(1542895156.384059) can0 608#01C814BCDEE40006
(1542895156.384530) can0 620#019F24400D720207
(1542895156.385014) can0 628#0158DE3000B1FE06
(1542895156.407837) can0 780#BC43AAA3BD0E3012
(1542895156.412691) can0 782#40484FEB
(1542895156.413173) can0 600#01A800AE0075FE09
(1542895156.413498) can0 600#067201
(1542895156.423502) can0 618#014813F8218AFC06
(1542895156.423983) can0 608#01E014E6DEDF0006
(1542895156.424452) can0 620#0183248A0D800207
(1542895156.424931) can0 628#0184DE1F00A6FE06
(1542895156.453099) can0 600#019C00AF0075FE09
(1542895156.453278) can0 600#068901
(1542895156.463543) can0 618#017613E82182FC06
(1542895156.463982) can0 608#01FC14EBDEE60006
(1542895156.464459) can0 620#017824AE0D7F0207
(1542895156.464930) can0 628#0191DE1000B1FE06
(1542895156.466174) can0 780#BC444AF7BD0DDD9D
(1542895156.468686) can0 782#40485124
(1542895156.493013) can0 600#01A500B40073FE09
(1542895156.493223) can0 600#068F01
(1542895156.496687) can0 780#BC452B49BD0DAB6C
(1542895156.499468) can0 782#404851CE
(1542895156.503714) can0 618#019C13D82199FC06
(1542895156.504174) can0 608#012015F6DEEC0006
(1542895156.504643) can0 620#016824D00D710206
(1542895156.505106) can0 628#01ADDEFDFF9DFE06
(1542895156.527614) can0 780#BC452B49BD0DAB6C
(1542895156.530070) can0 782#40485180
(1542895156.533042) can0 600#01A200B1007FFE09
(1542895156.533222) can0 600#068201
(1542895156.543658) can0 618#01CA13AE2185FC06
(1542895156.544105) can0 608#0133151ADFE50006
(1542895156.544579) can0 620#0150241E0E780207
(1542895156.545056) can0 628#01C5DEF5FFBDFE06
(1542895156.573040) can0 600#01A200B00084FE09
(1542895156.573231) can0 600#068601
(1542895156.583564) can0 618#01FD139B2191FC06
(1542895156.584012) can0 608#014E1517DFF00006
(1542895156.584481) can0 620#014124470E780207
(1542895156.584956) can0 628#01E4DEE8FFB3FE06
(1542895156.588693) can0 780#BC459524BD0D8642
(1542895156.591841) can0 782#404854FD
(1542895156.613008) can0 600#01A300B2007CFE09
(1542895156.613232) can0 600#068D01
(1542895156.616844) can0 780#BC436435BD0D58CC
(1542895156.619236) can0 782#40485840
(1542895156.623566) can0 618#01201489218BFC06
(1542895156.624013) can0 608#016E1536DFE90006
(1542895156.624487) can0 620#0135246D0E770207
(1542895156.624898) can0 628#01F3DEECFFC3FE06
(1542895156.647419) can0 780#BC436435BD0D58CC
(1542895156.649960) can0 782#40485A67
(1542895156.653068) can0 600#019D00B10087FE09
(1542895156.653260) can0 600#068201
(1542895156.663742) can0 618#01531460218AFC06
(1542895156.664197) can0 608#01851540DFE20006
(1542895156.664671) can0 620#011824B00E7E0206
(1542895156.665129) can0 628#011BDFF5FFB6FE06
(1542895156.693065) can0 600#01A800B50079FE09
(1542895156.693261) can0 600#068801
(1542895156.703694) can0 618#0182144F218CFC06
(1542895156.704133) can0 608#019D1555DFEA0006
(1542895156.704607) can0 620#010B24D70E890207
(1542895156.705084) can0 628#0138DFFAFFBDFE06
(1542895156.708847) can0 780#BC3D1B0CBD0CD7D0
(1542895156.711590) can0 782#40485EC0
(1542895156.733132) can0 600#019F00B0006FFE09
(1542895156.733332) can0 600#068301
(1542895156.734264) can0 780#BC3D1B0CBD0CD7D0
(1542895156.737012) can0 782#4048609B
(1542895156.743515) can0 618#01A81435218EFC06
(1542895156.744056) can0 608#01C01566DFEA0006
(1542895156.744529) can0 620#01F623030F5B0206
(1542895156.745008) can0 628#014CDF0B00BDFE06
(1542895156.765119) can0 780#BC3A12FFBD0D43EA
(1542895156.767688) can0 782#40486036
(1542895156.773165) can0 600#01A600B10078FE09
(1542895156.773375) can0 600#067F01
(1542895156.783614) can0 618#01DA14112185FC06
(1542895156.784061) can0 608#01D01574DFE60006
(1542895156.784532) can0 620#01DA233F0F790207
(1542895156.785040) can0 628#017EDF0F00C4FE06
(1542895156.813119) can0 600#01AB00B00082FE09
(1542895156.813303) can0 600#068C01
(1542895156.823802) can0 618#01FC14F82093FC06
(1542895156.824211) can0 608#01F11591DFE90006
(1542895156.824682) can0 620#01C923690F6A0207
(1542895156.825151) can0 628#018CDF1F00C5FE06
(1542895156.828512) can0 780#BC3888A4BD0E1D50
(1542895156.831370) can0 782#40485DA8
(1542895156.853115) can0 600#019E00AE0075FE09
(1542895156.853306) can0 600#068001
(1542895156.854215) can0 780#BC3888A4BD0E1D50
(1542895156.856845) can0 782#40485EF1
(1542895156.863737) can0 618#012D15E9209BFC06
(1542895156.864197) can0 608#010E168FDFE50006
(1542895156.864640) can0 620#01B923870F730206
(1542895156.865130) can0 628#01AADF2400BBFE06
(1542895156.885014) can0 780#BC3AC602BD0E78E0
(1542895156.887523) can0 782#40485E7C
(1542895156.893124) can0 600#01AD00B3007FFE09
(1542895156.893303) can0 600#067A01
(1542895156.903617) can0 618#014915C4208FFC06
(1542895156.904083) can0 608#012A16B1DFE00006
(1542895156.904556) can0 620#019E23BA0F790207
(1542895156.905037) can0 628#01D0DF2500ACFE06
(1542895156.933083) can0 600#01A200AE0076FE09
(1542895156.933402) can0 600#068701
(1542895156.943639) can0 618#017A15A72095FC06
(1542895156.944109) can0 608#013E16BDDFE20006
(1542895156.944475) can0 620#018523DD0F5A0207
(1542895156.945058) can0 628#01E7DF2300BFFE06
(1542895156.947065) can0 780#BC3B59ECBD0DDB15
(1542895156.949942) can0 782#4048627E
(1542895156.973141) can0 600#01AA00B60080FE09
(1542895156.973335) can0 600#068101
(1542895156.976842) can0 780#BC3B59ECBD0DDB15
(1542895156.979696) can0 782#40486377
(1542895156.983844) can0 618#019D158A2096FC06
(1542895156.984257) can0 608#015C16CBDFE10006
(1542895156.984730) can0 620#016A230A10670207
(1542895156.985199) can0 628#0115E01400BFFE06
(1542895157.004826) can0 780#BC39FEE6BD0D4911
(1542895157.007353) can0 782#4048670B
(1542895157.013142) can0 600#01AB00AF0078FE09
(1542895157.013337) can0 600#068301
(1542895157.023770) can0 618#01C61566209CFC06
(1542895157.024228) can0 608#017316F0DFE30006
(1542895157.024673) can0 620#0153233C10640207
(1542895157.025159) can0 628#0126E01000A9FE06
(1542895157.053219) can0 600#01A100B00070FE09
(1542895157.053408) can0 600#068B01
(1542895157.063672) can0 618#01F7154A209EFC06
(1542895157.064134) can0 608#018816E7DFE30006
(1542895157.064625) can0 620#013E236C105A0206
(1542895157.065110) can0 628#014BE0FFFFA7FE06
(1542895157.069122) can0 780#BC372674BD0D25BB
(1542895157.071971) can0 782#404869FD
(1542895157.093269) can0 600#01AB00B0007AFE09
(1542895157.093459) can0 600#068901
(1542895157.098011) can0 780#BC372674BD0D25BB
(1542895157.100751) can0 782#40486D43
(1542895157.103691) can0 618#011D16292098FC06
(1542895157.104140) can0 608#01A51610E0E90006
(1542895157.104609) can0 620#0126239E105F0207
(1542895157.105085) can0 628#0168E0F1FFB0FE06
(1542895157.128736) can0 780#BC372674BD0D25BB
(1542895157.133166) can0 600#01A000B1007DFE09
(1542895157.133490) can0 600#068901
(1542895157.133704) can0 782#40486F95
(1542895157.143845) can0 618#013E160A20AEFC06
(1542895157.144277) can0 608#01BF1618E0ED0006
(1542895157.144731) can0 620#010D23CD10610206
(1542895157.145223) can0 628#0182E0E7FFB8FE06
(1542895157.173191) can0 600#01AA00B20074FE09
(1542895157.173389) can0 600#068A01
(1542895157.183747) can0 618#017716E91FA3FC06
(1542895157.184201) can0 608#01CD1626E0DB0006
(1542895157.184667) can0 620#01F522FA105A0206
(1542895157.185137) can0 628#01B3E0D8FF9EFE06
(1542895157.187648) can0 780#BC3646FCBD0DD61C
(1542895157.190743) can0 782#404870C6
(1542895157.213193) can0 600#01A500B30073FE09
(1542895157.213390) can0 600#068201
(1542895157.217366) can0 780#BC34FDD2BD0E5CD4
(1542895157.220319) can0 782#40487249
(1542895157.223717) can0 618#018F16CD1FA6FC06
(1542895157.224172) can0 608#01F21649E0E20006
(1542895157.224649) can0 620#01DF222A11550207
(1542895157.225132) can0 628#01BFE0DDFFB8FE06
(1542895157.248522) can0 780#BC34FDD2BD0E5CD4
(1542895157.251270) can0 782#404875E2
(1542895157.253170) can0 600#01A800B7007CFE09
(1542895157.253499) can0 600#068501
(1542895157.263723) can0 618#01C316AE1FABFC06
(1542895157.264171) can0 608#01051749E0E90006
(1542895157.264618) can0 620#01C52252115D0206
(1542895157.265107) can0 628#01EBE0D5FFC2FE06
(1542895157.272842) can0 318#00063300000039
(1542895157.293216) can0 600#01A900B0007AFE09
(1542895157.293401) can0 600#068401
(1542895157.303895) can0 618#01DF168E1FA0FC06
(1542895157.304333) can0 608#01211767E0E70006
(1542895157.304810) can0 620#01AD228511590207
(1542895157.305281) can0 628#0108E1DCFFC6FE06
(1542895157.305729) can0 780#BC35C5B9BD0E45F3
(1542895157.307436) can0 782#4048798D
(1542895157.333243) can0 600#01A400B3006DFE09
(1542895157.333440) can0 600#068001
(1542895157.337639) can0 780#BC3699A5BD0DB141
(1542895157.340182) can0 782#40487F3B
(1542895157.343844) can0 618#011317711FA9FC06
(1542895157.344306) can0 608#01371774E0EC0006
(1542895157.344808) can0 620#019A22B711540207
(1542895157.345231) can0 628#0122E1E2FFBDFE06
(1542895157.368343) can0 780#BC3699A5BD0DB141
(1542895157.371115) can0 782#404881E3
(1542895157.373270) can0 600#01AF00B6006DFE09
(1542895157.373457) can0 600#068201
(1542895157.383737) can0 618#0130175D1FA5FC06
(1542895157.384200) can0 608#0156178AE0E40006
(1542895157.384670) can0 620#018722DF11450207
(1542895157.385162) can0 628#0145E1E5FFB4FE06
(1542895157.413348) can0 600#01A600AC0076FE09
(1542895157.413526) can0 600#068601
(1542895157.423655) can0 618#016B17351FABFC06
(1542895157.424120) can0 608#0162179AE0EB0006
(1542895157.424611) can0 620#016E221F125C0207
(1542895157.425128) can0 628#015DE1F8FFB9FE06
(1542895157.425527) can0 780#BC38A87BBD0D3B71
(1542895157.427196) can0 782#4048867C
(1542895157.453135) can0 600#01A700B70083FE09
(1542895157.453539) can0 600#068401
(1542895157.455724) can0 780#BC38A87BBD0D3B71
(1542895157.461171) can0 782#404888A3
(1542895157.463940) can0 618#018C17241FA6FC06
(1542895157.464379) can0 608#018B17ABE0E20006
(1542895157.464861) can0 620#015F224A12550207
(1542895157.465241) can0 628#0182E1F6FFB1FE06
(1542895157.485593) can0 780#BC385275BD0D317D
(1542895157.488642) can0 782#40488ABF
(1542895157.493271) can0 600#01B100B20075FE09
(1542895157.493469) can0 600#067D01
(1542895157.503920) can0 618#01AC17041FAEFC06
(1542895157.504363) can0 608#01A417CCE0EB0006
(1542895157.504809) can0 620#014D2271124D0206
(1542895157.505281) can0 628#0195E10100AFFE06
(1542895157.533272) can0 600#01A600B60079FE09
(1542895157.533495) can0 600#068E01
(1542895157.543846) can0 618#01E317E61EABFC06
(1542895157.544253) can0 608#01B917CCE0EA0006
(1542895157.544713) can0 620#013322A7124A0206
(1542895157.545202) can0 628#01B7E1FFFFB0FE06
(1542895157.545643) can0 780#BC3534D3BD0DACA5
(1542895157.547888) can0 782#40488A4A
(1542895157.573291) can0 600#01B300B20074FE09
(1542895157.573484) can0 600#068201
(1542895157.574699) can0 780#BC3534D3BD0DACA5
(1542895157.577841) can0 782#40488BFC
(1542895157.583856) can0 618#01FB17D01EAFFC06
(1542895157.584259) can0 608#01DF17F1E0EE0006
(1542895157.584734) can0 620#011F22CB12550207
(1542895157.585197) can0 628#01D9E1F6FFA1FE06
(1542895157.605917) can0 780#BC335706BD0E5388
(1542895157.608492) can0 782#40488A6F
(1542895157.613291) can0 600#01AD00B2007CFE09
(1542895157.613492) can0 600#068001
(1542895157.623933) can0 618#012718B81EAEFC06
(1542895157.624442) can0 608#01FA17FCE0F20006
(1542895157.624884) can0 620#010E22ED12650207
(1542895157.625383) can0 628#01DFE1FBFFB3FE06
(1542895157.653319) can0 600#01B100B40079FE09
(1542895157.653518) can0 600#068401
(1542895157.663946) can0 618#014C189F1EB1FC06
(1542895157.664383) can0 608#01151806E1E80006
(1542895157.664867) can0 620#01F6211313580206
(1542895157.665331) can0 628#0117E2E8FFA1FE06
(1542895157.667969) can0 780#BC335923BD0ED9B7
(1542895157.670994) can0 782#40488D29
(1542895157.693344) can0 600#01B300B30076FE09
(1542895157.693665) can0 600#067F01
(1542895157.697575) can0 780#BC335923BD0ED9B7
(1542895157.700846) can0 782#404891DB
(1542895157.703848) can0 618#016018881EAEFC06
(1542895157.704280) can0 608#013A1830E1EC0006
(1542895157.704813) can0 620#01E5212813610207
(1542895157.705211) can0 628#0115E2EAFFB6FE06
(1542895157.725720) can0 780#BC32EB00BD0EEE65
(1542895157.728217) can0 782#404895A5
(1542895157.733391) can0 600#01B200B4007BFE09
(1542895157.733717) can0 600#068901
(1542895157.743846) can0 618#018618821EAFFC06
(1542895157.744286) can0 608#0155182EE1DA0006
(1542895157.744741) can0 620#01CF212113520207
(1542895157.745227) can0 628#0136E2D7FFABFE06
(1542895157.773317) can0 600#01B900B70075FE09
(1542895157.773648) can0 600#068C01
(1542895157.784018) can0 618#018818701ECFFC06
(1542895157.784463) can0 608#01881852E1E60006
(1542895157.784941) can0 620#01B5211F132F0207
(1542895157.785410) can0 628#014DE2CFFFBFFE06
(1542895157.789969) can0 780#BC2F97A8BD0E50DC
(1542895157.792664) can0 782#40489986
(1542895157.813319) can0 600#01B900B90078FE09
(1542895157.813636) can0 600#067F01
(1542895157.818920) can0 780#BC2F97A8BD0E50DC
(1542895157.821614) can0 782#40489FEB
(1542895157.823969) can0 618#01A518291EDEFC06
(1542895157.824404) can0 608#01871866E1D00006
(1542895157.824884) can0 620#0178215113260207
(1542895157.825361) can0 628#018BE2CBFFB2FE06
(1542895157.844244) can0 780#BC2F97A8BD0E50DC
(1542895157.847021) can0 782#4048A30A
(1542895157.853369) can0 600#01C800BA0077FE09
(1542895157.853569) can0 600#067801
(1542895157.863870) can0 618#01DA18D61DD7FC06
(1542895157.864307) can0 608#01821874E1D20006
(1542895157.864812) can0 620#013A21AB13200207
(1542895157.865261) can0 628#01ECE2BAFFB2FE06
(1542895157.893373) can0 600#01B200B5007DFE09
(1542895157.893561) can0 600#068F01
(1542895157.903869) can0 618#0111199E1DDBFC06
(1542895157.904337) can0 608#0188188DE1D70006
(1542895157.904809) can0 620#0121212214050207
(1542895157.905256) can0 628#01FCE2C0FFB0FE06
(1542895157.907970) can0 780#BC270910BD0E9742
(1542895157.910724) can0 782#4048A47A
(1542895157.933372) can0 600#01A200B90079FE09
(1542895157.933567) can0 600#068601
(1542895157.938148) can0 780#BC25B5FABD0F0EAA
(1542895157.941419) can0 782#4048A4C7
(1542895157.944054) can0 618#016A19871DCEFC06
(1542895157.944515) can0 608#0190188BE1E10006
(1542895157.944963) can0 620#011F217D14280206
(1542895157.945433) can0 628#0122E3B1FFB2FE06
(1542895157.964075) can0 780#BC25B5FABD0F0EAA
(1542895157.966860) can0 782#4048A709
(1542895157.973386) can0 600#019B00A6007DFE09
(1542895157.973713) can0 600#068401
(1542895157.983998) can0 618#018D19751DD6FC06
(1542895157.984431) can0 608#01AC18A6E1ED0006
(1542895157.984911) can0 620#011821B3143B0207
(1542895157.985388) can0 628#0127E3B6FFB6FE06
(1542895158.013470) can0 600#019500AE0073FE09
(1542895158.013813) can0 600#067C01
(1542895158.023783) can0 618#01AF19681DD4FC06
(1542895158.024276) can0 608#01D418B7E1E30006
(1542895158.024729) can0 620#010521BC143A0206
(1542895158.025230) can0 628#0139E3C3FFB8FE06
(1542895158.026225) can0 780#BC2D6585BD0EADF5
(1542895158.029184) can0 782#4048AAEA
(1542895158.053467) can0 600#01B100B20070FE09
(1542895158.053670) can0 600#068601
(1542895158.058545) can0 780#BC32201EBD0ED305
(1542895158.061251) can0 782#4048AC20
(1542895158.063900) can0 618#01A819581DC3FC06
(1542895158.064363) can0 608#01FF18D5E1E60006
(1542895158.064833) can0 620#01EA20A0143E0207
(1542895158.065333) can0 628#0163E3CDFFA8FE06
(1542895158.089271) can0 780#BC32201EBD0ED305
(1542895158.091799) can0 782#4048ADCF
(1542895158.093413) can0 600#01B800B6007CFE09
(1542895158.093742) can0 600#069001
(1542895158.103994) can0 618#01B519321DCFFC06
(1542895158.104464) can0 608#011E19F1E1E10006
(1542895158.104939) can0 620#01C720A614290207
(1542895158.105414) can0 628#017AE3E3FFC1FE06
(1542895158.133422) can0 600#01C700BE0081FE09
(1542895158.133743) can0 600#068401
(1542895158.143975) can0 618#01CD19051DD8FC06
(1542895158.144414) can0 608#013A1902E2ED0006
(1542895158.144918) can0 620#01A020D714310207
(1542895158.145303) can0 628#01BFE3DCFFABFE06
(1542895158.145835) can0 780#BC2C40E1BD0F9485
(1542895158.148095) can0 782#4048ABD1
(1542895158.173446) can0 600#01C300B2007EFE09
(1542895158.173643) can0 600#068B01
(1542895158.176681) can0 780#BC2C40E1BD0F9485
(1542895158.182077) can0 782#4048AD4B
(1542895158.183941) can0 618#01131ADF1CD2FC06
(1542895158.184404) can0 608#013B1923E2EC0006
(1542895158.184890) can0 620#01952036153F0207
(1542895158.185364) can0 628#01C5E3DEFFB7FE06
(1542895158.206370) can0 780#BC2747FDBD0F8A82
(1542895158.209519) can0 782#4048AEBF
(1542895158.213446) can0 600#01B000B50075FE09
(1542895158.213641) can0 600#068501
(1542895158.223926) can0 618#015B1ACB1CC3FC06
(1542895158.224386) can0 608#01591919E2ED0006
(1542895158.224864) can0 620#0190209C15350207
(1542895158.225339) can0 628#01DFE3D8FFA5FE06
(1542895158.253471) can0 600#01AC00B00077FE09
(1542895158.253663) can0 600#069901
(1542895158.264121) can0 618#01931ABB1CB6FC06
(1542895158.264560) can0 608#016B193CE2EC0006
(1542895158.265044) can0 620#018E20DF153F0207
(1542895158.265511) can0 628#01EEE3D1FFAFFE06
(1542895158.265987) can0 780#BC2A2EF0BD0EB955
(1542895158.268849) can0 782#4048B3D0
(1542895158.277071) can0 318#00063300000039
(1542895158.293468) can0 600#01A500AD0076FE09
(1542895158.293808) can0 600#068201
(1542895158.295748) can0 780#BC2A2EF0BD0EB955
(1542895158.298652) can0 782#4048B4E4
(1542895158.304071) can0 618#01B91AA71CADFC06
(1542895158.304511) can0 608#0191194BE2F30006
(1542895158.304985) can0 620#0181200216540207
(1542895158.305453) can0 628#01F7E3D3FFB0FE06
(1542895158.326846) can0 780#BC2C6B8FBD0E5124
(1542895158.329327) can0 782#4048B7CA
(1542895158.333573) can0 600#01B600B30080FE09
(1542895158.333770) can0 600#068E01
(1542895158.343998) can0 618#01C31A971C9EFC06
(1542895158.344466) can0 608#01BA1960E2E80006
(1542895158.344906) can0 620#016420FC15520207
(1542895158.345385) can0 628#0125E4BFFFA9FE06
(1542895158.373573) can0 600#01C000B70074FE09
(1542895158.373744) can0 600#068A01
(1542895158.383999) can0 618#01C71A8A1C96FC06
(1542895158.384439) can0 608#01E9198DE2EC0006
(1542895158.384913) can0 620#014E20E115660207
(1542895158.385389) can0 628#0126E4C6FFB2FE06
(1542895158.388616) can0 780#BC25AE47BD0E877E
(1542895158.391896) can0 782#4048B79A
(1542895158.413480) can0 600#01CD00BE0075FE09
(1542895158.413811) can0 600#068C01
(1542895158.418451) can0 780#BC25AE47BD0E877E
(1542895158.421699) can0 782#4048B860
(1542895158.424171) can0 618#01D81A611CB9FC06
(1542895158.424608) can0 608#01FF1995E2E20006
(1542895158.425086) can0 620#012320F1155B0207
(1542895158.425560) can0 628#015EE4B7FFB6FE06
(1542895158.446947) can0 780#BC189D11BD0F7895
(1542895158.450023) can0 782#4048B47D
(1542895158.453499) can0 600#01D500B8007DFE09
(1542895158.453826) can0 600#068A01
(1542895158.464127) can0 618#01F91A371CB6FC06
(1542895158.464561) can0 608#01191AB6E2E30006
(1542895158.465044) can0 620#0102201E165D0207
(1542895158.465519) can0 628#018AE4A9FFACFE06
(1542895158.493525) can0 600#01C600C0007AFE09
(1542895158.493742) can0 600#068E01
(1542895158.504023) can0 618#01261B151CADFC06
(1542895158.504460) can0 608#01241ABFE2DE0006
(1542895158.504941) can0 620#01EA1F5E16610207
(1542895158.505407) can0 628#019BE4A7FFAEFE06
(1542895158.510097) can0 780#BC122AB9BD1099A2
(1542895158.512545) can0 782#4048B4F7
(1542895158.533523) can0 600#01C500B90077FE09
(1542895158.533851) can0 600#067B01
(1542895158.534985) can0 780#BC122AB9BD1099A2
(1542895158.538116) can0 782#4048B000
(1542895158.544033) can0 618#01601BEF1BB1FC06
(1542895158.544486) can0 608#01361AD0E2DA0006
(1542895158.544964) can0 620#01CC1F9B165F0207
(1542895158.545440) can0 628#01D7E492FFA8FE06
(1542895158.564751) can0 780#BC122AB9BD1099A2
(1542895158.567937) can0 782#4048B061
(1542895158.573526) can0 600#01AE00B00089FE09
(1542895158.573738) can0 600#067A01
(1542895158.584198) can0 618#017F1B121CB2FC06
(1542895158.584636) can0 608#016F1AE2E2D90006
(1542895158.585091) can0 620#01DA1F6D164E0207
(1542895158.585562) can0 628#01B0E49EFFACFE06
(1542895158.613530) can0 600#01B100B90079FE09
(1542895158.613734) can0 600#067901
(1542895158.623999) can0 618#015E1BA91CEFFC06
(1542895158.624530) can0 608#01041BF3E2C30006
(1542895158.625004) can0 620#010B206C151F0206
(1542895158.625479) can0 628#0164E4A5FF96FE06
(1542895158.628604) can0 780#BC13ADECBD109589
(1542895158.631553) can0 782#4048B0B0
(1542895158.653647) can0 600#01EE00B60082FE09
(1542895158.653836) can0 600#067E01
(1542895158.654879) can0 780#BC131A43BD1041C8
(1542895158.657970) can0 782#4048B277
(1542895158.664071) can0 618#01E61A181C33FD06
(1542895158.664517) can0 608#01F41A33E3B90006
(1542895158.664991) can0 620#01601F1715BE0107
(1542895158.665463) can0 628#010EE5AEFFB6FE06
(1542895158.684587) can0 780#BC131A43BD1041C8
(1542895158.687749) can0 782#4048B2AC
(1542895158.693575) can0 600#010A01CA0079FE09
(1542895158.693773) can0 600#066E01
(1542895158.704071) can0 618#01C11A421B7DFD06
(1542895158.704511) can0 608#01AE1A4CE3BF0006
(1542895158.704988) can0 620#01AA1E3815830106
(1542895158.705486) can0 628#01C3E5B9FFABFE06
(1542895158.733566) can0 600#01FD00CA0075FE09
(1542895158.733769) can0 600#066701
(1542895158.744137) can0 618#01EA1A2A1BBEFD06
(1542895158.744670) can0 608#01BA1A47E3BA0006
(1542895158.745167) can0 620#01931E5815460107
(1542895158.745641) can0 628#01F6E5B0FFBCFE06
(1542895158.747337) can0 780#BBE1C631BD113AB1
(1542895158.750127) can0 782#4048AE05
(1542895158.773575) can0 600#01B100B8007AFE09
(1542895158.773781) can0 600#065201
(1542895158.779384) can0 780#BBD53300BD1226B9
(1542895158.782152) can0 782#4048A9CD
(1542895158.784199) can0 618#015B1BCA1AE9FD06
(1542895158.784639) can0 608#01741A3CE3C00006
(1542895158.785116) can0 620#015E1E2116220107
(1542895158.785586) can0 628#0134E6AEFFAAFE06
(1542895158.804586) can0 780#BBD53300BD1226B9
(1542895158.807548) can0 782#4048A9F4
(1542895158.813604) can0 600#017700AA007CFE09
(1542895158.813787) can0 600#067401
(1542895158.824099) can0 618#01AC1BAA1A1AFE06
(1542895158.824537) can0 608#01721A2FE3B90006
(1542895158.825014) can0 620#01491E7216F30007
(1542895158.825490) can0 628#0158E68CFFABFE06
(1542895158.853597) can0 600#016E009D0077FE09
(1542895158.853793) can0 600#067701
(1542895158.864124) can0 618#01891BC11A4BFE06
(1542895158.864561) can0 608#01A61A52E3B80006
(1542895158.865023) can0 620#013F1E0F16AC0007
(1542895158.865517) can0 628#014AE69DFFA2FE06
(1542895158.866373) can0 780#BC0773FFBD102A8D
(1542895158.868951) can0 782#4048B3AE
(1542895158.893620) can0 600#018E00AF0078FE09
(1542895158.893823) can0 600#068501
(1542895158.897442) can0 780#BC0773FFBD102A8D
(1542895158.899700) can0 782#4048B3CE
(1542895158.904279) can0 618#01311B631A91FE06
(1542895158.904711) can0 608#019C1A70E3C30006
(1542895158.905179) can0 620#01C91DAE15700007
(1542895158.905684) can0 628#01C1E6B7FFBCFE06
(1542895158.927921) can0 780#BC1A0AEFBD0F896C
(1542895158.930422) can0 782#4048B6FB
(1542895158.933621) can0 600#01C600BF0075FE09
(1542895158.933773) can0 600#066D01
(1542895158.944222) can0 618#01DA1A361AD9FE06
(1542895158.944687) can0 608#01C11AA8E3C40006
(1542895158.945151) can0 620#01891D4415330007
(1542895158.945621) can0 628#0100E7C9FFB9FE06
(1542895158.973698) can0 600#01CA00BC0073FE09
(1542895158.973889) can0 600#068D01
(1542895158.984151) can0 618#01DF1A1A1A0FFF06
(1542895158.984584) can0 608#01CD1AB5E3D00006
(1542895158.985073) can0 620#017A1D5F15EBFF07
(1542895158.985542) can0 628#0101E7D4FFADFE06
(1542895158.986944) can0 780#BC11C3E3BD10F8DE
(1542895158.989758) can0 782#4048AD87
(1542895159.013646) can0 600#01B200BA0080FE09
(1542895159.013844) can0 600#068001
(1542895159.016676) can0 780#BC11C3E3BD10F8DE
(1542895159.019504) can0 782#4048AB29
(1542895159.024156) can0 618#012D1B321A5FFF06
(1542895159.024616) can0 608#01D41AB0E3E30006
(1542895159.025095) can0 620#019F1DC715A3FF07
(1542895159.025565) can0 628#01ECE6B5FFA8FE06
(1542895159.047781) can0 780#BC1691A0BD105F21
(1542895159.050246) can0 782#4048ABCA
(1542895159.053647) can0 600#019100A60081FE09
(1542895159.053843) can0 600#068101
(1542895159.064252) can0 618#01751B6A1A92FF06
(1542895159.064712) can0 608#01001BC5E3E80006
(1542895159.065178) can0 620#01EA1D141662FF07
(1542895159.065651) can0 628#01A4E6B3FFA4FE06
(1542895159.093648) can0 600#018300AC0071FE09
(1542895159.093975) can0 600#068101
(1542895159.104223) can0 618#01921B581ABDFF06
(1542895159.104666) can0 608#01061BCBE3DC0006
(1542895159.105143) can0 620#01F01D561638FF07
(1542895159.105527) can0 628#01ACE6B6FFB5FE06
(1542895159.109478) can0 780#BC2925C5BD0E8C83
(1542895159.112520) can0 782#4048B1CA
(1542895159.133676) can0 600#01A100B1007AFE09
(1542895159.133872) can0 600#069001
(1542895159.135010) can0 780#BC2925C5BD0E8C83
(1542895159.137245) can0 782#4048AF59
(1542895159.144179) can0 618#01731B891AF2FF06
(1542895159.144612) can0 608#013B1BFCE3D90006
(1542895159.145089) can0 620#01131E2C16F3FE07
(1542895159.145563) can0 628#0190E6B2FFA6FE06
(1542895159.167254) can0 780#BC2EFD33BD0EACEA
(1542895159.170076) can0 782#4048AC9D
(1542895159.173654) can0 600#01AF00B80074FE09
(1542895159.173981) can0 600#069401
(1542895159.184200) can0 618#01601BE51A220006
(1542895159.184593) can0 608#01901B1BE4E50006
(1542895159.185117) can0 620#01571ED515C3FE07
(1542895159.185594) can0 628#0124E6BEFFA2FE06
(1542895159.213702) can0 600#01CB00BC007AFE09
(1542895159.213887) can0 600#069501
(1542895159.224202) can0 618#01391B6C1B7E0006
(1542895159.224702) can0 608#01021C34E4E10006
(1542895159.225177) can0 620#01AD1E401586FE07
(1542895159.225732) can0 628#01D3E5A7FF9BFE06
(1542895159.231636) can0 780#BC264E0ABD0FA245
(1542895159.234480) can0 782#4048AA8A
(1542895159.253708) can0 600#01E700BD0075FE09
(1542895159.253883) can0 600#069001
(1542895159.255314) can0 780#BC264E0ABD0FA245
(1542895159.258101) can0 782#4048A418
(1542895159.264302) can0 618#01051B721BE40006
(1542895159.264815) can0 608#01121C6CE4D90006
(1542895159.265239) can0 620#01B41E101522FE07
(1542895159.265715) can0 628#01ABE5ADFF99FE06
(1542895159.280478) can0 318#00063300000039
(1542895159.286276) can0 780#BC264E0ABD0FA245
(1542895159.288849) can0 782#4048A276
(1542895159.293854) can0 600#01FA00C60079FE09
(1542895159.294019) can0 600#067501
(1542895159.304213) can0 618#01ED1AD81A290106
(1542895159.304663) can0 608#01CD1B72E4DD0006
(1542895159.305146) can0 620#01581EAC15D6FD07
(1542895159.305609) can0 628#0129E69FFFA0FE06
(1542895159.333850) can0 600#01E900C40071FE09
(1542895159.334036) can0 600#066D01
(1542895159.344224) can0 618#01471B7E1A260106
(1542895159.344661) can0 608#01721B83E4F20006
(1542895159.345145) can0 620#015A1EAE16D8FD07
(1542895159.345614) can0 628#0150E68EFFBAFE06
(1542895159.346069) can0 780#BC0EDC34BD10FB36
(1542895159.347438) can0 782#40489A74
(1542895159.373712) can0 600#018A00B20079FE09
(1542895159.374043) can0 600#067B01
(1542895159.375747) can0 780#BC0CF3C9BD117179
(1542895159.378850) can0 782#404896EF
(1542895159.384262) can0 618#01D31BFF1A280106
(1542895159.384842) can0 608#01A61B66E4EE0006
(1542895159.385311) can0 620#01F01E3717D3FD07
(1542895159.385818) can0 628#01C0E587FFA3FE06
(1542895159.405512) can0 780#BC0CF3C9BD117179
(1542895159.408670) can0 782#404895B6
(1542895159.413726) can0 600#016B009C0075FE09
(1542895159.414055) can0 600#068D01
(1542895159.424349) can0 618#01161C3A1B210106
(1542895159.424816) can0 608#01CF1B5EE4E40006
(1542895159.425261) can0 620#013D1F8A17EDFD07
(1542895159.425746) can0 628#0180E575FFA0FE06
(1542895159.453741) can0 600#018200A0007AFE09
(1542895159.453954) can0 600#069A01
(1542895159.464245) can0 618#01CD1B4D1B1E0106
(1542895159.464688) can0 608#01DE1BB1E4E80006
(1542895159.465177) can0 620#01481F3517E1FD07
(1542895159.465648) can0 628#0162E58FFFC6FE06
(1542895159.468153) can0 780#BC2D5FEABD0E5739
(1542895159.471227) can0 782#4048A15F
(1542895159.493778) can0 600#01B800BC0083FE09
(1542895159.493982) can0 600#06A701
(1542895159.495470) can0 780#BC337B32BD0E40E8
(1542895159.497684) can0 782#40489EF1
(1542895159.504274) can0 618#01681B971B230106
(1542895159.504727) can0 608#01461CCBE4E50006
(1542895159.505183) can0 620#01631F8316D2FD07
(1542895159.505674) can0 628#0142E5B8FFB9FE06
(1542895159.525876) can0 780#BC337B32BD0E40E8
(1542895159.528482) can0 782#40489C4F
(1542895159.533776) can0 600#01F100C70075FE09
(1542895159.533983) can0 600#069201
(1542895159.544452) can0 618#01131B801B1F0106
(1542895159.544896) can0 608#01441C0CE5F40006
(1542895159.545366) can0 620#01501F5E16DBFD07
(1542895159.545847) can0 628#0150E5CDFFB7FE06
(1542895159.573815) can0 600#01EA00C30083FE09
(1542895159.574007) can0 600#068201
(1542895159.584403) can0 618#01271BE71B330106
(1542895159.584842) can0 608#01891C0DE5F40006
(1542895159.585317) can0 620#01AD1F4D16C7FD07
(1542895159.585822) can0 628#01DEE4CFFFC3FE06
(1542895159.587317) can0 780#BC1EE850BD104552
(1542895159.589897) can0 782#40488CA1
(1542895159.613856) can0 600#01DC00B80071FE09
(1542895159.614046) can0 600#068A01
(1542895159.618103) can0 780#BC1EE850BD104552
(1542895159.620599) can0 782#40488738
(1542895159.624304) can0 618#01601B021C290106
(1542895159.624749) can0 608#018F1C19E5F20006
(1542895159.625213) can0 620#01EA1FB416E1FD06
(1542895159.625683) can0 628#01B9E4BEFFAEFE06
(1542895159.648774) can0 780#BC12347BBD10159D
(1542895159.651532) can0 782#404882F7
(1542895159.653899) can0 600#01BA00B10070FE09
(1542895159.654093) can0 600#068D01
(1542895159.664302) can0 618#01871B491C260106
(1542895159.664742) can0 608#01B11C28E5F10006
(1542895159.665211) can0 620#013520D716D1FD07
(1542895159.665700) can0 628#016EE4CFFFB1FE06
(1542895159.693856) can0 600#01B300B9007BFE09
(1542895159.693996) can0 600#068601
(1542895159.704480) can0 618#01791B671C200106
(1542895159.704920) can0 608#01D01C31E5D80006
(1542895159.705393) can0 620#015020C716DCFD07
(1542895159.705873) can0 628#0151E4D6FF9CFE06
(1542895159.707828) can0 780#BC1416BCBD0FB2A1
(1542895159.710626) can0 782#4048802F
(1542895159.733849) can0 600#01D100B90072FE09
(1542895159.734035) can0 600#068301
(1542895159.737604) can0 780#BC1416BCBD0FB2A1
(1542895159.740478) can0 782#40487C07
(1542895159.744461) can0 618#01411B751C0A0106
(1542895159.744899) can0 608#01DF1C6AE5DA0006
(1542895159.745340) can0 620#0155208F16E1FD07
(1542895159.745822) can0 628#0153E4C6FFBCFE06
(1542895159.768608) can0 780#BC0EA842BD1045BF
(1542895159.771401) can0 782#404875A1
(1542895159.773856) can0 600#01DB00BA0073FE09
(1542895159.774045) can0 600#068801
(1542895159.784326) can0 618#01261BBD1C150106
(1542895159.784822) can0 608#01291D7EE5DA0006
(1542895159.785244) can0 620#0196205416F3FD07
(1542895159.785722) can0 628#01E4E3C4FFA7FE06
(1542895159.813825) can0 600#01F500BD008AFE09
(1542895159.814149) can0 600#067B01
(1542895159.824189) can0 618#013B1BFB1C030106
(1542895159.824744) can0 608#014D1D9DE5CB0006
(1542895159.825115) can0 620#01E4209316F5FD07
(1542895159.825621) can0 628#01A5E3A5FFA8FE06
(1542895159.826106) can0 780#BBFBC826BD117651
(1542895159.827537) can0 782#40486C90
(1542895159.853857) can0 600#01EB00BC0078FE09
(1542895159.854042) can0 600#067401
(1542895159.855994) can0 780#BBFBC826BD117651
(1542895159.858952) can0 782#4048699E
(1542895159.864499) can0 618#014D1B6A1DFB0006
(1542895159.864925) can0 608#01921DBBE5BA0006
(1542895159.865402) can0 620#014621841604FE07
(1542895159.865876) can0 628#015CE3AAFFBCFE06
(1542895159.888032) can0 780#BBDA3A01BD127068
(1542895159.891128) can0 782#40486223
(1542895159.893877) can0 600#01ED00CC0078FE09
(1542895159.894075) can0 600#067901
(1542895159.904482) can0 618#014E1B6C1DE40006
(1542895159.904914) can0 608#019A1DC5E5A90006
(1542895159.905393) can0 620#015B21A71612FE07
(1542895159.905872) can0 628#013FE3B3FFB2FE06
(1542895159.933927) can0 600#01EE00C10081FE09
(1542895159.934254) can0 600#065F01
(1542895159.944353) can0 618#01781BD51DCD0006
(1542895159.944821) can0 608#01DB1DDEE5970006
(1542895159.945292) can0 620#01C721DC1639FE07
(1542895159.945730) can0 628#01D9E274FFB2FE06
(1542895159.946208) can0 780#BBDA3A01BD127068
(1542895159.947618) can0 782#40485F9F
(1542895159.973979) can0 600#01F100BB007BFE09
(1542895159.974167) can0 600#065101
(1542895159.975843) can0 780#BBBDA6FBBD137586
(1542895159.978850) can0 782#40485854
(1542895159.984376) can0 618#01B71B181E9D0006
(1542895159.984818) can0 608#01F91DFAE58C0006
(1542895159.985291) can0 620#013622501752FE07
(1542895159.985823) can0 628#015CE26DFFBAFE06
(1542895160.005527) can0 780#BBBDA6FBBD137586
(1542895160.008759) can0 782#4048563A
(1542895160.013902) can0 600#01D400C9007AFE09
(1542895160.014091) can0 600#065C01
(1542895160.024502) can0 618#01221C051F8C0006
(1542895160.024945) can0 608#016E1EF7E54F0006
(1542895160.025418) can0 620#01F622501768FE07
(1542895160.025894) can0 628#01C6E185FFBDFE06
(1542895160.053909) can0 600#017600AF0077FE09
(1542895160.054090) can0 600#065C01
(1542895160.064452) can0 618#01761D661F680006
(1542895160.064900) can0 608#015D1EBDE5100006
(1542895160.065369) can0 620#01DE235F1995FE07
(1542895160.065841) can0 628#0136E1AFFFBFFE06
(1542895160.068258) can0 780#BBABAFF2BD13F46C
(1542895160.071279) can0 782#40485037
(1542895160.093903) can0 600#01D8FF95007BFE09
(1542895160.094101) can0 600#068701
(1542895160.095030) can0 780#BC123BE6BD10A9E2
(1542895160.097718) can0 782#40485D5F
(1542895160.104402) can0 618#01AF1E36201E0006
(1542895160.104843) can0 608#01A01E7CE5D5FF06
(1542895160.105320) can0 620#01EF24CC1AEEFE06
(1542895160.105819) can0 628#0150E099FFC6FE06
(1542895160.125953) can0 780#BC123BE6BD10A9E2
(1542895160.128503) can0 782#40485A73
(1542895160.133912) can0 600#0136007E007AFE09
(1542895160.134113) can0 600#06A201
(1542895160.144428) can0 618#01EF1D2C20BFFF06
(1542895160.144900) can0 608#01F81EC7E580FF06
(1542895160.145370) can0 620#01C324C71947FF07
(1542895160.145848) can0 628#015FE0CDFFC0FE06
(1542895160.173930) can0 600#013101B50076FE09
(1542895160.174125) can0 600#069701
(1542895160.184610) can0 618#019C1B581F83FF06
(1542895160.185049) can0 608#010E1F73E64CFF06
(1542895160.185519) can0 620#015823D9166CFF07
(1542895160.185994) can0 628#0148E16400B9FE06
(1542895160.187954) can0 780#BC4554EEBD0BC350
(1542895160.190883) can0 782#40486F64
(1542895160.213958) can0 600#01FD0102017CFE09
(1542895160.214140) can0 600#067401
(1542895160.217906) can0 780#BBC237D6BD138559
(1542895160.220687) can0 782#40484707
(1542895160.224538) can0 618#01F919591E6EFF06
(1542895160.224977) can0 608#01BC1EEAE643FF06
(1542895160.225455) can0 620#01FE2113158AFF06
(1542895160.225947) can0 628#0173E24600B7FE06
(1542895160.248881) can0 780#BBC237D6BD138559
(1542895160.251517) can0 782#404844D8
(1542895160.253987) can0 600#01C401EE0076FE09
(1542895160.254167) can0 600#063601
(1542895160.264439) can0 618#013D1ABA1E80FF06
(1542895160.264922) can0 608#01E01E95E632FF06
(1542895160.265396) can0 620#013522031583FF07
(1542895160.265875) can0 628#0153E2F1FF9AFE06
(1542895160.285354) can0 318#00063300000039
(1542895160.294056) can0 600#010401DA0078FE09
(1542895160.294245) can0 600#061B01
(1542895160.304453) can0 618#01E81A7B1D74FF06
(1542895160.304896) can0 608#01B81D16E630FF06
(1542895160.305270) can0 620#014F2142168AFF07
(1542895160.305770) can0 628#0147E38CFF85FE06
(1542895160.307181) can0 780#BABFEF4ABD1A68BE
(1542895160.309854) can0 782#40482104
(1542895160.333923) can0 600#014D00A00082FE09
(1542895160.334173) can0 600#061E01
(1542895160.337955) can0 780#BABFEF4ABD1A68BE
(1542895160.340530) can0 782#40481F3E
(1542895160.344632) can0 618#01FB1AAD1C6BFF06
(1542895160.345070) can0 608#01291DB7E518FF06
(1542895160.345463) can0 620#0174203B1694FF07
(1542895160.345880) can0 628#012CE44CFF87FE06
(1542895160.368681) can0 780#BB7CEDE1BD170110
(1542895160.371449) can0 782#40482E79
(1542895160.373978) can0 600#013600970087FE09
(1542895160.374192) can0 600#063F01
(1542895160.384581) can0 618#01461AA81B67FF06
(1542895160.385029) can0 608#01951CD4E533FF06
(1542895160.385493) can0 620#01591F74159CFF06
(1542895160.385997) can0 628#0102E57BFF90FE06
(1542895160.414009) can0 600#015400A4007CFE09
(1542895160.414199) can0 600#064F01
(1542895160.424403) can0 618#01EA19AD1B73FF06
(1542895160.424815) can0 608#01BB1CD7E527FF06
(1542895160.425303) can0 620#01311FEB1499FF07
(1542895160.425791) can0 628#0128E5BEFF98FE06
(1542895160.426227) can0 780#BBE63EFEBD137C7A
(1542895160.427567) can0 782#40483E27
(1542895160.453998) can0 600#019C00A50079FE09
(1542895160.454196) can0 600#066201
(1542895160.456076) can0 780#BBE63EFEBD137C7A
(1542895160.459106) can0 782#40483C72
(1542895160.464328) can0 618#01A019CE1B83FF06
(1542895160.464948) can0 608#01E91C14E642FF06
(1542895160.465420) can0 620#01521FA5148CFF07
(1542895160.465921) can0 628#01F2E40A00B0FE06
(1542895160.487895) can0 780#BBFCDBECBD12DE6E
(1542895160.490962) can0 782#40483DF4
(1542895160.494028) can0 600#01A600BC007DFE09
(1542895160.494221) can0 600#065D01
(1542895160.504655) can0 618#019F19DD1B89FF06
(1542895160.505102) can0 608#01EC1C11E650FF06
(1542895160.505578) can0 620#01571F9A146BFF07
(1542895160.506075) can0 628#01EFE4E9FFB7FE06
(1542895160.534029) can0 600#019E00A8007EFE09
(1542895160.534225) can0 600#065301
(1542895160.544632) can0 618#01C8191E1C9BFF06
(1542895160.545072) can0 608#01121D06E663FF06
(1542895160.545549) can0 620#01951FC41461FF07
(1542895160.546003) can0 628#01D1E4D0FFC0FE06
(1542895160.549603) can0 780#BC064AC8BD11B40F
(1542895160.552612) can0 782#40484265
(1542895160.574106) can0 600#018000AE007FFE09
(1542895160.574300) can0 600#065901
(1542895160.575076) can0 780#BC064AC8BD11B40F
(1542895160.578101) can0 782#40484143
(1542895160.584500) can0 618#01F4190F1CAFFF06
(1542895160.584970) can0 608#01F21C0DE677FF06
(1542895160.585442) can0 620#019E1F0A1561FF07
(1542895160.585949) can0 628#01BBE4C6FFC3FE06
(1542895160.608733) can0 780#BC1A3F94BD100767
(1542895160.611979) can0 782#40484873
(1542895160.614127) can0 600#017100AC0075FE09
(1542895160.614321) can0 600#066501
(1542895160.624529) can0 618#010E1A301CB0FF06
(1542895160.624968) can0 608#01111DFCE572FF06
(1542895160.625449) can0 620#01BE1F281552FF07
(1542895160.625921) can0 628#01ACE49AFFB1FE06
(1542895160.654025) can0 600#018A009E0077FE09
(1542895160.654343) can0 600#067201
(1542895160.664704) can0 618#01071A5F1CB4FF06
(1542895160.665143) can0 608#01371D1BE682FF06
(1542895160.665663) can0 620#01F51F22155BFF07
(1542895160.666098) can0 628#0165E4ACFFAEFE06
(1542895160.671662) can0 780#BC2784FDBD0EC1A9
(1542895160.674253) can0 782#40484787
(1542895160.694058) can0 600#019800B40089FE09
(1542895160.694383) can0 600#067401
(1542895160.695227) can0 780#BC2784FDBD0EC1A9
(1542895160.697852) can0 782#40484CD6
(1542895160.704656) can0 618#01051A931CB9FF06
(1542895160.705099) can0 608#015C1D2CE68BFF06
(1542895160.705571) can0 620#0129201B154EFF06
(1542895160.706055) can0 628#0135E4C3FFB0FE06
(1542895160.726043) can0 780#BC2784FDBD0EC1A9
(1542895160.728612) can0 782#40484C10
(1542895160.734079) can0 600#01B000B40078FE09
(1542895160.734277) can0 600#068201
(1542895160.744562) can0 618#01191AD01CC6FF06
(1542895160.745004) can0 608#01841D36E689FF06
(1542895160.745478) can0 620#0164203B1552FF06
(1542895160.745950) can0 628#010DE4BDFFAEFE06
(1542895160.774069) can0 600#01AF00B2007CFE09
(1542895160.774271) can0 600#066C01
(1542895160.784550) can0 618#01381A021DBFFF06
(1542895160.785030) can0 608#019A1D4CE685FF06
(1542895160.785503) can0 620#01A2205A1560FF07
(1542895160.785971) can0 628#01BDE3CDFFB2FE06
(1542895160.788034) can0 780#BC272595BD0F9CEC
(1542895160.790956) can0 782#4048474E
(1542895160.814084) can0 600#01A500B90081FE09
(1542895160.814269) can0 600#067A01
(1542895160.817934) can0 780#BC232F73BD0FC21D
(1542895160.820751) can0 782#404845F0
(1542895160.824733) can0 618#01671A351DBCFF06
(1542895160.825188) can0 608#01BE1D38E683FF06
(1542895160.825656) can0 620#01DD209D1564FF07
(1542895160.826123) can0 628#0192E3AFFFB6FE06
(1542895160.848908) can0 780#BC232F73BD0FC21D
(1542895160.851683) can0 782#40484561
(1542895160.854108) can0 600#01B100AB006DFE09
(1542895160.854296) can0 600#066B01
(1542895160.864711) can0 618#016A1A4C1DB1FF06
(1542895160.865154) can0 608#01CC1D4DE674FF06
(1542895160.865623) can0 620#01FD209C155CFF07
(1542895160.866031) can0 628#0168E3BBFFBFFE06
(1542895160.894063) can0 600#01AE00B60081FE09
(1542895160.894471) can0 600#067001
(1542895160.904606) can0 618#016A1A5A1DAEFF06
(1542895160.904972) can0 608#01DA1D51E66FFF06
(1542895160.905417) can0 620#010D21A31571FF07
(1542895160.905975) can0 628#0167E3CEFFBDFE06
(1542895160.907084) can0 780#BC200EC3BD0F6F7C
(1542895160.909880) can0 782#4048463E
(1542895160.934181) can0 600#01B700B60076FE09
(1542895160.934395) can0 600#066001
(1542895160.938060) can0 780#BC198DE5BD102558
(1542895160.940604) can0 782#40484231
(1542895160.944607) can0 618#014D1A4F1DA7FF06
(1542895160.945051) can0 608#01D61D53E672FF06
(1542895160.945544) can0 620#01EE2082156DFF07
(1542895160.945994) can0 628#019DE3A3FFBEFE06
(1542895160.968735) can0 780#BC198DE5BD102558
(1542895160.971558) can0 782#404841A2
