(1542895439.205841) can0 0CFDD634#01000100FF00F0C3
(1542895439.206645) can0 0CFDD633#01000100FF00F0C3
(1542895439.208801) can0 0CFDD734#0100FFFFFFFFFFFF
(1542895439.209721) can0 0CFDD733#0100FFFFFFFFFFFF
(1542895439.226803) can0 0CFDD634#01000100FF00F0C3
(1542895439.227656) can0 0CFDD633#01000100FF00F0C3
(1542895439.228787) can0 0CFDD734#0100FFFFFFFFFFFF
(1542895439.229700) can0 0CFDD733#0100FFFFFFFFFFFF
(1542895439.235701) can0 628#018B00E5D835001A
(1542895439.246747) can0 0CFDD634#01000100FF00F0C3
(1542895439.247620) can0 0CFDD633#01000100FF00F0C3
(1542895439.248782) can0 0CFDD734#0100FFFFFFFFFFFF
(1542895439.249651) can0 0CFDD733#0100FFFFFFFFFFFF
(1542895439.267702) can0 0CFDD634#01000100FF00F0C3
(1542895439.268575) can0 0CFDD633#01000100FF00F0C3
(1542895439.269750) can0 0CFDD734#0100FFFFFFFFFFFF
(1542895439.270620) can0 0CFDD733#0100FFFFFFFFFFFF
(1542895439.275635) can0 628#018400E2D831001A
(1542895439.287621) can0 0CFDD634#01000100FF00F0C3
(1542895439.288535) can0 0CFDD633#01000100FF00F0C3
(1542895439.289692) can0 0CFDD734#0100FFFFFFFFFFFF
(1542895439.291563) can0 0CFDD733#0100FFFFFFFFFFFF
(1542895439.308657) can0 0CFDD634#01000100FF00F0C3
(1542895439.309530) can0 0CFDD633#01000100FF00F0C3
(1542895439.310662) can0 0CFDD734#0100FFFFFFFFFFFF
(1542895439.311535) can0 0CFDD733#0100FFFFFFFFFFFF
(1542895439.315692) can0 628#018500E5D82B001A
(1542895439.328619) can0 0CFDD634#01000100FF00F0C3
(1542895439.329487) can0 0CFDD633#01000100FF00F0C3
(1542895439.331618) can0 0CFDD734#0100FFFFFFFFFFFF
(1542895439.332494) can0 0CFDD733#0100FFFFFFFFFFFF
(1542895439.349568) can0 0CFDD634#01000100FF00F0C3
(1542895439.350442) can0 0CFDD633#01000100FF00F0C3
(1542895439.351581) can0 0CFDD734#0100FFFFFFFFFFFF
(1542895439.352478) can0 0CFDD733#0100FFFFFFFFFFFF
(1542895439.355701) can0 628#018A00E7D83C001A
(1542895439.369484) can0 0CFDD634#01000100FF00F0C3
(1542895439.370385) can0 0CFDD633#01000100FF00F0C3
(1542895439.371508) can0 0CFDD734#0100FFFFFFFFFFFF
(1542895439.373435) can0 0CFDD733#0100FFFFFFFFFFFF
(1542895439.390481) can0 0CFDD634#01000100FF00F0C3
(1542895439.391392) can0 0CFDD633#01000100FF00F0C3
(1542895439.392529) can0 0CFDD734#0100FFFFFFFFFFFF
(1542895439.393406) can0 0CFDD733#0100FFFFFFFFFFFF
(1542895439.395694) can0 628#018600E2D82F001A
(1542895439.410479) can0 0CFDD634#01000100FF00F0C3
(1542895439.411350) can0 0CFDD633#01000100FF00F0C3
(1542895439.412461) can0 0CFDD734#0100FFFFFFFFFFFF
(1542895439.414363) can0 0CFDD733#0100FFFFFFFFFFFF
(1542895439.431449) can0 0CFDD634#01000100FF00F0C3
(1542895439.432248) can0 0CFDD633#01000100FF00F0C3
(1542895439.433439) can0 0CFDD734#0100FFFFFFFFFFFF
(1542895439.434310) can0 0CFDD733#0100FFFFFFFFFFFF
(1542895439.435709) can0 628#018600E7D837001A
(1542895439.452416) can0 0CFDD634#01000100FF00F0C3
(1542895439.453268) can0 0CFDD633#01000100FF00F0C3
(1542895439.454444) can0 0CFDD734#0100FFFFFFFFFFFF
(1542895439.455316) can0 0CFDD733#0100FFFFFFFFFFFF
(1542895439.472308) can0 0CFDD634#01000100FF00F0C3
(1542895439.473233) can0 0CFDD633#01000100FF00F0C3
(1542895439.475375) can0 0CFDD734#0100FFFFFFFFFFFF
(1542895439.475840) can0 628#018700E3D83E001A
(1542895439.476447) can0 0CFDD733#0100FFFFFFFFFFFF
(1542895439.492317) can0 0CFDD634#01000100FF00F0C3
(1542895439.493238) can0 0CFDD633#01000100FF00F0C3
(1542895439.495373) can0 0CFDD734#0100FFFFFFFFFFFF
(1542895439.496224) can0 0CFDD733#0100FFFFFFFFFFFF
(1542895439.513314) can0 0CFDD634#01000100FF00F0C3
(1542895439.514189) can0 0CFDD633#01000100FF00F0C3
(1542895439.515323) can0 0CFDD734#0100FFFFFFFFFFFF
(1542895439.515765) can0 628#018300E6D839001A
(1542895439.516313) can0 0CFDD733#0100FFFFFFFFFFFF
(1542895439.533281) can0 0CFDD634#01000100FF00F0C3
(1542895439.534152) can0 0CFDD633#01000100FF00F0C3
(1542895439.535275) can0 0CFDD734#0100FFFFFFFFFFFF
(1542895439.537141) can0 0CFDD733#0100FFFFFFFFFFFF
(1542895439.554272) can0 0CFDD634#01000100FF00F0C3
(1542895439.555106) can0 0CFDD633#01000100FF00F0C3
(1542895439.555832) can0 628#018600E6D83C001A
(1542895439.556409) can0 0CFDD734#0100FFFFFFFFFFFF
(1542895439.557196) can0 0CFDD733#0100FFFFFFFFFFFF
(1542895439.575182) can0 0CFDD634#01000100FF00F0C3
(1542895439.576070) can0 0CFDD633#01000100FF00F0C3
(1542895439.577225) can0 0CFDD734#0100FFFFFFFFFFFF
(1542895439.578100) can0 0CFDD733#0100FFFFFFFFFFFF
(1542895439.595154) can0 0CFDD634#01000100FF00F0C3
(1542895439.595795) can0 628#018400E4D82E001A
(1542895439.596324) can0 0CFDD633#01000100FF00F0C3
(1542895439.597196) can0 0CFDD734#0100FFFFFFFFFFFF
(1542895439.598072) can0 0CFDD733#0100FFFFFFFFFFFF
(1542895439.604084) can0 18FECA34#00FF00000000FFFF
(1542895439.615100) can0 0CFDD634#01000100FF00F0C3
(1542895439.616063) can0 0CFDD633#01000100FF00F0C3
(1542895439.618048) can0 0CFDD734#0100FFFFFFFFFFFF
(1542895439.619078) can0 0CFDD733#0100FFFFFFFFFFFF
(1542895439.635762) can0 628#018600E4D82F001A
(1542895439.636331) can0 0CFDD634#01000100FF00F0C3
(1542895439.637076) can0 0CFDD633#01000100FF00F0C3
(1542895439.638095) can0 0CFDD734#0100FFFFFFFFFFFF
(1542895439.639024) can0 0CFDD733#0100FFFFFFFFFFFF
(1542895439.656075) can0 0CFDD634#01000100FF00F0C3
(1542895439.657928) can0 0CFDD633#01000100FF00F0C3
(1542895439.659083) can0 0CFDD734#0100FFFFFFFFFFFF
(1542895439.659980) can0 0CFDD733#0100FFFFFFFFFFFF
(1542895439.675802) can0 628#018600E4D82B001A
(1542895439.677084) can0 0CFDD634#01000100FF00F0C3
(1542895439.677924) can0 0CFDD633#01000100FF00F0C3
(1542895439.680054) can0 0CFDD734#0100FFFFFFFFFFFF
(1542895439.680929) can0 0CFDD733#0100FFFFFFFFFFFF
(1542895439.697978) can0 0CFDD634#01000100FF00F0C3
(1542895439.698911) can0 0CFDD633#01000100FF00F0C3
(1542895439.700052) can0 0CFDD734#0100FFFFFFFFFFFF
(1542895439.700924) can0 0CFDD733#0100FFFFFFFFFFFF
(1542895439.715885) can0 628#018600E4D836001A
(1542895439.717939) can0 0CFDD634#01000100FF00F0C3
(1542895439.719846) can0 0CFDD633#01000100FF00F0C3
(1542895439.720902) can0 0CFDD734#0100FFFFFFFFFFFF
(1542895439.721787) can0 0CFDD733#0100FFFFFFFFFFFF
(1542895439.728849) can0 18FECA33#00FF00000000FFFF
(1542895439.737908) can0 0CFDD634#01000100FF00F0C3
(1542895439.739798) can0 0CFDD633#01000100FF00F0C3
(1542895439.740937) can0 0CFDD734#0100FFFFFFFFFFFF
(1542895439.741812) can0 0CFDD733#0100FFFFFFFFFFFF
(1542895439.755746) can0 628#018600E6D822001A
(1542895439.758888) can0 0CFDD634#01000100FF00F0C3
(1542895439.759792) can0 0CFDD633#01000100FF00F0C3
(1542895439.761886) can0 0CFDD734#0100FFFFFFFFFFFF
(1542895439.762805) can0 0CFDD733#0100FFFFFFFFFFFF
(1542895439.778805) can0 0CFDD634#01000100FF00F0C3
(1542895439.779748) can0 0CFDD633#01000100FF00F0C3
(1542895439.781847) can0 0CFDD734#0100FFFFFFFFFFFF
(1542895439.782762) can0 0CFDD733#0100FFFFFFFFFFFF
(1542895439.795807) can0 628#018800E7D82A001A
(1542895439.799730) can0 0CFDD634#01000100FF00F0C3
(1542895439.800649) can0 0CFDD633#01000100FF00F0C3
(1542895439.801766) can0 0CFDD734#0100FFFFFFFFFFFF
(1542895439.802658) can0 0CFDD733#0100FFFFFFFFFFFF
(1542895439.819726) can0 0CFDD634#01000100FF00F0C3
(1542895439.820681) can0 0CFDD633#01000100FF00F0C3
(1542895439.821746) can0 0CFDD734#0100FFFFFFFFFFFF
(1542895439.823610) can0 0CFDD733#0100FFFFFFFFFFFF
(1542895439.835798) can0 628#018400E3D82F001A
(1542895439.840720) can0 0CFDD634#01000100FF00F0C3
(1542895439.841633) can0 0CFDD633#01000100FF00F0C3
(1542895439.842748) can0 0CFDD734#0100FFFFFFFFFFFF
(1542895439.843606) can0 0CFDD733#0100FFFFFFFFFFFF
(1542895439.860685) can0 0CFDD634#01000100FF00F0C3
(1542895439.861627) can0 0CFDD633#01000100FF00F0C3
(1542895439.862724) can0 0CFDD734#0100FFFFFFFFFFFF
(1542895439.864621) can0 0CFDD733#0100FFFFFFFFFFFF
(1542895439.875910) can0 628#018900E4D843001A
(1542895439.881676) can0 0CFDD634#01000100FF00F0C3
(1542895439.882595) can0 0CFDD633#01000100FF00F0C3
(1542895439.883716) can0 0CFDD734#0100FFFFFFFFFFFF
(1542895439.884595) can0 0CFDD733#0100FFFFFFFFFFFF
(1542895439.901626) can0 0CFDD634#01000100FF00F0C3
(1542895439.902551) can0 0CFDD633#01000100FF00F0C3
(1542895439.903658) can0 0CFDD734#0100FFFFFFFFFFFF
(1542895439.905506) can0 0CFDD733#0100FFFFFFFFFFFF
(1542895439.915855) can0 628#018300E4D835001A
(1542895439.922572) can0 0CFDD634#01000100FF00F0C3
(1542895439.923491) can0 0CFDD633#01000100FF00F0C3
(1542895439.924627) can0 0CFDD734#0100FFFFFFFFFFFF
(1542895439.925511) can0 0CFDD733#0100FFFFFFFFFFFF
(1542895439.942564) can0 0CFDD634#01000100FF00F0C3
(1542895439.943491) can0 0CFDD633#01000100FF00F0C3
(1542895439.944584) can0 0CFDD734#0100FFFFFFFFFFFF
(1542895439.946463) can0 0CFDD733#0100FFFFFFFFFFFF
(1542895439.955886) can0 628#018800E7D83B001A
(1542895439.963511) can0 0CFDD634#01000100FF00F0C3
(1542895439.964453) can0 0CFDD633#01000100FF00F0C3
(1542895439.965548) can0 0CFDD734#0100FFFFFFFFFFFF
(1542895439.966450) can0 0CFDD733#0100FFFFFFFFFFFF
(1542895439.984382) can0 0CFDD634#01000100FF00F0C3
(1542895439.985411) can0 0CFDD633#01000100FF00F0C3
(1542895439.986508) can0 0CFDD734#0100FFFFFFFFFFFF
(1542895439.987408) can0 0CFDD733#0100FFFFFFFFFFFF
(1542895439.995871) can0 628#018700E2D831001A
(1542895440.004418) can0 0CFDD634#01000100FF00F0C3
(1542895440.005364) can0 0CFDD633#01000100FF00F0C3
(1542895440.007413) can0 0CFDD734#0100FFFFFFFFFFFF
(1542895440.008412) can0 0CFDD733#0100FFFFFFFFFFFF
(1542895440.024415) can0 0CFDD634#01000100FF00F0C3
(1542895440.025324) can0 0CFDD633#01000100FF00F0C3
(1542895440.027409) can0 0CFDD734#0100FFFFFFFFFFFF
(1542895440.028371) can0 0CFDD733#0100FFFFFFFFFFFF
(1542895440.035905) can0 628#018600E3D83C001A
(1542895440.045360) can0 0CFDD634#01000100FF00F0C3
(1542895440.046286) can0 0CFDD633#01000100FF00F0C3
(1542895440.047381) can0 0CFDD734#0100FFFFFFFFFFFF
(1542895440.048332) can0 0CFDD733#0100FFFFFFFFFFFF
(1542895440.065320) can0 0CFDD634#01000100FF00F0C3
(1542895440.066285) can0 0CFDD633#01000100FF00F0C3
(1542895440.067381) can0 0CFDD734#0100FFFFFFFFFFFF
(1542895440.068325) can0 0CFDD733#0100FFFFFFFFFFFF
(1542895440.075831) can0 628#018700E9D845001A
(1542895440.086290) can0 0CFDD634#01000100FF00F0C3
(1542895440.087244) can0 0CFDD633#01000100FF00F0C3
(1542895440.088247) can0 0CFDD734#0100FFFFFFFFFFFF
(1542895440.089173) can0 0CFDD733#0100FFFFFFFFFFFF
(1542895440.106196) can0 0CFDD634#01000100FF00F0C3
(1542895440.107130) can0 0CFDD633#01000100FF00F0C3
(1542895440.108275) can0 0CFDD734#0100FFFFFFFFFFFF
(1542895440.110199) can0 0CFDD733#0100FFFFFFFFFFFF
(1542895440.115827) can0 628#019800E1D835001A
(1542895440.127242) can0 0CFDD634#01000100FF00F0C3
(1542895440.128206) can0 0CFDD633#01000100FF00F0C3
(1542895440.129203) can0 0CFDD734#0100FFFFFFFFFFFF
(1542895440.130196) can0 0CFDD733#0100FFFFFFFFFFFF
(1542895440.148205) can0 0CFDD634#01000100FF00F0C3
(1542895440.149143) can0 0CFDD633#01000100FF00F0C3
(1542895440.150233) can0 0CFDD734#0100FFFFFFFFFFFF
(1542895440.151159) can0 0CFDD733#0100FFFFFFFFFFFF
(1542895440.155933) can0 628#012703D4D826001A
(1542895440.168154) can0 0CFDD634#01000100FF00F0C3
(1542895440.169038) can0 0CFDD633#01000100FF00F0C3
(1542895440.171152) can0 0CFDD734#0100FFFFFFFFFFFF
(1542895440.172111) can0 0CFDD733#0100FFFFFFFFFFFF
(1542895440.188102) can0 0CFDD634#01000100FF00F0C3
(1542895440.189065) can0 0CFDD633#01000100FF00F0C3
(1542895440.191117) can0 0CFDD734#0100FFFFFFFFFFFF
(1542895440.192082) can0 0CFDD733#0100FFFFFFFFFFFF
(1542895440.195938) can0 628#01CA0302D956001A
(1542895440.209012) can0 0CFDD634#01000100FF00F0C3
(1542895440.210071) can0 0CFDD633#01000100FF00F0C3
(1542895440.211098) can0 0CFDD734#0100FFFFFFFFFFFF
(1542895440.212075) can0 0CFDD733#0100FFFFFFFFFFFF
(1542895440.229075) can0 0CFDD634#01000100FF00F0C3
(1542895440.230073) can0 0CFDD633#01000100FF00F0C3
(1542895440.231074) can0 0CFDD734#0100FFFFFFFFFFFF
(1542895440.233079) can0 0CFDD733#0100FFFFFFFFFFFF
(1542895440.235935) can0 628#01A402F9D87C001A
(1542895440.250059) can0 0CFDD634#01000100FF00F0C3
(1542895440.250969) can0 0CFDD633#01000100FF00F0C3
(1542895440.252070) can0 0CFDD734#0100FFFFFFFFFFFF
(1542895440.252975) can0 0CFDD733#0100FFFFFFFFFFFF
(1542895440.269972) can0 0CFDD634#01000100FF00F0C3
(1542895440.270873) can0 0CFDD633#01000100FF00F0C3
(1542895440.271978) can0 0CFDD734#0100FFFFFFFFFFFF
(1542895440.273931) can0 0CFDD733#0100FFFFFFFFFFFF
(1542895440.275936) can0 628#01D800C7D87E001A
(1542895440.290950) can0 0CFDD634#01000100FF00F0C3
(1542895440.291892) can0 0CFDD633#01000100FF00F0C3
(1542895440.292986) can0 0CFDD734#0100FFFFFFFFFFFF
(1542895440.293935) can0 0CFDD733#0100FFFFFFFFFFFF
(1542895440.310887) can0 0CFDD634#01000100FF00F0C3
(1542895440.311847) can0 0CFDD633#01000100FF00F0C3
(1542895440.312940) can0 0CFDD734#0100FFFFFFFFFFFF
(1542895440.314847) can0 0CFDD733#0100FFFFFFFFFFFF
(1542895440.316071) can0 628#01C700E2D86E001A
(1542895440.331850) can0 0CFDD634#01000100FF00F0C3
(1542895440.332855) can0 0CFDD633#01000100FF00F0C3
(1542895440.333886) can0 0CFDD734#0100FFFFFFFFFFFF
(1542895440.334836) can0 0CFDD733#0100FFFFFFFFFFFF
(1542895440.351805) can0 0CFDD634#01000100FF00F0C3
(1542895440.352804) can0 0CFDD633#01000100FF00F0C3
(1542895440.353851) can0 0CFDD734#0100FFFFFFFFFFFF
(1542895440.355804) can0 0CFDD733#0100FFFFFFFFFFFF
(1542895440.356279) can0 628#017A0001D984001A
(1542895440.372802) can0 0CFDD634#01000100FF00F0C3
(1542895440.373769) can0 0CFDD633#01000100FF00F0C3
(1542895440.374821) can0 0CFDD734#0100FFFFFFFFFFFF
(1542895440.375780) can0 0CFDD733#0100FFFFFFFFFFFF
(1542895440.393761) can0 0CFDD634#01000100FF00F0C3
(1542895440.394720) can0 0CFDD633#01000100FF00F0C3
(1542895440.395769) can0 0CFDD734#0100FFFFFFFFFFFF
(1542895440.396184) can0 628#01B500C7D87F001A
(1542895440.396786) can0 0CFDD733#0100FFFFFFFFFFFF
(1542895440.413737) can0 0CFDD634#01000100FF00F0C3
(1542895440.414610) can0 0CFDD633#01000100FF00F0C3
(1542895440.416724) can0 0CFDD734#0100FFFFFFFFFFFF
(1542895440.417743) can0 0CFDD733#0100FFFFFFFFFFFF
(1542895440.433676) can0 0CFDD634#01000100FF00F0C3
(1542895440.434659) can0 0CFDD633#01000100FF00F0C3
(1542895440.435982) can0 628#01B900E5D86D001A
(1542895440.436715) can0 0CFDD734#0100FFFFFFFFFFFF
(1542895440.437633) can0 0CFDD733#0100FFFFFFFFFFFF
(1542895440.454588) can0 0CFDD634#01000100FF00F0C3
(1542895440.455635) can0 0CFDD633#01000100FF00F0C3
(1542895440.457665) can0 0CFDD734#0100FFFFFFFFFFFF
(1542895440.458633) can0 0CFDD733#0100FFFFFFFFFFFF
(1542895440.474595) can0 0CFDD634#01000100FF00F0C3
(1542895440.475586) can0 0CFDD633#01000100FF00F0C3
(1542895440.476079) can0 628#018200F8D87A001A
(1542895440.477632) can0 0CFDD734#0100FFFFFFFFFFFF
(1542895440.478597) can0 0CFDD733#0100FFFFFFFFFFFF
(1542895440.495591) can0 0CFDD634#01000100FF00F0C3
(1542895440.496552) can0 0CFDD633#01000100FF00F0C3
(1542895440.497580) can0 0CFDD734#0100FFFFFFFFFFFF
(1542895440.498555) can0 0CFDD733#0100FFFFFFFFFFFF
(1542895440.515547) can0 0CFDD634#01000100FF00F0C3
(1542895440.516070) can0 628#01A200CED882001A
(1542895440.516581) can0 0CFDD633#01000100FF00F0C3
(1542895440.517580) can0 0CFDD734#0100FFFFFFFFFFFF
(1542895440.519514) can0 0CFDD733#0100FFFFFFFFFFFF
(1542895440.536502) can0 0CFDD634#01000100FF00F0C3
(1542895440.537512) can0 0CFDD633#01000100FF00F0C3
(1542895440.538544) can0 0CFDD734#0100FFFFFFFFFFFF
(1542895440.539513) can0 0CFDD733#0100FFFFFFFFFFFF
(1542895440.556069) can0 628#01BE00E5D872001A
(1542895440.556580) can0 0CFDD634#01000100FF00F0C3
(1542895440.557498) can0 0CFDD633#01000100FF00F0C3
(1542895440.558505) can0 0CFDD734#0100FFFFFFFFFFFF
(1542895440.560456) can0 0CFDD733#0100FFFFFFFFFFFF
(1542895440.577419) can0 0CFDD634#01000100FF00F0C3
(1542895440.578413) can0 0CFDD633#01000100FF00F0C3
(1542895440.579427) can0 0CFDD734#0100FFFFFFFFFFFF
(1542895440.580460) can0 0CFDD733#0100FFFFFFFFFFFF
(1542895440.596076) can0 628#01AB00F2D87B001A
(1542895440.597412) can0 0CFDD634#01000100FF00F0C3
(1542895440.598416) can0 0CFDD633#01000100FF00F0C3
(1542895440.600426) can0 0CFDD734#0100FFFFFFFFFFFF
(1542895440.601410) can0 0CFDD733#0100FFFFFFFFFFFF
(1542895440.602464) can0 18FECA34#00FF00000000FFFF
(1542895440.618321) can0 0CFDD634#01000100FF00F0C3
(1542895440.619338) can0 0CFDD633#01000100FF00F0C3
(1542895440.620373) can0 0CFDD734#0100FFFFFFFFFFFF
(1542895440.621377) can0 0CFDD733#0100FFFFFFFFFFFF
(1542895440.636081) can0 628#01A800D4D876001A
(1542895440.638330) can0 0CFDD634#01000100FF00F0C3
(1542895440.639307) can0 0CFDD633#01000100FF00F0C3
(1542895440.640337) can0 0CFDD734#0100FFFFFFFFFFFF
(1542895440.642326) can0 0CFDD733#0100FFFFFFFFFFFF
(1542895440.659256) can0 0CFDD634#01000100FF00F0C3
(1542895440.660292) can0 0CFDD633#01000100FF00F0C3
(1542895440.661327) can0 0CFDD734#0100FFFFFFFFFFFF
(1542895440.662287) can0 0CFDD733#0100FFFFFFFFFFFF
(1542895440.676077) can0 628#01DC00E8D874001A
(1542895440.679222) can0 0CFDD634#01000100FF00F0C3
(1542895440.680250) can0 0CFDD633#01000100FF00F0C3
(1542895440.681280) can0 0CFDD734#0100FFFFFFFFFFFF
(1542895440.683260) can0 0CFDD733#0100FFFFFFFFFFFF
(1542895440.700210) can0 0CFDD634#01000100FF00F0C3
(1542895440.701237) can0 0CFDD633#01000100FF00F0C3
(1542895440.702248) can0 0CFDD734#0100FFFFFFFFFFFF
(1542895440.703230) can0 0CFDD733#0100FFFFFFFFFFFF
(1542895440.716060) can0 628#01B900F1D874001A
(1542895440.721206) can0 0CFDD634#01000100FF00F0C3
(1542895440.722130) can0 0CFDD633#01000100FF00F0C3
(1542895440.723197) can0 0CFDD734#0100FFFFFFFFFFFF
(1542895440.724141) can0 0CFDD733#0100FFFFFFFFFFFF
(1542895440.727205) can0 18FECA33#00FF00000000FFFF
(1542895440.741147) can0 0CFDD634#01000100FF00F0C3
(1542895440.743154) can0 0CFDD633#01000100FF00F0C3
(1542895440.744090) can0 0CFDD734#0100FFFFFFFFFFFF
(1542895440.745184) can0 0CFDD733#0100FFFFFFFFFFFF
(1542895440.756076) can0 628#01A500D7D87B001A
(1542895440.761112) can0 0CFDD634#01000100FF00F0C3
(1542895440.763104) can0 0CFDD633#01000100FF00F0C3
(1542895440.764085) can0 0CFDD734#0100FFFFFFFFFFFF
(1542895440.765120) can0 0CFDD733#0100FFFFFFFFFFFF
(1542895440.782104) can0 0CFDD634#01000100FF00F0C3
(1542895440.783057) can0 0CFDD633#01000100FF00F0C3
(1542895440.785012) can0 0CFDD734#0100FFFFFFFFFFFF
(1542895440.786104) can0 0CFDD733#0100FFFFFFFFFFFF
(1542895440.796074) can0 628#01DA00E9D887001A
(1542895440.803067) can0 0CFDD634#01000100FF00F0C3
(1542895440.804081) can0 0CFDD633#01000100FF00F0C3
(1542895440.805074) can0 0CFDD734#0100FFFFFFFFFFFF
(1542895440.806003) can0 0CFDD733#0100FFFFFFFFFFFF
(1542895440.822994) can0 0CFDD634#01000100FF00F0C3
(1542895440.824067) can0 0CFDD633#01000100FF00F0C3
(1542895440.826080) can0 0CFDD734#0100FFFFFFFFFFFF
(1542895440.827060) can0 0CFDD733#0100FFFFFFFFFFFF
(1542895440.836076) can0 628#01D000F3D874001A
(1542895440.842978) can0 0CFDD634#01000100FF00F0C3
(1542895440.843996) can0 0CFDD633#01000100FF00F0C3
(1542895440.845978) can0 0CFDD734#0100FFFFFFFFFFFF
(1542895440.847977) can0 0CFDD733#0100FFFFFFFFFFFF
(1542895440.863950) can0 0CFDD634#01000100FF00F0C3
(1542895440.864932) can0 0CFDD633#01000100FF00F0C3
(1542895440.865937) can0 0CFDD734#0100FFFFFFFFFFFF
(1542895440.867938) can0 0CFDD733#0100FFFFFFFFFFFF
(1542895440.876061) can0 628#01CF00D4D877001A
(1542895440.883894) can0 0CFDD634#01000100FF00F0C3
(1542895440.884951) can0 0CFDD633#01000100FF00F0C3
(1542895440.885938) can0 0CFDD734#0100FFFFFFFFFFFF
(1542895440.888941) can0 0CFDD733#0100FFFFFFFFFFFF
(1542895440.904858) can0 0CFDD634#01000100FF00F0C3
(1542895440.905867) can0 0CFDD633#01000100FF00F0C3
(1542895440.906896) can0 0CFDD734#0100FFFFFFFFFFFF
(1542895440.908900) can0 0CFDD733#0100FFFFFFFFFFFF
(1542895440.916156) can0 628#01DE00E8D876001A
(1542895440.924809) can0 0CFDD634#01000100FF00F0C3
(1542895440.925850) can0 0CFDD633#01000100FF00F0C3
(1542895440.926855) can0 0CFDD734#0100FFFFFFFFFFFF
(1542895440.929846) can0 0CFDD733#0100FFFFFFFFFFFF
(1542895440.945774) can0 0CFDD634#01000100FF00F0C3
(1542895440.946772) can0 0CFDD633#01000100FF00F0C3
(1542895440.947746) can0 0CFDD734#0100FFFFFFFFFFFF
(1542895440.949801) can0 0CFDD733#0100FFFFFFFFFFFF
(1542895440.956109) can0 628#01D000F1D873001A
(1542895440.965773) can0 0CFDD634#01000100FF00F0C3
(1542895440.966823) can0 0CFDD633#01000100FF00F0C3
(1542895440.967765) can0 0CFDD734#0100FFFFFFFFFFFF
(1542895440.970771) can0 0CFDD733#0100FFFFFFFFFFFF
(1542895440.986706) can0 0CFDD634#01000100FF00F0C3
(1542895440.987652) can0 0CFDD633#01000100FF00F0C3
(1542895440.988729) can0 0CFDD734#0100FFFFFFFFFFFF
(1542895440.990759) can0 0CFDD733#0100FFFFFFFFFFFF
(1542895440.996114) can0 628#01D800D3D880001A
(1542895441.006612) can0 0CFDD634#01000100FF00F0C3
(1542895441.007678) can0 0CFDD633#01000100FF00F0C3
(1542895441.008679) can0 0CFDD734#0100FFFFFFFFFFFF
(1542895441.011695) can0 0CFDD733#0100FFFFFFFFFFFF
(1542895441.027621) can0 0CFDD634#01000100FF00F0C3
(1542895441.028689) can0 0CFDD633#01000100FF00F0C3
(1542895441.029675) can0 0CFDD734#0100FFFFFFFFFFFF
(1542895441.031687) can0 0CFDD733#0100FFFFFFFFFFFF
(1542895441.036124) can0 628#01E500EAD880001A
(1542895441.047592) can0 0CFDD634#01000100FF00F0C3
(1542895441.048626) can0 0CFDD633#01000100FF00F0C3
(1542895441.049638) can0 0CFDD734#0100FFFFFFFFFFFF
(1542895441.052625) can0 0CFDD733#0100FFFFFFFFFFFF
(1542895441.068599) can0 0CFDD634#01000100FF00F0C3
(1542895441.069634) can0 0CFDD633#01000100FF00F0C3
(1542895441.070599) can0 0CFDD734#0100FFFFFFFFFFFF
(1542895441.072625) can0 0CFDD733#0100FFFFFFFFFFFF
(1542895441.076201) can0 628#01EA00F2D87C001A
(1542895441.088516) can0 0CFDD634#01000100FF00F0C3
(1542895441.089592) can0 0CFDD633#01000100FF00F0C3
(1542895441.090586) can0 0CFDD734#0100FFFFFFFFFFFF
(1542895441.093597) can0 0CFDD733#0100FFFFFFFFFFFF
(1542895441.109454) can0 0CFDD634#01000100FF00F0C3
(1542895441.110487) can0 0CFDD633#01000100FF00F0C3
(1542895441.111550) can0 0CFDD734#0100FFFFFFFFFFFF
(1542895441.113540) can0 0CFDD733#0100FFFFFFFFFFFF
(1542895441.116164) can0 628#01E600D3D876001A
(1542895441.129459) can0 0CFDD634#01000100FF00F0C3
(1542895441.130510) can0 0CFDD633#01000100FF00F0C3
(1542895441.131496) can0 0CFDD734#0100FFFFFFFFFFFF
(1542895441.134503) can0 0CFDD733#0100FFFFFFFFFFFF
(1542895441.150421) can0 0CFDD634#01000100FF00F0C3
(1542895441.151467) can0 0CFDD633#01000100FF00F0C3
(1542895441.152457) can0 0CFDD734#0100FFFFFFFFFFFF
(1542895441.154459) can0 0CFDD733#0100FFFFFFFFFFFF
(1542895441.156157) can0 628#01F400EFD87A001A
(1542895441.170371) can0 0CFDD634#01000100FF00F0C3
(1542895441.171430) can0 0CFDD633#01000100FF00F0C3
(1542895441.173415) can0 0CFDD734#0100FFFFFFFFFFFF
(1542895441.174457) can0 0CFDD733#0100FFFFFFFFFFFF
(1542895441.191373) can0 0CFDD634#01000100FF00F0C3
(1542895441.192418) can0 0CFDD633#01000100FF00F0C3
(1542895441.193385) can0 0CFDD734#0100FFFFFFFFFFFF
(1542895441.194418) can0 0CFDD733#0100FFFFFFFFFFFF
(1542895441.196174) can0 628#01F400F2D87B001A
(1542895441.212325) can0 0CFDD634#01000100FF00F0C3
(1542895441.213371) can0 0CFDD633#01000100FF00F0C3
(1542895441.214373) can0 0CFDD734#0100FFFFFFFFFFFF
(1542895441.215372) can0 0CFDD733#0100FFFFFFFFFFFF
(1542895441.232284) can0 0CFDD634#01000100FF00F0C3
(1542895441.233324) can0 0CFDD633#01000100FF00F0C3
(1542895441.235293) can0 0CFDD734#0100FFFFFFFFFFFF
(1542895441.236368) can0 0CFDD733#0100FFFFFFFFFFFF
(1542895441.236834) can0 628#01F500D3D886001A
(1542895441.252238) can0 0CFDD634#01000100FF00F0C3
(1542895441.253291) can0 0CFDD633#01000100FF00F0C3
(1542895441.255175) can0 0CFDD734#0100FFFFFFFFFFFF
(1542895441.256338) can0 0CFDD733#0100FFFFFFFFFFFF
(1542895441.273205) can0 0CFDD634#01000100FF00F0C3
(1542895441.274253) can0 0CFDD633#01000100FF00F0C3
(1542895441.275251) can0 0CFDD734#0100FFFFFFFFFFFF
(1542895441.276150) can0 628#01F500F2D879001A
(1542895441.276773) can0 0CFDD733#0100FFFFFFFFFFFF
(1542895441.293194) can0 0CFDD634#01000100FF00F0C3
(1542895441.294258) can0 0CFDD633#01000100FF00F0C3
(1542895441.295206) can0 0CFDD734#0100FFFFFFFFFFFF
(1542895441.297234) can0 0CFDD733#0100FFFFFFFFFFFF
(1542895441.314158) can0 0CFDD634#01000100FF00F0C3
(1542895441.315156) can0 0CFDD633#01000100FF00F0C3
(1542895441.316164) can0 0CFDD734#0100FFFFFFFFFFFF
(1542895441.316628) can0 628#01FF00E9D881001A
(1542895441.317245) can0 0CFDD733#0100FFFFFFFFFFFF
(1542895441.334120) can0 0CFDD634#01000100FF00F0C3
(1542895441.335187) can0 0CFDD633#01000100FF00F0C3
(1542895441.336120) can0 0CFDD734#0100FFFFFFFFFFFF
(1542895441.338155) can0 0CFDD733#0100FFFFFFFFFFFF
(1542895441.355075) can0 0CFDD634#01000100FF00F0C3
(1542895441.356149) can0 0CFDD633#01000100FF00F0C3
(1542895441.356608) can0 628#01F700D1D873001A
(1542895441.357204) can0 0CFDD734#0100FFFFFFFFFFFF
(1542895441.358173) can0 0CFDD733#0100FFFFFFFFFFFF
(1542895441.375076) can0 0CFDD634#01000100FF00F0C3
(1542895441.376106) can0 0CFDD633#01000100FF00F0C3
(1542895441.377076) can0 0CFDD734#0100FFFFFFFFFFFF
(1542895441.379123) can0 0CFDD733#0100FFFFFFFFFFFF
(1542895441.396082) can0 0CFDD634#01000100FF00F0C3
(1542895441.396381) can0 628#010301F5D87B001A
(1542895441.396990) can0 0CFDD633#01000100FF00F0C3
(1542895441.398083) can0 0CFDD734#0100FFFFFFFFFFFF
(1542895441.399082) can0 0CFDD733#0100FFFFFFFFFFFF
(1542895441.416981) can0 0CFDD634#01000100FF00F0C3
(1542895441.418068) can0 0CFDD633#01000100FF00F0C3
(1542895441.418902) can0 0CFDD734#0100FFFFFFFFFFFF
(1542895441.420044) can0 0CFDD733#0100FFFFFFFFFFFF
(1542895441.436194) can0 628#010B01EFD878001A
(1542895441.436948) can0 0CFDD634#01000100FF00F0C3
(1542895441.438969) can0 0CFDD633#01000100FF00F0C3
(1542895441.439944) can0 0CFDD734#0100FFFFFFFFFFFF
(1542895441.441062) can0 0CFDD733#0100FFFFFFFFFFFF
(1542895441.457903) can0 0CFDD634#01000100FF00F0C3
(1542895441.458928) can0 0CFDD633#01000100FF00F0C3
(1542895441.459940) can0 0CFDD734#0100FFFFFFFFFFFF
(1542895441.460981) can0 0CFDD733#0100FFFFFFFFFFFF
(1542895441.476238) can0 628#012701D7D877001A
(1542895441.477784) can0 0CFDD634#01000100FF00F0C3
(1542895441.479910) can0 0CFDD633#01000100FF00F0C3
(1542895441.480907) can0 0CFDD734#0100FFFFFFFFFFFF
(1542895441.481937) can0 0CFDD733#0100FFFFFFFFFFFF
(1542895441.498779) can0 0CFDD634#01000100FF00F0C3
(1542895441.499901) can0 0CFDD633#01000100FF00F0C3
(1542895441.500870) can0 0CFDD734#0100FFFFFFFFFFFF
(1542895441.501873) can0 0CFDD733#0100FFFFFFFFFFFF
(1542895441.516291) can0 628#011601F2D870001A
(1542895441.518749) can0 0CFDD634#01000100FF00F0C3
(1542895441.519851) can0 0CFDD633#01000100FF00F0C3
(1542895441.521813) can0 0CFDD734#0100FFFFFFFFFFFF
(1542895441.522912) can0 0CFDD733#0100FFFFFFFFFFFF
(1542895441.538721) can0 0CFDD634#01000100FF00F0C3
(1542895441.539812) can0 0CFDD633#01000100FF00F0C3
(1542895441.541694) can0 0CFDD734#0100FFFFFFFFFFFF
(1542895441.542819) can0 0CFDD733#0100FFFFFFFFFFFF
(1542895441.556207) can0 628#010C01E6D881001A
(1542895441.559715) can0 0CFDD634#01000100FF00F0C3
(1542895441.560813) can0 0CFDD633#01000100FF00F0C3
(1542895441.561731) can0 0CFDD734#0100FFFFFFFFFFFF
(1542895441.562827) can0 0CFDD733#0100FFFFFFFFFFFF
(1542895441.579688) can0 0CFDD634#01000100FF00F0C3
(1542895441.580783) can0 0CFDD633#01000100FF00F0C3
(1542895441.581684) can0 0CFDD734#0100FFFFFFFFFFFF
(1542895441.583774) can0 0CFDD733#0100FFFFFFFFFFFF
(1542895441.596285) can0 628#012901DAD877001A
(1542895441.600571) can0 0CFDD634#01000100FF00F0C3
(1542895441.601176) can0 18FECA34#00FF00000000FFFF
(1542895441.601724) can0 0CFDD633#01000100FF00F0C3
(1542895441.602684) can0 0CFDD734#0100FFFFFFFFFFFF
(1542895441.603651) can0 0CFDD733#0100FFFFFFFFFFFF
(1542895441.621605) can0 0CFDD634#01000100FF00F0C3
(1542895441.622680) can0 0CFDD633#01000100FF00F0C3
(1542895441.623651) can0 0CFDD734#0100FFFFFFFFFFFF
(1542895441.624685) can0 0CFDD733#0100FFFFFFFFFFFF
(1542895441.636298) can0 628#012201F1D880001A
(1542895441.641586) can0 0CFDD634#01000100FF00F0C3
(1542895441.642647) can0 0CFDD633#01000100FF00F0C3
(1542895441.644585) can0 0CFDD734#0100FFFFFFFFFFFF
(1542895441.645661) can0 0CFDD733#0100FFFFFFFFFFFF
(1542895441.661562) can0 0CFDD634#01000100FF00F0C3
(1542895441.662637) can0 0CFDD633#01000100FF00F0C3
(1542895441.664569) can0 0CFDD734#0100FFFFFFFFFFFF
(1542895441.665656) can0 0CFDD733#0100FFFFFFFFFFFF
(1542895441.676372) can0 628#011101EAD87E001A
(1542895441.682496) can0 0CFDD634#01000100FF00F0C3
(1542895441.683564) can0 0CFDD633#01000100FF00F0C3
(1542895441.684499) can0 0CFDD734#0100FFFFFFFFFFFF
(1542895441.685635) can0 0CFDD733#0100FFFFFFFFFFFF
(1542895441.702461) can0 0CFDD634#01000100FF00F0C3
(1542895441.703555) can0 0CFDD633#01000100FF00F0C3
(1542895441.704483) can0 0CFDD734#0100FFFFFFFFFFFF
(1542895441.705584) can0 0CFDD733#0100FFFFFFFFFFFF
(1542895441.716283) can0 628#010F01DAD87A001A
(1542895441.723418) can0 0CFDD634#01000100FF00F0C3
(1542895441.724516) can0 0CFDD633#01000100FF00F0C3
(1542895441.725460) can0 0CFDD734#0100FFFFFFFFFFFF
(1542895441.726012) can0 18FECA33#00FF00000000FFFF
(1542895441.726549) can0 0CFDD733#0100FFFFFFFFFFFF
(1542895441.743394) can0 0CFDD634#01000100FF00F0C3
(1542895441.744512) can0 0CFDD633#01000100FF00F0C3
(1542895441.745410) can0 0CFDD734#0100FFFFFFFFFFFF
(1542895441.747513) can0 0CFDD733#0100FFFFFFFFFFFF
(1542895441.756332) can0 628#013E01EDD87B001A
(1542895441.764336) can0 0CFDD634#01000100FF00F0C3
(1542895441.765460) can0 0CFDD633#01000100FF00F0C3
(1542895441.766364) can0 0CFDD734#0100FFFFFFFFFFFF
(1542895441.767461) can0 0CFDD733#0100FFFFFFFFFFFF
(1542895441.784325) can0 0CFDD634#01000100FF00F0C3
(1542895441.785427) can0 0CFDD633#01000100FF00F0C3
(1542895441.786328) can0 0CFDD734#0100FFFFFFFFFFFF
(1542895441.788433) can0 0CFDD733#0100FFFFFFFFFFFF
(1542895441.796374) can0 628#013101E7D878001A
(1542895441.805275) can0 0CFDD634#01000100FF00F0C3
(1542895441.806366) can0 0CFDD633#01000100FF00F0C3
(1542895441.807292) can0 0CFDD734#0100FFFFFFFFFFFF
(1542895441.808430) can0 0CFDD733#0100FFFFFFFFFFFF
(1542895441.825249) can0 0CFDD634#01000100FF00F0C3
(1542895441.826336) can0 0CFDD633#01000100FF00F0C3
(1542895441.827288) can0 0CFDD734#0100FFFFFFFFFFFF
(1542895441.829333) can0 0CFDD733#0100FFFFFFFFFFFF
(1542895441.836414) can0 628#012601DFD88A001A
(1542895441.846206) can0 0CFDD634#01000100FF00F0C3
(1542895441.847336) can0 0CFDD633#01000100FF00F0C3
(1542895441.848241) can0 0CFDD734#0100FFFFFFFFFFFF
(1542895441.849348) can0 0CFDD733#0100FFFFFFFFFFFF
(1542895441.866166) can0 0CFDD634#01000100FF00F0C3
(1542895441.867286) can0 0CFDD633#01000100FF00F0C3
(1542895441.869210) can0 0CFDD734#0100FFFFFFFFFFFF
(1542895441.870284) can0 0CFDD733#0100FFFFFFFFFFFF
(1542895441.876335) can0 628#014001EFD872001A
(1542895441.887124) can0 0CFDD634#01000100FF00F0C3
(1542895441.888239) can0 0CFDD633#01000100FF00F0C3
(1542895441.889113) can0 0CFDD734#0100FFFFFFFFFFFF
(1542895441.890234) can0 0CFDD733#0100FFFFFFFFFFFF
(1542895441.907114) can0 0CFDD634#01000100FF00F0C3
(1542895441.908203) can0 0CFDD633#01000100FF00F0C3
(1542895441.909113) can0 0CFDD734#0100FFFFFFFFFFFF
(1542895441.911210) can0 0CFDD733#0100FFFFFFFFFFFF
(1542895441.916329) can0 628#014A01EBD879001A
(1542895441.928082) can0 0CFDD634#01000100FF00F0C3
(1542895441.929147) can0 0CFDD633#01000100FF00F0C3
(1542895441.930122) can0 0CFDD734#0100FFFFFFFFFFFF
(1542895441.931194) can0 0CFDD733#0100FFFFFFFFFFFF
(1542895441.948079) can0 0CFDD634#01000100FF00F0C3
(1542895441.949152) can0 0CFDD633#01000100FF00F0C3
(1542895441.950079) can0 0CFDD734#0100FFFFFFFFFFFF
(1542895441.952151) can0 0CFDD733#0100FFFFFFFFFFFF
(1542895441.956422) can0 628#013001DFD882001A
(1542895441.968997) can0 0CFDD634#01000100FF00F0C3
(1542895441.970111) can0 0CFDD633#01000100FF00F0C3
(1542895441.971013) can0 0CFDD734#0100FFFFFFFFFFFF
(1542895441.972155) can0 0CFDD733#0100FFFFFFFFFFFF
(1542895441.989991) can0 0CFDD634#01000100FF00F0C3
(1542895441.991096) can0 0CFDD633#01000100FF00F0C3
(1542895441.991977) can0 0CFDD734#0100FFFFFFFFFFFF
(1542895441.993082) can0 0CFDD733#0100FFFFFFFFFFFF
(1542895441.996375) can0 628#013E01F1D885001A
(1542895442.009958) can0 0CFDD634#01000100FF00F0C3
(1542895442.012027) can0 0CFDD633#01000100FF00F0C3
(1542895442.012905) can0 0CFDD734#0100FFFFFFFFFFFF
(1542895442.014013) can0 0CFDD733#0100FFFFFFFFFFFF
(1542895442.030893) can0 0CFDD634#01000100FF00F0C3
(1542895442.032077) can0 0CFDD633#01000100FF00F0C3
(1542895442.032935) can0 0CFDD734#0100FFFFFFFFFFFF
(1542895442.034004) can0 0CFDD733#0100FFFFFFFFFFFF
(1542895442.036379) can0 628#015801E8D87B001A
(1542895442.051862) can0 0CFDD634#01000100FF00F0C3
(1542895442.052996) can0 0CFDD633#01000100FF00F0C3
(1542895442.053899) can0 0CFDD734#0100FFFFFFFFFFFF
(1542895442.054994) can0 0CFDD733#0100FFFFFFFFFFFF
(1542895442.072811) can0 0CFDD634#01000100FF00F0C3
(1542895442.073945) can0 0CFDD633#01000100FF00F0C3
(1542895442.074857) can0 0CFDD734#0100FFFFFFFFFFFF
(1542895442.075952) can0 0CFDD733#0100FFFFFFFFFFFF
(1542895442.076418) can0 628#015001D9D87C001A
(1542895442.092774) can0 0CFDD634#01000100FF00F0C3
(1542895442.093915) can0 0CFDD633#01000100FF00F0C3
(1542895442.095811) can0 0CFDD734#0100FFFFFFFFFFFF
(1542895442.096940) can0 0CFDD733#0100FFFFFFFFFFFF
(1542895442.113733) can0 0CFDD634#01000100FF00F0C3
(1542895442.114893) can0 0CFDD633#01000100FF00F0C3
(1542895442.115773) can0 0CFDD734#0100FFFFFFFFFFFF
(1542895442.116394) can0 628#013B01EED879001A
(1542895442.116992) can0 0CFDD733#0100FFFFFFFFFFFF
(1542895442.133691) can0 0CFDD634#01000100FF00F0C3
(1542895442.135824) can0 0CFDD633#01000100FF00F0C3
(1542895442.136721) can0 0CFDD734#0100FFFFFFFFFFFF
(1542895442.137789) can0 0CFDD733#0100FFFFFFFFFFFF
(1542895442.154603) can0 0CFDD634#01000100FF00F0C3
(1542895442.155804) can0 0CFDD633#01000100FF00F0C3
(1542895442.156415) can0 628#015401E3D878001A
(1542895442.157016) can0 0CFDD734#0100FFFFFFFFFFFF
(1542895442.157826) can0 0CFDD733#0100FFFFFFFFFFFF
(1542895442.174613) can0 0CFDD634#01000100FF00F0C3
(1542895442.175764) can0 0CFDD633#01000100FF00F0C3
(1542895442.177643) can0 0CFDD734#0100FFFFFFFFFFFF
(1542895442.178768) can0 0CFDD733#0100FFFFFFFFFFFF
(1542895442.194582) can0 0CFDD634#01000100FF00F0C3
(1542895442.196414) can0 628#014F01DBD86B001A
(1542895442.196962) can0 0CFDD633#01000100FF00F0C3
(1542895442.197643) can0 0CFDD734#0100FFFFFFFFFFFF
(1542895442.198772) can0 0CFDD733#0100FFFFFFFFFFFF
(1542895442.214581) can0 0CFDD634#01000100FF00F0C3
(1542895442.216653) can0 0CFDD633#01000100FF00F0C3
(1542895442.218488) can0 0CFDD734#0100FFFFFFFFFFFF
(1542895442.219711) can0 0CFDD733#0100FFFFFFFFFFFF
(1542895442.234543) can0 0CFDD634#01000100FF00F0C3
(1542895442.236421) can0 628#014B01F4D866001A
(1542895442.237648) can0 0CFDD633#01000100FF00F0C3
(1542895442.238469) can0 0CFDD734#0100FFFFFFFFFFFF
(1542895442.239676) can0 0CFDD733#0100FFFFFFFFFFFF
(1542895442.255515) can0 0CFDD634#01000100FF00F0C3
(1542895442.258615) can0 0CFDD633#01000100FF00F0C3
(1542895442.259545) can0 0CFDD734#0100FFFFFFFFFFFF
(1542895442.260682) can0 0CFDD733#0100FFFFFFFFFFFF
(1542895442.275473) can0 0CFDD634#01000100FF00F0C3
(1542895442.276506) can0 628#014C01E8D883001A
(1542895442.279595) can0 0CFDD633#01000100FF00F0C3
(1542895442.280460) can0 0CFDD734#0100FFFFFFFFFFFF
(1542895442.281642) can0 0CFDD733#0100FFFFFFFFFFFF
(1542895442.296409) can0 0CFDD634#01000100FF00F0C3
(1542895442.299563) can0 0CFDD633#01000100FF00F0C3
(1542895442.300393) can0 0CFDD734#0100FFFFFFFFFFFF
(1542895442.302549) can0 0CFDD733#0100FFFFFFFFFFFF
(1542895442.316381) can0 0CFDD634#01000100FF00F0C3
(1542895442.316843) can0 628#017A01E0D86B001A
(1542895442.319505) can0 0CFDD633#01000100FF00F0C3
(1542895442.320427) can0 0CFDD734#0100FFFFFFFFFFFF
(1542895442.322544) can0 0CFDD733#0100FFFFFFFFFFFF
(1542895442.337378) can0 0CFDD634#01000100FF00F0C3
(1542895442.339473) can0 0CFDD633#01000100FF00F0C3
(1542895442.341377) can0 0CFDD734#0100FFFFFFFFFFFF
(1542895442.342514) can0 0CFDD733#0100FFFFFFFFFFFF
(1542895442.356443) can0 628#016501F1D87A001A
(1542895442.357333) can0 0CFDD634#01000100FF00F0C3
(1542895442.359463) can0 0CFDD633#01000100FF00F0C3
(1542895442.361331) can0 0CFDD734#0100FFFFFFFFFFFF
(1542895442.362462) can0 0CFDD733#0100FFFFFFFFFFFF
(1542895442.378257) can0 0CFDD634#01000100FF00F0C3
(1542895442.379410) can0 0CFDD633#01000100FF00F0C3
(1542895442.381290) can0 0CFDD734#0100FFFFFFFFFFFF
(1542895442.383432) can0 0CFDD733#0100FFFFFFFFFFFF
(1542895442.396463) can0 628#017701E2D87C001A
(1542895442.398195) can0 0CFDD634#01000100FF00F0C3
(1542895442.399385) can0 0CFDD633#01000100FF00F0C3
(1542895442.401286) can0 0CFDD734#0100FFFFFFFFFFFF
(1542895442.403389) can0 0CFDD733#0100FFFFFFFFFFFF
(1542895442.419241) can0 0CFDD634#01000100FF00F0C3
(1542895442.420385) can0 0CFDD633#01000100FF00F0C3
(1542895442.421234) can0 0CFDD734#0100FFFFFFFFFFFF
(1542895442.423368) can0 0CFDD733#0100FFFFFFFFFFFF
(1542895442.436558) can0 628#017A01E7D86E001A
(1542895442.440080) can0 0CFDD634#01000100FF00F0C3
(1542895442.441335) can0 0CFDD633#01000100FF00F0C3
(1542895442.442210) can0 0CFDD734#0100FFFFFFFFFFFF
(1542895442.443304) can0 0CFDD733#0100FFFFFFFFFFFF
(1542895442.460051) can0 0CFDD634#01000100FF00F0C3
(1542895442.461287) can0 0CFDD633#01000100FF00F0C3
(1542895442.462170) can0 0CFDD734#0100FFFFFFFFFFFF
(1542895442.463330) can0 0CFDD733#0100FFFFFFFFFFFF
(1542895442.476519) can0 628#016301EED87D001A
(1542895442.480054) can0 0CFDD634#01000100FF00F0C3
(1542895442.481286) can0 0CFDD633#01000100FF00F0C3
(1542895442.482118) can0 0CFDD734#0100FFFFFFFFFFFF
(1542895442.484287) can0 0CFDD733#0100FFFFFFFFFFFF
(1542895442.501084) can0 0CFDD634#01000100FF00F0C3
(1542895442.502236) can0 0CFDD633#01000100FF00F0C3
(1542895442.503085) can0 0CFDD734#0100FFFFFFFFFFFF
(1542895442.504250) can0 0CFDD733#0100FFFFFFFFFFFF
(1542895442.516519) can0 628#017701E0D87E001A
(1542895442.521067) can0 0CFDD634#01000100FF00F0C3
(1542895442.522215) can0 0CFDD633#01000100FF00F0C3
(1542895442.523067) can0 0CFDD734#0100FFFFFFFFFFFF
(1542895442.524221) can0 0CFDD733#0100FFFFFFFFFFFF
(1542895442.541995) can0 0CFDD634#01000100FF00F0C3
(1542895442.543164) can0 0CFDD633#01000100FF00F0C3
(1542895442.544076) can0 0CFDD734#0100FFFFFFFFFFFF
(1542895442.545192) can0 0CFDD733#0100FFFFFFFFFFFF
(1542895442.556520) can0 628#017001EAD878001A
(1542895442.561944) can0 0CFDD634#01000100FF00F0C3
(1542895442.563116) can0 0CFDD633#01000100FF00F0C3
(1542895442.564080) can0 0CFDD734#0100FFFFFFFFFFFF
(1542895442.566150) can0 0CFDD733#0100FFFFFFFFFFFF
(1542895442.582900) can0 0CFDD634#01000100FF00F0C3
(1542895442.584084) can0 0CFDD633#01000100FF00F0C3
(1542895442.584981) can0 0CFDD734#0100FFFFFFFFFFFF
(1542895442.586130) can0 0CFDD733#0100FFFFFFFFFFFF
(1542895442.596589) can0 628#017201E7D86D001A
(1542895442.598918) can0 18FECA34#00FF00000000FFFF
(1542895442.602900) can0 0CFDD634#01000100FF00F0C3
(1542895442.604076) can0 0CFDD633#01000100FF00F0C3
(1542895442.604935) can0 0CFDD734#0100FFFFFFFFFFFF
(1542895442.607086) can0 0CFDD733#0100FFFFFFFFFFFF
(1542895442.623857) can0 0CFDD634#01000100FF00F0C3
(1542895442.625080) can0 0CFDD633#01000100FF00F0C3
(1542895442.625896) can0 0CFDD734#0100FFFFFFFFFFFF
(1542895442.627077) can0 0CFDD733#0100FFFFFFFFFFFF
(1542895442.636503) can0 628#018501E5D878001A
(1542895442.643778) can0 0CFDD634#01000100FF00F0C3
(1542895442.644988) can0 0CFDD633#01000100FF00F0C3
(1542895442.645830) can0 0CFDD734#0100FFFFFFFFFFFF
(1542895442.647986) can0 0CFDD733#0100FFFFFFFFFFFF
(1542895442.664767) can0 0CFDD634#01000100FF00F0C3
(1542895442.665948) can0 0CFDD633#01000100FF00F0C3
(1542895442.666813) can0 0CFDD734#0100FFFFFFFFFFFF
(1542895442.667991) can0 0CFDD733#0100FFFFFFFFFFFF
(1542895442.676549) can0 628#018001EBD88E001A
(1542895442.685766) can0 0CFDD634#01000100FF00F0C3
(1542895442.686948) can0 0CFDD633#01000100FF00F0C3
(1542895442.687697) can0 0CFDD734#0100FFFFFFFFFFFF
(1542895442.688947) can0 0CFDD733#0100FFFFFFFFFFFF
(1542895442.705724) can0 0CFDD634#01000100FF00F0C3
(1542895442.706916) can0 0CFDD633#01000100FF00F0C3
(1542895442.708714) can0 0CFDD734#0100FFFFFFFFFFFF
(1542895442.709908) can0 0CFDD733#0100FFFFFFFFFFFF
(1542895442.716588) can0 628#019501E8D87C001A
(1542895442.723902) can0 18FECA33#00FF00000000FFFF
(1542895442.725651) can0 0CFDD634#01000100FF00F0C3
(1542895442.726856) can0 0CFDD633#01000100FF00F0C3
(1542895442.729688) can0 0CFDD734#0100FFFFFFFFFFFF
(1542895442.730864) can0 0CFDD733#0100FFFFFFFFFFFF
(1542895442.746643) can0 0CFDD634#01000100FF00F0C3
(1542895442.747739) can0 0CFDD633#01000100FF00F0C3
(1542895442.749570) can0 0CFDD734#0100FFFFFFFFFFFF
(1542895442.751793) can0 0CFDD733#0100FFFFFFFFFFFF
(1542895442.756542) can0 628#019F01ECD879001A
(1542895442.766591) can0 0CFDD634#01000100FF00F0C3
(1542895442.767790) can0 0CFDD633#01000100FF00F0C3
(1542895442.769589) can0 0CFDD734#0100FFFFFFFFFFFF
(1542895442.771779) can0 0CFDD733#0100FFFFFFFFFFFF
(1542895442.787505) can0 0CFDD634#01000100FF00F0C3
(1542895442.788771) can0 0CFDD633#01000100FF00F0C3
(1542895442.789608) can0 0CFDD734#0100FFFFFFFFFFFF
(1542895442.791770) can0 0CFDD733#0100FFFFFFFFFFFF
(1542895442.796564) can0 628#018701EAD879001A
(1542895442.807546) can0 0CFDD634#01000100FF00F0C3
(1542895442.808725) can0 0CFDD633#01000100FF00F0C3
(1542895442.809564) can0 0CFDD734#0100FFFFFFFFFFFF
(1542895442.812686) can0 0CFDD733#0100FFFFFFFFFFFF
(1542895442.828462) can0 0CFDD634#01000100FF00F0C3
(1542895442.829637) can0 0CFDD633#01000100FF00F0C3
(1542895442.830552) can0 0CFDD734#0100FFFFFFFFFFFF
(1542895442.832689) can0 0CFDD733#0100FFFFFFFFFFFF
(1542895442.836598) can0 628#019701E6D877001A
(1542895442.849484) can0 0CFDD634#01000100FF00F0C3
(1542895442.850642) can0 0CFDD633#01000100FF00F0C3
(1542895442.851503) can0 0CFDD734#0100FFFFFFFFFFFF
(1542895442.852685) can0 0CFDD733#0100FFFFFFFFFFFF
(1542895442.869412) can0 0CFDD634#01000100FF00F0C3
(1542895442.870644) can0 0CFDD633#01000100FF00F0C3
(1542895442.872420) can0 0CFDD734#0100FFFFFFFFFFFF
(1542895442.873647) can0 0CFDD733#0100FFFFFFFFFFFF
(1542895442.876590) can0 628#01A401ECD878001A
(1542895442.889392) can0 0CFDD634#01000100FF00F0C3
(1542895442.890595) can0 0CFDD633#01000100FF00F0C3
(1542895442.892393) can0 0CFDD734#0100FFFFFFFFFFFF
(1542895442.893599) can0 0CFDD733#0100FFFFFFFFFFFF
(1542895442.910332) can0 0CFDD634#01000100FF00F0C3
(1542895442.911560) can0 0CFDD633#01000100FF00F0C3
(1542895442.912417) can0 0CFDD734#0100FFFFFFFFFFFF
(1542895442.913600) can0 0CFDD733#0100FFFFFFFFFFFF
(1542895442.916587) can0 628#01A601E5D877001A
(1542895442.930293) can0 0CFDD634#01000100FF00F0C3
(1542895442.931521) can0 0CFDD633#01000100FF00F0C3
(1542895442.933333) can0 0CFDD734#0100FFFFFFFFFFFF
(1542895442.934519) can0 0CFDD733#0100FFFFFFFFFFFF
(1542895442.951290) can0 0CFDD634#01000100FF00F0C3
(1542895442.952479) can0 0CFDD633#01000100FF00F0C3
(1542895442.953336) can0 0CFDD734#0100FFFFFFFFFFFF
(1542895442.954520) can0 0CFDD733#0100FFFFFFFFFFFF
(1542895442.956590) can0 628#019201E9D880001A
(1542895442.971178) can0 0CFDD634#01000100FF00F0C3
(1542895442.972471) can0 0CFDD633#01000100FF00F0C3
(1542895442.973241) can0 0CFDD734#0100FFFFFFFFFFFF
(1542895442.975435) can0 0CFDD733#0100FFFFFFFFFFFF
(1542895442.992209) can0 0CFDD634#01000100FF00F0C3
(1542895442.993435) can0 0CFDD633#01000100FF00F0C3
(1542895442.994246) can0 0CFDD734#0100FFFFFFFFFFFF
(1542895442.995384) can0 0CFDD733#0100FFFFFFFFFFFF
(1542895442.996600) can0 628#019001EED878001A
(1542895443.012172) can0 0CFDD634#01000100FF00F0C3
(1542895443.013347) can0 0CFDD633#01000100FF00F0C3
(1542895443.015162) can0 0CFDD734#0100FFFFFFFFFFFF
(1542895443.016381) can0 0CFDD733#0100FFFFFFFFFFFF
(1542895443.033130) can0 0CFDD634#01000100FF00F0C3
(1542895443.034333) can0 0CFDD633#01000100FF00F0C3
(1542895443.035167) can0 0CFDD734#0100FFFFFFFFFFFF
(1542895443.036376) can0 0CFDD733#0100FFFFFFFFFFFF
(1542895443.036840) can0 628#01B401E1D864001A
(1542895443.053076) can0 0CFDD634#01000100FF00F0C3
(1542895443.054302) can0 0CFDD633#01000100FF00F0C3
(1542895443.055154) can0 0CFDD734#0100FFFFFFFFFFFF
(1542895443.057279) can0 0CFDD733#0100FFFFFFFFFFFF
(1542895443.074081) can0 0CFDD634#01000100FF00F0C3
(1542895443.075289) can0 0CFDD633#01000100FF00F0C3
(1542895443.076122) can0 0CFDD734#0100FFFFFFFFFFFF
(1542895443.076635) can0 628#01AF01EDD873001A
(1542895443.077340) can0 0CFDD733#0100FFFFFFFFFFFF
(1542895443.094090) can0 0CFDD634#01000100FF00F0C3
(1542895443.095251) can0 0CFDD633#01000100FF00F0C3
(1542895443.096087) can0 0CFDD734#0100FFFFFFFFFFFF
(1542895443.098206) can0 0CFDD733#0100FFFFFFFFFFFF
(1542895443.114989) can0 0CFDD634#01000100FF00F0C3
(1542895443.116191) can0 0CFDD633#01000100FF00F0C3
(1542895443.116670) can0 628#01A401EAD879001A
(1542895443.117247) can0 0CFDD734#0100FFFFFFFFFFFF
(1542895443.118197) can0 0CFDD733#0100FFFFFFFFFFFF
(1542895443.134960) can0 0CFDD634#01000100FF00F0C3
(1542895443.136166) can0 0CFDD633#01000100FF00F0C3
(1542895443.137941) can0 0CFDD734#0100FFFFFFFFFFFF
(1542895443.139207) can0 0CFDD733#0100FFFFFFFFFFFF
(1542895443.155918) can0 0CFDD634#01000100FF00F0C3
(1542895443.156695) can0 628#01B501E6D87B001A
(1542895443.157180) can0 0CFDD633#01000100FF00F0C3
(1542895443.157906) can0 0CFDD734#0100FFFFFFFFFFFF
(1542895443.159164) can0 0CFDD733#0100FFFFFFFFFFFF
(1542895443.175867) can0 0CFDD634#01000100FF00F0C3
(1542895443.177039) can0 0CFDD633#01000100FF00F0C3
(1542895443.178900) can0 0CFDD734#0100FFFFFFFFFFFF
(1542895443.180052) can0 0CFDD733#0100FFFFFFFFFFFF
(1542895443.196679) can0 628#01CF01F0D875001A
(1542895443.197252) can0 0CFDD634#01000100FF00F0C3
(1542895443.198008) can0 0CFDD633#01000100FF00F0C3
(1542895443.198896) can0 0CFDD734#0100FFFFFFFFFFFF
(1542895443.200047) can0 0CFDD733#0100FFFFFFFFFFFF
(1542895443.216809) can0 0CFDD634#01000100FF00F0C3
(1542895443.219067) can0 0CFDD633#01000100FF00F0C3
(1542895443.219839) can0 0CFDD734#0100FFFFFFFFFFFF
(1542895443.221022) can0 0CFDD733#0100FFFFFFFFFFFF
(1542895443.236644) can0 628#01B901E5D87C001A
(1542895443.237734) can0 0CFDD634#01000100FF00F0C3
(1542895443.239003) can0 0CFDD633#01000100FF00F0C3
(1542895443.239849) can0 0CFDD734#0100FFFFFFFFFFFF
(1542895443.241079) can0 0CFDD733#0100FFFFFFFFFFFF
(1542895443.258738) can0 0CFDD634#01000100FF00F0C3
(1542895443.259962) can0 0CFDD633#01000100FF00F0C3
(1542895443.260773) can0 0CFDD734#0100FFFFFFFFFFFF
(1542895443.262002) can0 0CFDD733#0100FFFFFFFFFFFF
(1542895443.276689) can0 628#01BA01EDD883001A
(1542895443.278698) can0 0CFDD634#01000100FF00F0C3
(1542895443.279948) can0 0CFDD633#01000100FF00F0C3
(1542895443.280731) can0 0CFDD734#0100FFFFFFFFFFFF
(1542895443.281959) can0 0CFDD733#0100FFFFFFFFFFFF
(1542895443.298687) can0 0CFDD634#01000100FF00F0C3
(1542895443.299916) can0 0CFDD633#01000100FF00F0C3
(1542895443.301679) can0 0CFDD734#0100FFFFFFFFFFFF
(1542895443.302947) can0 0CFDD733#0100FFFFFFFFFFFF
(1542895443.316727) can0 628#01D401EDD877001A
(1542895443.319653) can0 0CFDD634#01000100FF00F0C3
(1542895443.320859) can0 0CFDD633#01000100FF00F0C3
(1542895443.321669) can0 0CFDD734#0100FFFFFFFFFFFF
(1542895443.322906) can0 0CFDD733#0100FFFFFFFFFFFF
(1542895443.339602) can0 0CFDD634#01000100FF00F0C3
(1542895443.340858) can0 0CFDD633#01000100FF00F0C3
(1542895443.341657) can0 0CFDD734#0100FFFFFFFFFFFF
(1542895443.342864) can0 0CFDD733#0100FFFFFFFFFFFF
(1542895443.356696) can0 628#01D001E5D875001A
(1542895443.360544) can0 0CFDD634#01000100FF00F0C3
(1542895443.361812) can0 0CFDD633#01000100FF00F0C3
(1542895443.362607) can0 0CFDD734#0100FFFFFFFFFFFF
(1542895443.363818) can0 0CFDD733#0100FFFFFFFFFFFF
(1542895443.381526) can0 0CFDD634#01000100FF00F0C3
(1542895443.382773) can0 0CFDD633#01000100FF00F0C3
(1542895443.383568) can0 0CFDD734#0100FFFFFFFFFFFF
(1542895443.384773) can0 0CFDD733#0100FFFFFFFFFFFF
(1542895443.396741) can0 628#01A901F1D877001A
(1542895443.401472) can0 0CFDD634#01000100FF00F0C3
(1542895443.403716) can0 0CFDD633#01000100FF00F0C3
(1542895443.404446) can0 0CFDD734#0100FFFFFFFFFFFF
(1542895443.405681) can0 0CFDD733#0100FFFFFFFFFFFF
(1542895443.421463) can0 0CFDD634#01000100FF00F0C3
(1542895443.423683) can0 0CFDD633#01000100FF00F0C3
(1542895443.424515) can0 0CFDD734#0100FFFFFFFFFFFF
(1542895443.425716) can0 0CFDD733#0100FFFFFFFFFFFF
(1542895443.436720) can0 628#01CE01E7D884001A
(1542895443.442426) can0 0CFDD634#01000100FF00F0C3
(1542895443.443659) can0 0CFDD633#01000100FF00F0C3
(1542895443.445427) can0 0CFDD734#0100FFFFFFFFFFFF
(1542895443.446623) can0 0CFDD733#0100FFFFFFFFFFFF
(1542895443.462381) can0 0CFDD634#01000100FF00F0C3
(1542895443.463659) can0 0CFDD633#01000100FF00F0C3
(1542895443.465384) can0 0CFDD734#0100FFFFFFFFFFFF
(1542895443.466653) can0 0CFDD733#0100FFFFFFFFFFFF
(1542895443.476727) can0 628#01E901E9D868001A
(1542895443.483342) can0 0CFDD634#01000100FF00F0C3
(1542895443.484592) can0 0CFDD633#01000100FF00F0C3
(1542895443.485321) can0 0CFDD734#0100FFFFFFFFFFFF
(1542895443.486634) can0 0CFDD733#0100FFFFFFFFFFFF
(1542895443.503296) can0 0CFDD634#01000100FF00F0C3
(1542895443.504566) can0 0CFDD633#01000100FF00F0C3
(1542895443.505371) can0 0CFDD734#0100FFFFFFFFFFFF
(1542895443.507563) can0 0CFDD733#0100FFFFFFFFFFFF
(1542895443.516766) can0 628#01CA01ECD86F001A
(1542895443.524267) can0 0CFDD634#01000100FF00F0C3
(1542895443.525521) can0 0CFDD633#01000100FF00F0C3
(1542895443.526222) can0 0CFDD734#0100FFFFFFFFFFFF
(1542895443.527562) can0 0CFDD733#0100FFFFFFFFFFFF
(1542895443.544245) can0 0CFDD634#01000100FF00F0C3
(1542895443.545510) can0 0CFDD633#01000100FF00F0C3
(1542895443.546299) can0 0CFDD734#0100FFFFFFFFFFFF
(1542895443.548482) can0 0CFDD733#0100FFFFFFFFFFFF
(1542895443.556775) can0 628#01CB01E2D86E001A
(1542895443.565217) can0 0CFDD634#01000100FF00F0C3
(1542895443.566464) can0 0CFDD633#01000100FF00F0C3
(1542895443.567254) can0 0CFDD734#0100FFFFFFFFFFFF
(1542895443.568476) can0 0CFDD733#0100FFFFFFFFFFFF
(1542895443.585170) can0 0CFDD634#01000100FF00F0C3
(1542895443.586420) can0 0CFDD633#01000100FF00F0C3
(1542895443.587210) can0 0CFDD734#0100FFFFFFFFFFFF
(1542895443.589441) can0 0CFDD733#0100FFFFFFFFFFFF
(1542895443.596774) can0 628#01E301F3D86D001A
(1542895443.597348) can0 18FECA34#00FF00000000FFFF
(1542895443.606131) can0 0CFDD634#01000100FF00F0C3
(1542895443.607373) can0 0CFDD633#01000100FF00F0C3
(1542895443.608172) can0 0CFDD734#0100FFFFFFFFFFFF
(1542895443.609340) can0 0CFDD733#0100FFFFFFFFFFFF
(1542895443.626092) can0 0CFDD634#01000100FF00F0C3
(1542895443.627382) can0 0CFDD633#01000100FF00F0C3
(1542895443.628124) can0 0CFDD734#0100FFFFFFFFFFFF
(1542895443.630373) can0 0CFDD733#0100FFFFFFFFFFFF
(1542895443.636821) can0 628#01DC01EDD874001A
(1542895443.647085) can0 0CFDD634#01000100FF00F0C3
(1542895443.648334) can0 0CFDD633#01000100FF00F0C3
(1542895443.649084) can0 0CFDD734#0100FFFFFFFFFFFF
(1542895443.650335) can0 0CFDD733#0100FFFFFFFFFFFF
(1542895443.668084) can0 0CFDD634#01000100FF00F0C3
(1542895443.669291) can0 0CFDD633#01000100FF00F0C3
(1542895443.670084) can0 0CFDD734#0100FFFFFFFFFFFF
(1542895443.671249) can0 0CFDD733#0100FFFFFFFFFFFF
(1542895443.676818) can0 628#01F501EAD877001A
(1542895443.687996) can0 0CFDD634#01000100FF00F0C3
(1542895443.689249) can0 0CFDD633#01000100FF00F0C3
(1542895443.690092) can0 0CFDD734#0100FFFFFFFFFFFF
(1542895443.691295) can0 0CFDD733#0100FFFFFFFFFFFF
(1542895443.707947) can0 0CFDD634#01000100FF00F0C3
(1542895443.709209) can0 0CFDD633#01000100FF00F0C3
(1542895443.710962) can0 0CFDD734#0100FFFFFFFFFFFF
(1542895443.712247) can0 0CFDD733#0100FFFFFFFFFFFF
(1542895443.716822) can0 628#01E701F2D87D001A
(1542895443.722220) can0 18FECA33#00FF00000000FFFF
(1542895443.728903) can0 0CFDD634#01000100FF00F0C3
(1542895443.730213) can0 0CFDD633#01000100FF00F0C3
(1542895443.730982) can0 0CFDD734#0100FFFFFFFFFFFF
(1542895443.732190) can0 0CFDD733#0100FFFFFFFFFFFF
(1542895443.748908) can0 0CFDD634#01000100FF00F0C3
(1542895443.750174) can0 0CFDD633#01000100FF00F0C3
(1542895443.750945) can0 0CFDD734#0100FFFFFFFFFFFF
(1542895443.752187) can0 0CFDD733#0100FFFFFFFFFFFF
(1542895443.756821) can0 628#01F901E8D86D001A
(1542895443.769862) can0 0CFDD634#01000100FF00F0C3
(1542895443.771119) can0 0CFDD633#01000100FF00F0C3
(1542895443.771911) can0 0CFDD734#0100FFFFFFFFFFFF
(1542895443.773159) can0 0CFDD733#0100FFFFFFFFFFFF
(1542895443.789823) can0 0CFDD634#01000100FF00F0C3
(1542895443.791088) can0 0CFDD633#01000100FF00F0C3
(1542895443.792817) can0 0CFDD734#0100FFFFFFFFFFFF
(1542895443.794085) can0 0CFDD733#0100FFFFFFFFFFFF
(1542895443.796900) can0 628#01F601EBD873001A
(1542895443.810781) can0 0CFDD634#01000100FF00F0C3
(1542895443.812088) can0 0CFDD633#01000100FF00F0C3
(1542895443.812816) can0 0CFDD734#0100FFFFFFFFFFFF
(1542895443.814089) can0 0CFDD733#0100FFFFFFFFFFFF
(1542895443.830720) can0 0CFDD634#01000100FF00F0C3
(1542895443.832087) can0 0CFDD633#01000100FF00F0C3
(1542895443.833769) can0 0CFDD734#0100FFFFFFFFFFFF
(1542895443.835069) can0 0CFDD733#0100FFFFFFFFFFFF
(1542895443.836827) can0 628#01F901F1D87B001A
(1542895443.851692) can0 0CFDD634#01000100FF00F0C3
(1542895443.852999) can0 0CFDD633#01000100FF00F0C3
(1542895443.853728) can0 0CFDD734#0100FFFFFFFFFFFF
(1542895443.854930) can0 0CFDD733#0100FFFFFFFFFFFF
(1542895443.871647) can0 0CFDD634#01000100FF00F0C3
(1542895443.872962) can0 0CFDD633#01000100FF00F0C3
(1542895443.873688) can0 0CFDD734#0100FFFFFFFFFFFF
(1542895443.875962) can0 0CFDD733#0100FFFFFFFFFFFF
(1542895443.876861) can0 628#01EB01E9D87E001A
(1542895443.892604) can0 0CFDD634#01000100FF00F0C3
(1542895443.893864) can0 0CFDD633#01000100FF00F0C3
(1542895443.894616) can0 0CFDD734#0100FFFFFFFFFFFF
(1542895443.895950) can0 0CFDD733#0100FFFFFFFFFFFF
(1542895443.912599) can0 0CFDD634#01000100FF00F0C3
(1542895443.913865) can0 0CFDD633#01000100FF00F0C3
(1542895443.914611) can0 0CFDD734#0100FFFFFFFFFFFF
(1542895443.916908) can0 0CFDD733#0100FFFFFFFFFFFF
(1542895443.917348) can0 628#01F401F1D87C001A
(1542895443.933741) can0 0CFDD634#01000100FF00F0C3
(1542895443.934853) can0 0CFDD633#01000100FF00F0C3
(1542895443.935604) can0 0CFDD734#0100FFFFFFFFFFFF
(1542895443.936863) can0 0CFDD733#0100FFFFFFFFFFFF
(1542895443.954527) can0 0CFDD634#01000100FF00F0C3
(1542895443.955815) can0 0CFDD633#01000100FF00F0C3
(1542895443.956599) can0 0CFDD734#0100FFFFFFFFFFFF
(1542895443.957069) can0 628#01F801EED87D001A
(1542895443.957819) can0 0CFDD733#0100FFFFFFFFFFFF
(1542895443.974469) can0 0CFDD634#01000100FF00F0C3
(1542895443.976771) can0 0CFDD633#01000100FF00F0C3
(1542895443.977521) can0 0CFDD734#0100FFFFFFFFFFFF
(1542895443.978781) can0 0CFDD733#0100FFFFFFFFFFFF
(1542895443.994467) can0 0CFDD634#01000100FF00F0C3
(1542895443.996734) can0 0CFDD633#01000100FF00F0C3
(1542895443.997223) can0 628#010B02F0D867001A
(1542895443.997701) can0 0CFDD734#0100FFFFFFFFFFFF
(1542895443.998781) can0 0CFDD733#0100FFFFFFFFFFFF
(1542895444.015425) can0 0CFDD634#01000100FF00F0C3
(1542895444.016693) can0 0CFDD633#01000100FF00F0C3
(1542895444.018370) can0 0CFDD734#0100FFFFFFFFFFFF
(1542895444.019682) can0 0CFDD733#0100FFFFFFFFFFFF
(1542895444.035376) can0 0CFDD634#01000100FF00F0C3
(1542895444.036703) can0 0CFDD633#01000100FF00F0C3
(1542895444.037134) can0 628#010302EDD87A001A
(1542895444.038355) can0 0CFDD734#0100FFFFFFFFFFFF
(1542895444.039691) can0 0CFDD733#0100FFFFFFFFFFFF
(1542895444.056345) can0 0CFDD634#01000100FF00F0C3
(1542895444.057599) can0 0CFDD633#01000100FF00F0C3
(1542895444.058386) can0 0CFDD734#0100FFFFFFFFFFFF
(1542895444.059655) can0 0CFDD733#0100FFFFFFFFFFFF
(1542895444.076336) can0 0CFDD634#01000100FF00F0C3
(1542895444.076909) can0 628#011902ECD86D001A
(1542895444.077612) can0 0CFDD633#01000100FF00F0C3
(1542895444.078381) can0 0CFDD734#0100FFFFFFFFFFFF
(1542895444.080610) can0 0CFDD733#0100FFFFFFFFFFFF
(1542895444.097295) can0 0CFDD634#01000100FF00F0C3
(1542895444.098592) can0 0CFDD633#01000100FF00F0C3
(1542895444.099339) can0 0CFDD734#0100FFFFFFFFFFFF
(1542895444.100604) can0 0CFDD733#0100FFFFFFFFFFFF
(1542895444.116901) can0 628#011102F0D87C001A
(1542895444.117469) can0 0CFDD634#01000100FF00F0C3
(1542895444.118552) can0 0CFDD633#01000100FF00F0C3
(1542895444.120251) can0 0CFDD734#0100FFFFFFFFFFFF
(1542895444.121569) can0 0CFDD733#0100FFFFFFFFFFFF
(1542895444.138183) can0 0CFDD634#01000100FF00F0C3
(1542895444.139512) can0 0CFDD633#01000100FF00F0C3
(1542895444.140259) can0 0CFDD734#0100FFFFFFFFFFFF
(1542895444.141570) can0 0CFDD733#0100FFFFFFFFFFFF
(1542895444.156910) can0 628#011202F0D880001A
(1542895444.158168) can0 0CFDD634#01000100FF00F0C3
(1542895444.159480) can0 0CFDD633#01000100FF00F0C3
(1542895444.161166) can0 0CFDD734#0100FFFFFFFFFFFF
(1542895444.162479) can0 0CFDD733#0100FFFFFFFFFFFF
(1542895444.179134) can0 0CFDD634#01000100FF00F0C3
(1542895444.180422) can0 0CFDD633#01000100FF00F0C3
(1542895444.181172) can0 0CFDD734#0100FFFFFFFFFFFF
(1542895444.182467) can0 0CFDD733#0100FFFFFFFFFFFF
(1542895444.196907) can0 628#011B02EBD876001A
(1542895444.199090) can0 0CFDD634#01000100FF00F0C3
(1542895444.200423) can0 0CFDD633#01000100FF00F0C3
(1542895444.201125) can0 0CFDD734#0100FFFFFFFFFFFF
(1542895444.203422) can0 0CFDD733#0100FFFFFFFFFFFF
(1542895444.220073) can0 0CFDD634#01000100FF00F0C3
(1542895444.221392) can0 0CFDD633#01000100FF00F0C3
(1542895444.222090) can0 0CFDD734#0100FFFFFFFFFFFF
(1542895444.223375) can0 0CFDD733#0100FFFFFFFFFFFF
(1542895444.236955) can0 628#011502F5D878001A
(1542895444.240054) can0 0CFDD634#01000100FF00F0C3
(1542895444.241386) can0 0CFDD633#01000100FF00F0C3
(1542895444.243091) can0 0CFDD734#0100FFFFFFFFFFFF
(1542895444.244376) can0 0CFDD733#0100FFFFFFFFFFFF
(1542895444.261002) can0 0CFDD634#01000100FF00F0C3
(1542895444.262309) can0 0CFDD633#01000100FF00F0C3
(1542895444.263074) can0 0CFDD734#0100FFFFFFFFFFFF
(1542895444.264307) can0 0CFDD733#0100FFFFFFFFFFFF
(1542895444.276948) can0 628#011B02ECD875001A
(1542895444.280951) can0 0CFDD634#01000100FF00F0C3
(1542895444.282295) can0 0CFDD633#01000100FF00F0C3
(1542895444.283961) can0 0CFDD734#0100FFFFFFFFFFFF
(1542895444.285294) can0 0CFDD733#0100FFFFFFFFFFFF
(1542895444.301907) can0 0CFDD634#01000100FF00F0C3
(1542895444.303258) can0 0CFDD633#01000100FF00F0C3
(1542895444.303942) can0 0CFDD734#0100FFFFFFFFFFFF
(1542895444.305246) can0 0CFDD733#0100FFFFFFFFFFFF
(1542895444.316954) can0 628#012B02F0D869001A
(1542895444.321870) can0 0CFDD634#01000100FF00F0C3
(1542895444.323200) can0 0CFDD633#01000100FF00F0C3
(1542895444.323935) can0 0CFDD734#0100FFFFFFFFFFFF
(1542895444.326196) can0 0CFDD733#0100FFFFFFFFFFFF
(1542895444.342827) can0 0CFDD634#01000100FF00F0C3
(1542895444.344087) can0 0CFDD633#01000100FF00F0C3
(1542895444.344833) can0 0CFDD734#0100FFFFFFFFFFFF
(1542895444.346109) can0 0CFDD733#0100FFFFFFFFFFFF
(1542895444.356959) can0 628#012502EDD86E001A
(1542895444.362821) can0 0CFDD634#01000100FF00F0C3
(1542895444.364078) can0 0CFDD633#01000100FF00F0C3
(1542895444.364810) can0 0CFDD734#0100FFFFFFFFFFFF
(1542895444.367134) can0 0CFDD733#0100FFFFFFFFFFFF
(1542895444.383773) can0 0CFDD634#01000100FF00F0C3
(1542895444.385087) can0 0CFDD633#01000100FF00F0C3
(1542895444.385817) can0 0CFDD734#0100FFFFFFFFFFFF
(1542895444.387124) can0 0CFDD733#0100FFFFFFFFFFFF
(1542895444.397079) can0 628#012102EAD880001A
(1542895444.403738) can0 0CFDD634#01000100FF00F0C3
(1542895444.405071) can0 0CFDD633#01000100FF00F0C3
(1542895444.406730) can0 0CFDD734#0100FFFFFFFFFFFF
(1542895444.408096) can0 0CFDD733#0100FFFFFFFFFFFF
(1542895444.424663) can0 0CFDD634#01000100FF00F0C3
(1542895444.426082) can0 0CFDD633#01000100FF00F0C3
(1542895444.426759) can0 0CFDD734#0100FFFFFFFFFFFF
(1542895444.428087) can0 0CFDD733#0100FFFFFFFFFFFF
(1542895444.436989) can0 628#012C02EFD879001A
(1542895444.444657) can0 0CFDD634#01000100FF00F0C3
(1542895444.445988) can0 0CFDD633#01000100FF00F0C3
(1542895444.446702) can0 0CFDD734#0100FFFFFFFFFFFF
(1542895444.448993) can0 0CFDD733#0100FFFFFFFFFFFF
(1542895444.465633) can0 0CFDD634#01000100FF00F0C3
(1542895444.466996) can0 0CFDD633#01000100FF00F0C3
(1542895444.467695) can0 0CFDD734#0100FFFFFFFFFFFF
(1542895444.469002) can0 0CFDD733#0100FFFFFFFFFFFF
(1542895444.476998) can0 628#012502F1D878001A
(1542895444.486596) can0 0CFDD634#01000100FF00F0C3
(1542895444.487936) can0 0CFDD633#01000100FF00F0C3
(1542895444.488647) can0 0CFDD734#0100FFFFFFFFFFFF
(1542895444.489967) can0 0CFDD733#0100FFFFFFFFFFFF
(1542895444.506559) can0 0CFDD634#01000100FF00F0C3
(1542895444.507919) can0 0CFDD633#01000100FF00F0C3
(1542895444.508622) can0 0CFDD734#0100FFFFFFFFFFFF
(1542895444.509910) can0 0CFDD733#0100FFFFFFFFFFFF
(1542895444.517078) can0 628#012E02F1D86D001A
(1542895444.527514) can0 0CFDD634#01000100FF00F0C3
(1542895444.528869) can0 0CFDD633#01000100FF00F0C3
(1542895444.529571) can0 0CFDD734#0100FFFFFFFFFFFF
(1542895444.530902) can0 0CFDD733#0100FFFFFFFFFFFF
(1542895444.547477) can0 0CFDD634#01000100FF00F0C3
(1542895444.549816) can0 0CFDD633#01000100FF00F0C3
(1542895444.550461) can0 0CFDD734#0100FFFFFFFFFFFF
(1542895444.551822) can0 0CFDD733#0100FFFFFFFFFFFF
(1542895444.557000) can0 628#013902F3D87C001A
(1542895444.567468) can0 0CFDD634#01000100FF00F0C3
(1542895444.569780) can0 0CFDD633#01000100FF00F0C3
(1542895444.570481) can0 0CFDD734#0100FFFFFFFFFFFF
(1542895444.571746) can0 0CFDD733#0100FFFFFFFFFFFF
(1542895444.588386) can0 0CFDD634#01000100FF00F0C3
(1542895444.589781) can0 0CFDD633#01000100FF00F0C3
(1542895444.591447) can0 0CFDD734#0100FFFFFFFFFFFF
(1542895444.592779) can0 0CFDD733#0100FFFFFFFFFFFF
(1542895444.595443) can0 18FECA34#00FF00000000FFFF
(1542895444.597073) can0 628#015402F1D879001A
(1542895444.608400) can0 0CFDD634#01000100FF00F0C3
(1542895444.609731) can0 0CFDD633#01000100FF00F0C3
(1542895444.611398) can0 0CFDD734#0100FFFFFFFFFFFF
(1542895444.612731) can0 0CFDD733#0100FFFFFFFFFFFF
(1542895444.629346) can0 0CFDD634#01000100FF00F0C3
(1542895444.630695) can0 0CFDD633#01000100FF00F0C3
(1542895444.631347) can0 0CFDD734#0100FFFFFFFFFFFF
(1542895444.632731) can0 0CFDD733#0100FFFFFFFFFFFF
(1542895444.637002) can0 628#014B02F3D876001A
(1542895444.650297) can0 0CFDD634#01000100FF00F0C3
(1542895444.651657) can0 0CFDD633#01000100FF00F0C3
(1542895444.652338) can0 0CFDD734#0100FFFFFFFFFFFF
(1542895444.653696) can0 0CFDD733#0100FFFFFFFFFFFF
(1542895444.670236) can0 0CFDD634#01000100FF00F0C3
(1542895444.672612) can0 0CFDD633#01000100FF00F0C3
(1542895444.673301) can0 0CFDD734#0100FFFFFFFFFFFF
(1542895444.674621) can0 0CFDD733#0100FFFFFFFFFFFF
(1542895444.677074) can0 628#014902ECD876001A
(1542895444.690248) can0 0CFDD634#01000100FF00F0C3
(1542895444.692597) can0 0CFDD633#01000100FF00F0C3
(1542895444.694262) can0 0CFDD734#0100FFFFFFFFFFFF
(1542895444.695613) can0 0CFDD733#0100FFFFFFFFFFFF
(1542895444.711178) can0 0CFDD634#01000100FF00F0C3
(1542895444.712556) can0 0CFDD633#01000100FF00F0C3
(1542895444.715216) can0 0CFDD734#0100FFFFFFFFFFFF
(1542895444.716556) can0 0CFDD733#0100FFFFFFFFFFFF
(1542895444.717075) can0 628#014002F1D879001A
(1542895444.720596) can0 18FECA33#00FF00000000FFFF
(1542895444.731172) can0 0CFDD634#01000100FF00F0C3
(1542895444.732511) can0 0CFDD633#01000100FF00F0C3
(1542895444.735173) can0 0CFDD734#0100FFFFFFFFFFFF
(1542895444.736553) can0 0CFDD733#0100FFFFFFFFFFFF
(1542895444.752136) can0 0CFDD634#01000100FF00F0C3
(1542895444.753472) can0 0CFDD633#01000100FF00F0C3
(1542895444.755101) can0 0CFDD734#0100FFFFFFFFFFFF
(1542895444.757083) can0 628#015802F2D886001A
(1542895444.757592) can0 0CFDD733#0100FFFFFFFFFFFF
(1542895444.772044) can0 0CFDD634#01000100FF00F0C3
(1542895444.773476) can0 0CFDD633#01000100FF00F0C3
(1542895444.775135) can0 0CFDD734#0100FFFFFFFFFFFF
(1542895444.777395) can0 0CFDD733#0100FFFFFFFFFFFF
(1542895444.793077) can0 0CFDD634#01000100FF00F0C3
(1542895444.794442) can0 0CFDD633#01000100FF00F0C3
(1542895444.795076) can0 0CFDD734#0100FFFFFFFFFFFF
(1542895444.797079) can0 628#013502EED87A001A
(1542895444.797638) can0 0CFDD733#0100FFFFFFFFFFFF
(1542895444.813005) can0 0CFDD634#01000100FF00F0C3
(1542895444.814388) can0 0CFDD633#01000100FF00F0C3
(1542895444.816095) can0 0CFDD734#0100FFFFFFFFFFFF
(1542895444.817366) can0 0CFDD733#0100FFFFFFFFFFFF
(1542895444.834003) can0 0CFDD634#01000100FF00F0C3
(1542895444.835378) can0 0CFDD633#01000100FF00F0C3
(1542895444.836024) can0 0CFDD734#0100FFFFFFFFFFFF
(1542895444.837079) can0 628#014402F3D886001A
(1542895444.837635) can0 0CFDD733#0100FFFFFFFFFFFF
(1542895444.853960) can0 0CFDD634#01000100FF00F0C3
(1542895444.855307) can0 0CFDD633#01000100FF00F0C3
(1542895444.856894) can0 0CFDD734#0100FFFFFFFFFFFF
(1542895444.858339) can0 0CFDD733#0100FFFFFFFFFFFF
(1542895444.874913) can0 0CFDD634#01000100FF00F0C3
(1542895444.876311) can0 0CFDD633#01000100FF00F0C3
(1542895444.876951) can0 0CFDD734#0100FFFFFFFFFFFF
(1542895444.877334) can0 628#015A02EFD877001A
(1542895444.878304) can0 0CFDD733#0100FFFFFFFFFFFF
(1542895444.895873) can0 0CFDD634#01000100FF00F0C3
(1542895444.897248) can0 0CFDD633#01000100FF00F0C3
(1542895444.897931) can0 0CFDD734#0100FFFFFFFFFFFF
(1542895444.899253) can0 0CFDD733#0100FFFFFFFFFFFF
(1542895444.915827) can0 0CFDD634#01000100FF00F0C3
(1542895444.917075) can0 628#015902F1D87D001A
(1542895444.917685) can0 0CFDD633#01000100FF00F0C3
(1542895444.918253) can0 0CFDD734#0100FFFFFFFFFFFF
(1542895444.919223) can0 0CFDD733#0100FFFFFFFFFFFF
(1542895444.935817) can0 0CFDD634#01000100FF00F0C3
(1542895444.937146) can0 0CFDD633#01000100FF00F0C3
(1542895444.938826) can0 0CFDD734#0100FFFFFFFFFFFF
(1542895444.940225) can0 0CFDD733#0100FFFFFFFFFFFF
(1542895444.956783) can0 0CFDD634#01000100FF00F0C3
(1542895444.957171) can0 628#016C02F2D86E001A
(1542895444.958099) can0 0CFDD633#01000100FF00F0C3
(1542895444.958840) can0 0CFDD734#0100FFFFFFFFFFFF
(1542895444.960171) can0 0CFDD733#0100FFFFFFFFFFFF
(1542895444.976743) can0 0CFDD634#01000100FF00F0C3
(1542895444.979103) can0 0CFDD633#01000100FF00F0C3
(1542895444.979740) can0 0CFDD734#0100FFFFFFFFFFFF
(1542895444.981137) can0 0CFDD733#0100FFFFFFFFFFFF
(1542895444.997137) can0 628#015C02F2D87B001A
(1542895444.997762) can0 0CFDD634#01000100FF00F0C3
(1542895444.999094) can0 0CFDD633#01000100FF00F0C3
(1542895444.999728) can0 0CFDD734#0100FFFFFFFFFFFF
(1542895445.001089) can0 0CFDD733#0100FFFFFFFFFFFF
(1542895445.017651) can0 0CFDD634#01000100FF00F0C3
(1542895445.019096) can0 0CFDD633#01000100FF00F0C3
(1542895445.019693) can0 0CFDD734#0100FFFFFFFFFFFF
(1542895445.022094) can0 0CFDD733#0100FFFFFFFFFFFF
(1542895445.037069) can0 628#015C02F0D87B001A
(1542895445.038642) can0 0CFDD634#01000100FF00F0C3
(1542895445.040072) can0 0CFDD633#01000100FF00F0C3
(1542895445.040637) can0 0CFDD734#0100FFFFFFFFFFFF
(1542895445.042077) can0 0CFDD733#0100FFFFFFFFFFFF
(1542895445.059537) can0 0CFDD634#01000100FF00F0C3
(1542895445.060991) can0 0CFDD633#01000100FF00F0C3
(1542895445.061608) can0 0CFDD734#0100FFFFFFFFFFFF
(1542895445.062992) can0 0CFDD733#0100FFFFFFFFFFFF
(1542895445.077096) can0 628#016502F8D886001A
(1542895445.079554) can0 0CFDD634#01000100FF00F0C3
(1542895445.080955) can0 0CFDD633#01000100FF00F0C3
(1542895445.081598) can0 0CFDD734#0100FFFFFFFFFFFF
(1542895445.082966) can0 0CFDD733#0100FFFFFFFFFFFF
(1542895445.099516) can0 0CFDD634#01000100FF00F0C3
(1542895445.100913) can0 0CFDD633#01000100FF00F0C3
(1542895445.102538) can0 0CFDD734#0100FFFFFFFFFFFF
(1542895445.103913) can0 0CFDD733#0100FFFFFFFFFFFF
(1542895445.117091) can0 628#016B02F4D86F001A
(1542895445.120469) can0 0CFDD634#01000100FF00F0C3
(1542895445.121909) can0 0CFDD633#01000100FF00F0C3
(1542895445.122528) can0 0CFDD734#0100FFFFFFFFFFFF
(1542895445.123910) can0 0CFDD733#0100FFFFFFFFFFFF
(1542895445.140427) can0 0CFDD634#01000100FF00F0C3
(1542895445.141874) can0 0CFDD633#01000100FF00F0C3
(1542895445.143469) can0 0CFDD734#0100FFFFFFFFFFFF
(1542895445.144787) can0 0CFDD733#0100FFFFFFFFFFFF
(1542895445.157171) can0 628#018502F0D871001A
(1542895445.161388) can0 0CFDD634#01000100FF00F0C3
(1542895445.162823) can0 0CFDD633#01000100FF00F0C3
(1542895445.163430) can0 0CFDD734#0100FFFFFFFFFFFF
(1542895445.164828) can0 0CFDD733#0100FFFFFFFFFFFF
(1542895445.181353) can0 0CFDD634#01000100FF00F0C3
(1542895445.182775) can0 0CFDD633#01000100FF00F0C3
(1542895445.184438) can0 0CFDD734#0100FFFFFFFFFFFF
(1542895445.185828) can0 0CFDD733#0100FFFFFFFFFFFF
(1542895445.197084) can0 628#018402F2D86C001A
(1542895445.202341) can0 0CFDD634#01000100FF00F0C3
(1542895445.203741) can0 0CFDD633#01000100FF00F0C3
(1542895445.204401) can0 0CFDD734#0100FFFFFFFFFFFF
(1542895445.205777) can0 0CFDD733#0100FFFFFFFFFFFF
(1542895445.223306) can0 0CFDD634#01000100FF00F0C3
(1542895445.224701) can0 0CFDD633#01000100FF00F0C3
(1542895445.225354) can0 0CFDD734#0100FFFFFFFFFFFF
(1542895445.226733) can0 0CFDD733#0100FFFFFFFFFFFF
(1542895445.237165) can0 628#017D02F4D87A001A
(1542895445.243176) can0 0CFDD634#01000100FF00F0C3
(1542895445.245684) can0 0CFDD633#01000100FF00F0C3
(1542895445.246228) can0 0CFDD734#0100FFFFFFFFFFFF
(1542895445.247687) can0 0CFDD733#0100FFFFFFFFFFFF
(1542895445.263220) can0 0CFDD634#01000100FF00F0C3
(1542895445.265617) can0 0CFDD633#01000100FF00F0C3
(1542895445.267249) can0 0CFDD734#0100FFFFFFFFFFFF
(1542895445.268651) can0 0CFDD733#0100FFFFFFFFFFFF
(1542895445.277130) can0 628#018202F2D877001A
(1542895445.284224) can0 0CFDD634#01000100FF00F0C3
(1542895445.285604) can0 0CFDD633#01000100FF00F0C3
(1542895445.288184) can0 0CFDD734#0100FFFFFFFFFFFF
(1542895445.289615) can0 0CFDD733#0100FFFFFFFFFFFF
(1542895445.305128) can0 0CFDD634#01000100FF00F0C3
(1542895445.306555) can0 0CFDD633#01000100FF00F0C3
(1542895445.308174) can0 0CFDD734#0100FFFFFFFFFFFF
(1542895445.309598) can0 0CFDD733#0100FFFFFFFFFFFF
(1542895445.317232) can0 628#017902F3D872001A
(1542895445.325138) can0 0CFDD634#01000100FF00F0C3
(1542895445.326556) can0 0CFDD633#01000100FF00F0C3
(1542895445.329111) can0 0CFDD734#0100FFFFFFFFFFFF
(1542895445.330560) can0 0CFDD733#0100FFFFFFFFFFFF
(1542895445.345084) can0 0CFDD634#01000100FF00F0C3
(1542895445.346531) can0 0CFDD633#01000100FF00F0C3
(1542895445.349078) can0 0CFDD734#0100FFFFFFFFFFFF
(1542895445.350532) can0 0CFDD733#0100FFFFFFFFFFFF
(1542895445.357139) can0 628#016B02F1D87C001A
(1542895445.366091) can0 0CFDD634#01000100FF00F0C3
(1542895445.367469) can0 0CFDD633#01000100FF00F0C3
(1542895445.369083) can0 0CFDD734#0100FFFFFFFFFFFF
(1542895445.371495) can0 0CFDD733#0100FFFFFFFFFFFF
(1542895445.385968) can0 0CFDD634#01000100FF00F0C3
(1542895445.387390) can0 0CFDD633#01000100FF00F0C3
(1542895445.389052) can0 0CFDD734#0100FFFFFFFFFFFF
(1542895445.391376) can0 0CFDD733#0100FFFFFFFFFFFF
(1542895445.397150) can0 628#018F02F2D871001A
(1542895445.406967) can0 0CFDD634#01000100FF00F0C3
(1542895445.408384) can0 0CFDD633#01000100FF00F0C3
(1542895445.409996) can0 0CFDD734#0100FFFFFFFFFFFF
(1542895445.411425) can0 0CFDD733#0100FFFFFFFFFFFF
(1542895445.426964) can0 0CFDD634#01000100FF00F0C3
(1542895445.428380) can0 0CFDD633#01000100FF00F0C3
(1542895445.429956) can0 0CFDD734#0100FFFFFFFFFFFF
(1542895445.431388) can0 0CFDD733#0100FFFFFFFFFFFF
(1542895445.437189) can0 628#017A02F0D874001A
(1542895445.447881) can0 0CFDD634#01000100FF00F0C3
(1542895445.449349) can0 0CFDD633#01000100FF00F0C3
(1542895445.450925) can0 0CFDD734#0100FFFFFFFFFFFF
(1542895445.452340) can0 0CFDD733#0100FFFFFFFFFFFF
(1542895445.467798) can0 0CFDD634#01000100FF00F0C3
(1542895445.469350) can0 0CFDD633#01000100FF00F0C3
(1542895445.470925) can0 0CFDD734#0100FFFFFFFFFFFF
(1542895445.472341) can0 0CFDD733#0100FFFFFFFFFFFF
(1542895445.477236) can0 628#019702F4D879001A
(1542895445.488826) can0 0CFDD634#01000100FF00F0C3
(1542895445.490255) can0 0CFDD633#01000100FF00F0C3
(1542895445.491829) can0 0CFDD734#0100FFFFFFFFFFFF
(1542895445.493304) can0 0CFDD733#0100FFFFFFFFFFFF
(1542895445.508785) can0 0CFDD634#01000100FF00F0C3
(1542895445.510224) can0 0CFDD633#01000100FF00F0C3
(1542895445.511820) can0 0CFDD734#0100FFFFFFFFFFFF
(1542895445.513262) can0 0CFDD733#0100FFFFFFFFFFFF
(1542895445.517196) can0 628#019702F6D87C001A
(1542895445.529750) can0 0CFDD634#01000100FF00F0C3
(1542895445.531177) can0 0CFDD633#01000100FF00F0C3
(1542895445.532785) can0 0CFDD734#0100FFFFFFFFFFFF
(1542895445.534220) can0 0CFDD733#0100FFFFFFFFFFFF
(1542895445.549748) can0 0CFDD634#01000100FF00F0C3
(1542895445.551165) can0 0CFDD633#01000100FF00F0C3
(1542895445.552698) can0 0CFDD734#0100FFFFFFFFFFFF
(1542895445.554184) can0 0CFDD733#0100FFFFFFFFFFFF
(1542895445.557216) can0 628#01A202F2D875001A
(1542895445.570704) can0 0CFDD634#01000100FF00F0C3
(1542895445.572121) can0 0CFDD633#01000100FF00F0C3
(1542895445.573732) can0 0CFDD734#0100FFFFFFFFFFFF
(1542895445.575139) can0 0CFDD733#0100FFFFFFFFFFFF
(1542895445.590646) can0 0CFDD634#01000100FF00F0C3
(1542895445.592094) can0 0CFDD633#01000100FF00F0C3
(1542895445.593686) can0 0CFDD734#0100FFFFFFFFFFFF
(1542895445.594270) can0 18FECA34#00FF00000000FFFF
(1542895445.595166) can0 0CFDD733#0100FFFFFFFFFFFF
(1542895445.597268) can0 628#01B102F9D873001A
(1542895445.611620) can0 0CFDD634#01000100FF00F0C3
(1542895445.613100) can0 0CFDD633#01000100FF00F0C3
(1542895445.614611) can0 0CFDD734#0100FFFFFFFFFFFF
(1542895445.616093) can0 0CFDD733#0100FFFFFFFFFFFF
(1542895445.631555) can0 0CFDD634#01000100FF00F0C3
(1542895445.633009) can0 0CFDD633#01000100FF00F0C3
(1542895445.634593) can0 0CFDD734#0100FFFFFFFFFFFF
(1542895445.636100) can0 0CFDD733#0100FFFFFFFFFFFF
(1542895445.637195) can0 628#018D02F8D875001A
(1542895445.652537) can0 0CFDD634#01000100FF00F0C3
(1542895445.653998) can0 0CFDD633#01000100FF00F0C3
(1542895445.655557) can0 0CFDD734#0100FFFFFFFFFFFF
(1542895445.656932) can0 0CFDD733#0100FFFFFFFFFFFF
(1542895445.672522) can0 0CFDD634#01000100FF00F0C3
(1542895445.673968) can0 0CFDD633#01000100FF00F0C3
(1542895445.675518) can0 0CFDD734#0100FFFFFFFFFFFF
(1542895445.676882) can0 0CFDD733#0100FFFFFFFFFFFF
(1542895445.677433) can0 628#01A102F0D884001A
(1542895445.693481) can0 0CFDD634#01000100FF00F0C3
(1542895445.694952) can0 0CFDD633#01000100FF00F0C3
(1542895445.696523) can0 0CFDD734#0100FFFFFFFFFFFF
(1542895445.697891) can0 0CFDD733#0100FFFFFFFFFFFF
(1542895445.714428) can0 0CFDD634#01000100FF00F0C3
(1542895445.715917) can0 0CFDD633#01000100FF00F0C3
(1542895445.717306) can0 628#01B002FDD879001A
(1542895445.717902) can0 0CFDD734#0100FFFFFFFFFFFF
(1542895445.718479) can0 0CFDD733#0100FFFFFFFFFFFF
(1542895445.719020) can0 18FECA33#00FF00000000FFFF
(1542895445.734389) can0 0CFDD634#01000100FF00F0C3
(1542895445.735870) can0 0CFDD633#01000100FF00F0C3
(1542895445.738406) can0 0CFDD734#0100FFFFFFFFFFFF
(1542895445.738997) can0 0CFDD733#0100FFFFFFFFFFFF
(1542895445.754322) can0 0CFDD634#01000100FF00F0C3
(1542895445.755831) can0 0CFDD633#01000100FF00F0C3
(1542895445.757389) can0 628#019202F1D879001A
(1542895445.758391) can0 0CFDD734#0100FFFFFFFFFFFF
(1542895445.758977) can0 0CFDD733#0100FFFFFFFFFFFF
(1542895445.775352) can0 0CFDD634#01000100FF00F0C3
(1542895445.776787) can0 0CFDD633#01000100FF00F0C3
(1542895445.779342) can0 0CFDD734#0100FFFFFFFFFFFF
(1542895445.779896) can0 0CFDD733#0100FFFFFFFFFFFF
(1542895445.796306) can0 0CFDD634#01000100FF00F0C3
(1542895445.797322) can0 628#01B802F0D881001A
(1542895445.797861) can0 0CFDD633#01000100FF00F0C3
(1542895445.799310) can0 0CFDD734#0100FFFFFFFFFFFF
(1542895445.800778) can0 0CFDD733#0100FFFFFFFFFFFF
(1542895445.816191) can0 0CFDD634#01000100FF00F0C3
(1542895445.817747) can0 0CFDD633#01000100FF00F0C3
(1542895445.820252) can0 0CFDD734#0100FFFFFFFFFFFF
(1542895445.821744) can0 0CFDD733#0100FFFFFFFFFFFF
(1542895445.836191) can0 0CFDD634#01000100FF00F0C3
(1542895445.837252) can0 628#01AE02FBD874001A
(1542895445.837848) can0 0CFDD633#01000100FF00F0C3
(1542895445.840271) can0 0CFDD734#0100FFFFFFFFFFFF
(1542895445.841732) can0 0CFDD733#0100FFFFFFFFFFFF
(1542895445.857158) can0 0CFDD634#01000100FF00F0C3
(1542895445.858659) can0 0CFDD633#01000100FF00F0C3
(1542895445.860136) can0 0CFDD734#0100FFFFFFFFFFFF
(1542895445.862658) can0 0CFDD733#0100FFFFFFFFFFFF
(1542895445.877094) can0 0CFDD634#01000100FF00F0C3
(1542895445.877622) can0 628#01B002F6D86F001A
(1542895445.878653) can0 0CFDD633#01000100FF00F0C3
(1542895445.880149) can0 0CFDD734#0100FFFFFFFFFFFF
(1542895445.882643) can0 0CFDD733#0100FFFFFFFFFFFF
(1542895445.898096) can0 0CFDD634#01000100FF00F0C3
(1542895445.899598) can0 0CFDD633#01000100FF00F0C3
(1542895445.901130) can0 0CFDD734#0100FFFFFFFFFFFF
(1542895445.902623) can0 0CFDD733#0100FFFFFFFFFFFF
(1542895445.917352) can0 628#01BD02F8D86F001A
(1542895445.918093) can0 0CFDD634#01000100FF00F0C3
(1542895445.919562) can0 0CFDD633#01000100FF00F0C3
(1542895445.921019) can0 0CFDD734#0100FFFFFFFFFFFF
(1542895445.922577) can0 0CFDD733#0100FFFFFFFFFFFF
(1542895445.939058) can0 0CFDD634#01000100FF00F0C3
(1542895445.940516) can0 0CFDD633#01000100FF00F0C3
(1542895445.942085) can0 0CFDD734#0100FFFFFFFFFFFF
(1542895445.943535) can0 0CFDD733#0100FFFFFFFFFFFF
(1542895445.957273) can0 628#019A02F6D885001A
(1542895445.958938) can0 0CFDD634#01000100FF00F0C3
(1542895445.960444) can0 0CFDD633#01000100FF00F0C3
(1542895445.962080) can0 0CFDD734#0100FFFFFFFFFFFF
(1542895445.963491) can0 0CFDD733#0100FFFFFFFFFFFF
(1542895445.979958) can0 0CFDD634#01000100FF00F0C3
(1542895445.981476) can0 0CFDD633#01000100FF00F0C3
(1542895445.983002) can0 0CFDD734#0100FFFFFFFFFFFF
(1542895445.984477) can0 0CFDD733#0100FFFFFFFFFFFF
(1542895445.997358) can0 628#01C702F5D879001A
(1542895445.999952) can0 0CFDD634#01000100FF00F0C3
(1542895446.001440) can0 0CFDD633#01000100FF00F0C3
(1542895446.002994) can0 0CFDD734#0100FFFFFFFFFFFF
(1542895446.004437) can0 0CFDD733#0100FFFFFFFFFFFF
(1542895446.020935) can0 0CFDD634#01000100FF00F0C3
(1542895446.022389) can0 0CFDD633#01000100FF00F0C3
(1542895446.023848) can0 0CFDD734#0100FFFFFFFFFFFF
(1542895446.025390) can0 0CFDD733#0100FFFFFFFFFFFF
(1542895446.037450) can0 628#01D802FAD868001A
(1542895446.040871) can0 0CFDD634#01000100FF00F0C3
(1542895446.042352) can0 0CFDD633#01000100FF00F0C3
(1542895446.043877) can0 0CFDD734#0100FFFFFFFFFFFF
(1542895446.045383) can0 0CFDD733#0100FFFFFFFFFFFF
(1542895446.061832) can0 0CFDD634#01000100FF00F0C3
(1542895446.063313) can0 0CFDD633#01000100FF00F0C3
(1542895446.064868) can0 0CFDD734#0100FFFFFFFFFFFF
(1542895446.066352) can0 0CFDD733#0100FFFFFFFFFFFF
(1542895446.077405) can0 628#01B002F6D877001A
(1542895446.081785) can0 0CFDD634#01000100FF00F0C3
(1542895446.083269) can0 0CFDD633#01000100FF00F0C3
(1542895446.084824) can0 0CFDD734#0100FFFFFFFFFFFF
(1542895446.086311) can0 0CFDD733#0100FFFFFFFFFFFF
(1542895446.102772) can0 0CFDD634#01000100FF00F0C3
(1542895446.104253) can0 0CFDD633#01000100FF00F0C3
(1542895446.105786) can0 0CFDD734#0100FFFFFFFFFFFF
(1542895446.107270) can0 0CFDD733#0100FFFFFFFFFFFF
(1542895446.117391) can0 628#01EF02F9D874001A
(1542895446.123749) can0 0CFDD634#01000100FF00F0C3
(1542895446.125211) can0 0CFDD633#01000100FF00F0C3
(1542895446.126747) can0 0CFDD734#0100FFFFFFFFFFFF
(1542895446.128253) can0 0CFDD733#0100FFFFFFFFFFFF
(1542895446.143702) can0 0CFDD634#01000100FF00F0C3
(1542895446.145184) can0 0CFDD633#01000100FF00F0C3
(1542895446.147688) can0 0CFDD734#0100FFFFFFFFFFFF
(1542895446.149220) can0 0CFDD733#0100FFFFFFFFFFFF
(1542895446.157425) can0 628#01C002F9D86F001A
(1542895446.163654) can0 0CFDD634#01000100FF00F0C3
(1542895446.165140) can0 0CFDD633#01000100FF00F0C3
(1542895446.167647) can0 0CFDD734#0100FFFFFFFFFFFF
(1542895446.169177) can0 0CFDD733#0100FFFFFFFFFFFF
(1542895446.184604) can0 0CFDD634#01000100FF00F0C3
(1542895446.186081) can0 0CFDD633#01000100FF00F0C3
(1542895446.187620) can0 0CFDD734#0100FFFFFFFFFFFF
(1542895446.190100) can0 0CFDD733#0100FFFFFFFFFFFF
(1542895446.197434) can0 628#01D602F6D873001A
(1542895446.204577) can0 0CFDD634#01000100FF00F0C3
(1542895446.206101) can0 0CFDD633#01000100FF00F0C3
(1542895446.207602) can0 0CFDD734#0100FFFFFFFFFFFF
(1542895446.210092) can0 0CFDD733#0100FFFFFFFFFFFF
(1542895446.225509) can0 0CFDD634#01000100FF00F0C3
(1542895446.227078) can0 0CFDD633#01000100FF00F0C3
(1542895446.228557) can0 0CFDD734#0100FFFFFFFFFFFF
(1542895446.230090) can0 0CFDD733#0100FFFFFFFFFFFF
(1542895446.237430) can0 628#01ED02FDD87F001A
(1542895446.245532) can0 0CFDD634#01000100FF00F0C3
(1542895446.246999) can0 0CFDD633#01000100FF00F0C3
(1542895446.248518) can0 0CFDD734#0100FFFFFFFFFFFF
(1542895446.250040) can0 0CFDD733#0100FFFFFFFFFFFF
(1542895446.266489) can0 0CFDD634#01000100FF00F0C3
(1542895446.268000) can0 0CFDD633#01000100FF00F0C3
(1542895446.269473) can0 0CFDD734#0100FFFFFFFFFFFF
(1542895446.271004) can0 0CFDD733#0100FFFFFFFFFFFF
(1542895446.277435) can0 628#01B202F9D877001A
(1542895446.286424) can0 0CFDD634#01000100FF00F0C3
(1542895446.287887) can0 0CFDD633#01000100FF00F0C3
(1542895446.289403) can0 0CFDD734#0100FFFFFFFFFFFF
(1542895446.290954) can0 0CFDD733#0100FFFFFFFFFFFF
(1542895446.307392) can0 0CFDD634#01000100FF00F0C3
(1542895446.308918) can0 0CFDD633#01000100FF00F0C3
(1542895446.310448) can0 0CFDD734#0100FFFFFFFFFFFF
(1542895446.311913) can0 0CFDD733#0100FFFFFFFFFFFF
(1542895446.317442) can0 628#01ED02F6D87B001A
(1542895446.327384) can0 0CFDD634#01000100FF00F0C3
(1542895446.328822) can0 0CFDD633#01000100FF00F0C3
(1542895446.330330) can0 0CFDD734#0100FFFFFFFFFFFF
(1542895446.331815) can0 0CFDD733#0100FFFFFFFFFFFF
(1542895446.348347) can0 0CFDD634#01000100FF00F0C3
(1542895446.349831) can0 0CFDD633#01000100FF00F0C3
(1542895446.351358) can0 0CFDD734#0100FFFFFFFFFFFF
(1542895446.352793) can0 0CFDD733#0100FFFFFFFFFFFF
(1542895446.357532) can0 628#01DA02FCD873001A
(1542895446.368306) can0 0CFDD634#01000100FF00F0C3
(1542895446.369793) can0 0CFDD633#01000100FF00F0C3
(1542895446.371346) can0 0CFDD734#0100FFFFFFFFFFFF
(1542895446.373836) can0 0CFDD733#0100FFFFFFFFFFFF
(1542895446.389256) can0 0CFDD634#01000100FF00F0C3
(1542895446.390785) can0 0CFDD633#01000100FF00F0C3
(1542895446.392314) can0 0CFDD734#0100FFFFFFFFFFFF
(1542895446.393785) can0 0CFDD733#0100FFFFFFFFFFFF
(1542895446.397501) can0 628#01C302F0D87A001A
(1542895446.409226) can0 0CFDD634#01000100FF00F0C3
(1542895446.410750) can0 0CFDD633#01000100FF00F0C3
(1542895446.412191) can0 0CFDD734#0100FFFFFFFFFFFF
(1542895446.413781) can0 0CFDD733#0100FFFFFFFFFFFF
(1542895446.430166) can0 0CFDD634#01000100FF00F0C3
(1542895446.431684) can0 0CFDD633#01000100FF00F0C3
(1542895446.433216) can0 0CFDD734#0100FFFFFFFFFFFF
(1542895446.434657) can0 0CFDD733#0100FFFFFFFFFFFF
(1542895446.437495) can0 628#011C03FCD86D001A
(1542895446.450129) can0 0CFDD634#01000100FF00F0C3
(1542895446.451660) can0 0CFDD633#01000100FF00F0C3
(1542895446.453168) can0 0CFDD734#0100FFFFFFFFFFFF
(1542895446.454673) can0 0CFDD733#0100FFFFFFFFFFFF
(1542895446.471083) can0 0CFDD634#01000100FF00F0C3
(1542895446.472666) can0 0CFDD633#01000100FF00F0C3
(1542895446.474128) can0 0CFDD734#0100FFFFFFFFFFFF
(1542895446.475659) can0 0CFDD733#0100FFFFFFFFFFFF
(1542895446.477475) can0 628#01C802F8D875001A
(1542895446.492085) can0 0CFDD634#01000100FF00F0C3
(1542895446.493622) can0 0CFDD633#01000100FF00F0C3
(1542895446.495032) can0 0CFDD734#0100FFFFFFFFFFFF
(1542895446.496569) can0 0CFDD733#0100FFFFFFFFFFFF
(1542895446.512082) can0 0CFDD634#01000100FF00F0C3
(1542895446.513509) can0 0CFDD633#01000100FF00F0C3
(1542895446.516102) can0 0CFDD734#0100FFFFFFFFFFFF
(1542895446.517600) can0 0CFDD733#0100FFFFFFFFFFFF
(1542895446.518099) can0 628#01FA02FAD87F001A
(1542895446.532997) can0 0CFDD634#01000100FF00F0C3
(1542895446.534531) can0 0CFDD633#01000100FF00F0C3
(1542895446.536103) can0 0CFDD734#0100FFFFFFFFFFFF
(1542895446.537564) can0 0CFDD733#0100FFFFFFFFFFFF
(1542895446.552964) can0 0CFDD634#01000100FF00F0C3
(1542895446.555479) can0 0CFDD633#01000100FF00F0C3
(1542895446.556888) can0 0CFDD734#0100FFFFFFFFFFFF
(1542895446.557472) can0 628#015F01F7D843001A
(1542895446.558521) can0 0CFDD733#0100FFFFFFFFFFFF
(1542895446.572920) can0 0CFDD634#01000100FF00F0C3
(1542895446.575449) can0 0CFDD633#01000100FF00F0C3
(1542895446.576883) can0 0CFDD734#0100FFFFFFFFFFFF
(1542895446.579478) can0 0CFDD733#0100FFFFFFFFFFFF
(1542895446.591880) can0 18FECA34#00FF00000000FFFF
(1542895446.593916) can0 0CFDD634#01000100FF00F0C3
(1542895446.595446) can0 0CFDD633#01000100FF00F0C3
(1542895446.597520) can0 628#01A5FE9DD851001A
(1542895446.598091) can0 0CFDD734#0100FFFFFFFFFFFF
(1542895446.599445) can0 0CFDD733#0100FFFFFFFFFFFF
(1542895446.613861) can0 0CFDD634#01000100FF00F0C3
(1542895446.615393) can0 0CFDD633#01000100FF00F0C3
(1542895446.617872) can0 0CFDD734#0100FFFFFFFFFFFF
(1542895446.619441) can0 0CFDD733#0100FFFFFFFFFFFF
(1542895446.634833) can0 0CFDD634#01000100FF00F0C3
(1542895446.636389) can0 0CFDD633#01000100FF00F0C3
(1542895446.637535) can0 628#015D00BED857001A
(1542895446.638130) can0 0CFDD734#0100FFFFFFFFFFFF
(1542895446.640401) can0 0CFDD733#0100FFFFFFFFFFFF
(1542895446.654782) can0 0CFDD634#01000100FF00F0C3
(1542895446.656358) can0 0CFDD633#01000100FF00F0C3
(1542895446.657826) can0 0CFDD734#0100FFFFFFFFFFFF
(1542895446.660355) can0 0CFDD733#0100FFFFFFFFFFFF
(1542895446.675751) can0 0CFDD634#01000100FF00F0C3
(1542895446.677347) can0 0CFDD633#01000100FF00F0C3
(1542895446.677769) can0 628#01FA021ED92A001A
(1542895446.678793) can0 0CFDD734#0100FFFFFFFFFFFF
(1542895446.680301) can0 0CFDD733#0100FFFFFFFFFFFF
(1542895446.695704) can0 0CFDD634#01000100FF00F0C3
(1542895446.697276) can0 0CFDD633#01000100FF00F0C3
(1542895446.699752) can0 0CFDD734#0100FFFFFFFFFFFF
(1542895446.701261) can0 0CFDD733#0100FFFFFFFFFFFF
(1542895446.716625) can0 0CFDD634#01000100FF00F0C3
(1542895446.717303) can0 18FECA33#00FF00000000FFFF
(1542895446.717775) can0 628#01C702F5D83A001A
(1542895446.718310) can0 0CFDD633#01000100FF00F0C3
(1542895446.719708) can0 0CFDD734#0100FFFFFFFFFFFF
(1542895446.722259) can0 0CFDD733#0100FFFFFFFFFFFF
(1542895446.736661) can0 0CFDD634#01000100FF00F0C3
(1542895446.738235) can0 0CFDD633#01000100FF00F0C3
(1542895446.739661) can0 0CFDD734#0100FFFFFFFFFFFF
(1542895446.742138) can0 0CFDD733#0100FFFFFFFFFFFF
(1542895446.757608) can0 0CFDD634#01000100FF00F0C3
(1542895446.758095) can0 628#01FB02ECD83B001A
(1542895446.759178) can0 0CFDD633#01000100FF00F0C3
(1542895446.760623) can0 0CFDD734#0100FFFFFFFFFFFF
(1542895446.762172) can0 0CFDD733#0100FFFFFFFFFFFF
(1542895446.777577) can0 0CFDD634#01000100FF00F0C3
(1542895446.780094) can0 0CFDD633#01000100FF00F0C3
(1542895446.781604) can0 0CFDD734#0100FFFFFFFFFFFF
(1542895446.783179) can0 0CFDD733#0100FFFFFFFFFFFF
(1542895446.797622) can0 628#01220312D913001A
(1542895446.798566) can0 0CFDD634#01000100FF00F0C3
(1542895446.800058) can0 0CFDD633#01000100FF00F0C3
(1542895446.801570) can0 0CFDD734#0100FFFFFFFFFFFF
(1542895446.804090) can0 0CFDD733#0100FFFFFFFFFFFF
(1542895446.819487) can0 0CFDD634#01000100FF00F0C3
(1542895446.821071) can0 0CFDD633#01000100FF00F0C3
(1542895446.822520) can0 0CFDD734#0100FFFFFFFFFFFF
(1542895446.824100) can0 0CFDD733#0100FFFFFFFFFFFF
(1542895446.837578) can0 628#018802EBD839001A
(1542895446.839476) can0 0CFDD634#01000100FF00F0C3
(1542895446.841092) can0 0CFDD633#01000100FF00F0C3
(1542895446.843495) can0 0CFDD734#0100FFFFFFFFFFFF
(1542895446.845086) can0 0CFDD733#0100FFFFFFFFFFFF
(1542895446.859439) can0 0CFDD634#01000100FF00F0C3
(1542895446.861006) can0 0CFDD633#01000100FF00F0C3
(1542895446.863442) can0 0CFDD734#0100FFFFFFFFFFFF
(1542895446.865017) can0 0CFDD733#0100FFFFFFFFFFFF
(1542895446.877605) can0 628#013003F7D82D001A
(1542895446.880408) can0 0CFDD634#01000100FF00F0C3
(1542895446.881960) can0 0CFDD633#01000100FF00F0C3
(1542895446.883393) can0 0CFDD734#0100FFFFFFFFFFFF
(1542895446.885970) can0 0CFDD733#0100FFFFFFFFFFFF
(1542895446.900351) can0 0CFDD634#01000100FF00F0C3
(1542895446.901923) can0 0CFDD633#01000100FF00F0C3
(1542895446.903386) can0 0CFDD734#0100FFFFFFFFFFFF
(1542895446.905847) can0 0CFDD733#0100FFFFFFFFFFFF
(1542895446.917605) can0 628#01D4020CD935001A
(1542895446.921347) can0 0CFDD634#01000100FF00F0C3
(1542895446.922915) can0 0CFDD633#01000100FF00F0C3
(1542895446.924355) can0 0CFDD734#0100FFFFFFFFFFFF
(1542895446.925885) can0 0CFDD733#0100FFFFFFFFFFFF
(1542895446.942266) can0 0CFDD634#01000100FF00F0C3
(1542895446.943834) can0 0CFDD633#01000100FF00F0C3
(1542895446.945310) can0 0CFDD734#0100FFFFFFFFFFFF
(1542895446.946881) can0 0CFDD733#0100FFFFFFFFFFFF
(1542895446.957646) can0 628#010903EAD830001A
(1542895446.962258) can0 0CFDD634#01000100FF00F0C3
(1542895446.963833) can0 0CFDD633#01000100FF00F0C3
(1542895446.966260) can0 0CFDD734#0100FFFFFFFFFFFF
(1542895446.967788) can0 0CFDD733#0100FFFFFFFFFFFF
(1542895446.982227) can0 0CFDD634#01000100FF00F0C3
(1542895446.983796) can0 0CFDD633#01000100FF00F0C3
(1542895446.986215) can0 0CFDD734#0100FFFFFFFFFFFF
(1542895446.987789) can0 0CFDD733#0100FFFFFFFFFFFF
(1542895446.997625) can0 628#01030305D92E001A
(1542895447.003183) can0 0CFDD634#01000100FF00F0C3
(1542895447.004661) can0 0CFDD633#01000100FF00F0C3
(1542895447.006181) can0 0CFDD734#0100FFFFFFFFFFFF
(1542895447.008786) can0 0CFDD733#0100FFFFFFFFFFFF
(1542895447.023146) can0 0CFDD634#01000100FF00F0C3
(1542895447.024718) can0 0CFDD633#01000100FF00F0C3
(1542895447.026156) can0 0CFDD734#0100FFFFFFFFFFFF
(1542895447.028707) can0 0CFDD733#0100FFFFFFFFFFFF
(1542895447.037625) can0 628#01C70200D93A001A
(1542895447.044102) can0 0CFDD634#01000100FF00F0C3
(1542895447.044707) can0 0CFDD633#01000100FF00F0C3
(1542895447.047127) can0 0CFDD734#0100FFFFFFFFFFFF
(1542895447.048701) can0 0CFDD733#0100FFFFFFFFFFFF
(1542895447.065102) can0 0CFDD634#01000100FF00F0C3
(1542895447.065650) can0 0CFDD633#01000100FF00F0C3
(1542895447.067112) can0 0CFDD734#0100FFFFFFFFFFFF
(1542895447.069668) can0 0CFDD733#0100FFFFFFFFFFFF
(1542895447.077651) can0 628#011D03EBD838001A
(1542895447.085106) can0 0CFDD634#01000100FF00F0C3
(1542895447.085658) can0 0CFDD633#01000100FF00F0C3
(1542895447.088065) can0 0CFDD734#0100FFFFFFFFFFFF
(1542895447.089645) can0 0CFDD733#0100FFFFFFFFFFFF
(1542895447.105005) can0 0CFDD634#01000100FF00F0C3
(1542895447.106606) can0 0CFDD633#01000100FF00F0C3
(1542895447.108085) can0 0CFDD734#0100FFFFFFFFFFFF
(1542895447.109625) can0 0CFDD733#0100FFFFFFFFFFFF
(1542895447.117741) can0 628#01DC0204D928001A
(1542895447.125975) can0 0CFDD634#01000100FF00F0C3
(1542895447.126567) can0 0CFDD633#01000100FF00F0C3
(1542895447.128966) can0 0CFDD734#0100FFFFFFFFFFFF
(1542895447.130569) can0 0CFDD733#0100FFFFFFFFFFFF
(1542895447.145923) can0 0CFDD634#01000100FF00F0C3
(1542895447.146541) can0 0CFDD633#01000100FF00F0C3
(1542895447.148965) can0 0CFDD734#0100FFFFFFFFFFFF
(1542895447.150525) can0 0CFDD733#0100FFFFFFFFFFFF
(1542895447.157610) can0 628#01DB02FCD833001A
(1542895447.166913) can0 0CFDD634#01000100FF00F0C3
(1542895447.167481) can0 0CFDD633#01000100FF00F0C3
(1542895447.168921) can0 0CFDD734#0100FFFFFFFFFFFF
(1542895447.170491) can0 0CFDD733#0100FFFFFFFFFFFF
(1542895447.187802) can0 0CFDD634#01000100FF00F0C3
(1542895447.188442) can0 0CFDD633#01000100FF00F0C3
(1542895447.189887) can0 0CFDD734#0100FFFFFFFFFFFF
(1542895447.191450) can0 0CFDD733#0100FFFFFFFFFFFF
(1542895447.197668) can0 628#011103EFD838001A
(1542895447.207818) can0 0CFDD634#01000100FF00F0C3
(1542895447.209401) can0 0CFDD633#01000100FF00F0C3
(1542895447.210882) can0 0CFDD734#0100FFFFFFFFFFFF
(1542895447.212435) can0 0CFDD733#0100FFFFFFFFFFFF
(1542895447.227751) can0 0CFDD634#01000100FF00F0C3
(1542895447.229401) can0 0CFDD633#01000100FF00F0C3
(1542895447.230786) can0 0CFDD734#0100FFFFFFFFFFFF
(1542895447.232405) can0 0CFDD733#0100FFFFFFFFFFFF
(1542895447.237700) can0 628#01C00203D930001A
(1542895447.248758) can0 0CFDD634#01000100FF00F0C3
(1542895447.249348) can0 0CFDD633#01000100FF00F0C3
(1542895447.251749) can0 0CFDD734#0100FFFFFFFFFFFF
(1542895447.252317) can0 0CFDD733#0100FFFFFFFFFFFF
(1542895447.268703) can0 0CFDD634#01000100FF00F0C3
(1542895447.270317) can0 0CFDD633#01000100FF00F0C3
(1542895447.271731) can0 0CFDD734#0100FFFFFFFFFFFF
(1542895447.273313) can0 0CFDD733#0100FFFFFFFFFFFF
(1542895447.277711) can0 628#01EF02FCD83A001A
(1542895447.289693) can0 0CFDD634#01000100FF00F0C3
(1542895447.290307) can0 0CFDD633#01000100FF00F0C3
(1542895447.292668) can0 0CFDD734#0100FFFFFFFFFFFF
(1542895447.293306) can0 0CFDD733#0100FFFFFFFFFFFF
(1542895447.309598) can0 0CFDD634#01000100FF00F0C3
(1542895447.311182) can0 0CFDD633#01000100FF00F0C3
(1542895447.312613) can0 0CFDD734#0100FFFFFFFFFFFF
(1542895447.313259) can0 0CFDD733#0100FFFFFFFFFFFF
(1542895447.317689) can0 628#012003F3D839001A
(1542895447.330612) can0 0CFDD634#01000100FF00F0C3
(1542895447.331219) can0 0CFDD633#01000100FF00F0C3
(1542895447.333612) can0 0CFDD734#0100FFFFFFFFFFFF
(1542895447.334253) can0 0CFDD733#0100FFFFFFFFFFFF
(1542895447.351564) can0 0CFDD634#01000100FF00F0C3
(1542895447.352161) can0 0CFDD633#01000100FF00F0C3
(1542895447.353607) can0 0CFDD734#0100FFFFFFFFFFFF
(1542895447.354241) can0 0CFDD733#0100FFFFFFFFFFFF
(1542895447.357707) can0 628#01CB020AD925001A
(1542895447.371546) can0 0CFDD634#01000100FF00F0C3
(1542895447.372149) can0 0CFDD633#01000100FF00F0C3
(1542895447.374582) can0 0CFDD734#0100FFFFFFFFFFFF
(1542895447.375183) can0 0CFDD733#0100FFFFFFFFFFFF
(1542895447.391479) can0 0CFDD634#01000100FF00F0C3
(1542895447.393086) can0 0CFDD633#01000100FF00F0C3
(1542895447.394539) can0 0CFDD734#0100FFFFFFFFFFFF
(1542895447.395136) can0 0CFDD733#0100FFFFFFFFFFFF
(1542895447.397760) can0 628#010503F2D82E001A
(1542895447.412444) can0 0CFDD634#01000100FF00F0C3
(1542895447.413103) can0 0CFDD633#01000100FF00F0C3
(1542895447.415478) can0 0CFDD734#0100FFFFFFFFFFFF
(1542895447.416144) can0 0CFDD733#0100FFFFFFFFFFFF
(1542895447.432434) can0 0CFDD634#01000100FF00F0C3
(1542895447.434086) can0 0CFDD633#01000100FF00F0C3
(1542895447.435449) can0 0CFDD734#0100FFFFFFFFFFFF
(1542895447.436083) can0 0CFDD733#0100FFFFFFFFFFFF
(1542895447.437738) can0 628#01D902F6D839001A
(1542895447.453370) can0 0CFDD634#01000100FF00F0C3
(1542895447.454036) can0 0CFDD633#01000100FF00F0C3
(1542895447.456360) can0 0CFDD734#0100FFFFFFFFFFFF
(1542895447.457036) can0 0CFDD733#0100FFFFFFFFFFFF
(1542895447.473349) can0 0CFDD634#01000100FF00F0C3
(1542895447.474972) can0 0CFDD633#01000100FF00F0C3
(1542895447.476325) can0 0CFDD734#0100FFFFFFFFFFFF
(1542895447.476986) can0 0CFDD733#0100FFFFFFFFFFFF
(1542895447.477750) can0 628#01F90201D932001A
(1542895447.494319) can0 0CFDD634#01000100FF00F0C3
(1542895447.494892) can0 0CFDD633#01000100FF00F0C3
(1542895447.497364) can0 0CFDD734#0100FFFFFFFFFFFF
(1542895447.497963) can0 0CFDD733#0100FFFFFFFFFFFF
(1542895447.514261) can0 0CFDD634#01000100FF00F0C3
(1542895447.515931) can0 0CFDD633#01000100FF00F0C3
(1542895447.517307) can0 0CFDD734#0100FFFFFFFFFFFF
(1542895447.517776) can0 628#01F302F2D835001A
(1542895447.518349) can0 0CFDD733#0100FFFFFFFFFFFF
(1542895447.535235) can0 0CFDD634#01000100FF00F0C3
(1542895447.535914) can0 0CFDD633#01000100FF00F0C3
(1542895447.538266) can0 0CFDD734#0100FFFFFFFFFFFF
(1542895447.538910) can0 0CFDD733#0100FFFFFFFFFFFF
(1542895447.555215) can0 0CFDD634#01000100FF00F0C3
(1542895447.555827) can0 0CFDD633#01000100FF00F0C3
(1542895447.557753) can0 628#01DE02FCD83E001A
(1542895447.559231) can0 0CFDD734#0100FFFFFFFFFFFF
(1542895447.559854) can0 0CFDD733#0100FFFFFFFFFFFF
(1542895447.576183) can0 0CFDD634#01000100FF00F0C3
(1542895447.576828) can0 0CFDD633#01000100FF00F0C3
(1542895447.580182) can0 0CFDD734#0100FFFFFFFFFFFF
(1542895447.580825) can0 0CFDD733#0100FFFFFFFFFFFF
(1542895447.590186) can0 18FECA34#00FF00000000FFFF
(1542895447.596109) can0 0CFDD634#01000100FF00F0C3
(1542895447.597793) can0 0CFDD633#01000100FF00F0C3
(1542895447.598233) can0 628#01BA01EED846011A
(1542895447.600138) can0 0CFDD734#0100FFFFFFFFFFFF
(1542895447.601787) can0 0CFDD733#0100FFFFFFFFFFFF
(1542895447.617062) can0 0CFDD634#01000100FF00F0C3
(1542895447.617714) can0 0CFDD633#01000100FF00F0C3
(1542895447.620056) can0 0CFDD734#0100FFFFFFFFFFFF
(1542895447.622733) can0 0CFDD733#0100FFFFFFFFFFFF
(1542895447.637055) can0 0CFDD634#01000100FF00F0C3
(1542895447.637771) can0 628#0162FFE5D8EA031A
(1542895447.638696) can0 0CFDD633#01000100FF00F0C3
(1542895447.640049) can0 0CFDD734#0100FFFFFFFFFFFF
(1542895447.642676) can0 0CFDD733#0100FFFFFFFFFFFF
(1542895447.658023) can0 0CFDD634#01000100FF00F0C3
(1542895447.658704) can0 0CFDD633#01000100FF00F0C3
(1542895447.661105) can0 0CFDD734#0100FFFFFFFFFFFF
(1542895447.662698) can0 0CFDD733#0100FFFFFFFFFFFF
(1542895447.677794) can0 628#01FE010FD9FC051A
(1542895447.678359) can0 0CFDD634#01000100FF00F0C3
(1542895447.679660) can0 0CFDD633#01000100FF00F0C3
(1542895447.681019) can0 0CFDD734#0100FFFFFFFFFFFF
(1542895447.682636) can0 0CFDD733#0100FFFFFFFFFFFF
(1542895447.698967) can0 0CFDD634#01000100FF00F0C3
(1542895447.699621) can0 0CFDD633#01000100FF00F0C3
(1542895447.701958) can0 0CFDD734#0100FFFFFFFFFFFF
(1542895447.702634) can0 0CFDD733#0100FFFFFFFFFFFF
(1542895447.715628) can0 18FECA33#00FF00000000FFFF
(1542895447.717878) can0 628#01300413D90D061A
(1542895447.718928) can0 0CFDD634#01000100FF00F0C3
(1542895447.720571) can0 0CFDD633#01000100FF00F0C3
(1542895447.721980) can0 0CFDD734#0100FFFFFFFFFFFF
(1542895447.722615) can0 0CFDD733#0100FFFFFFFFFFFF
(1542895447.739916) can0 0CFDD634#01000100FF00F0C3
(1542895447.740540) can0 0CFDD633#01000100FF00F0C3
(1542895447.742916) can0 0CFDD734#0100FFFFFFFFFFFF
(1542895447.743579) can0 0CFDD733#0100FFFFFFFFFFFF
(1542895447.757795) can0 628#01FE031BD908061A
(1542895447.760845) can0 0CFDD634#01000100FF00F0C3
(1542895447.761527) can0 0CFDD633#01000100FF00F0C3
(1542895447.762872) can0 0CFDD734#0100FFFFFFFFFFFF
(1542895447.764522) can0 0CFDD733#0100FFFFFFFFFFFF
(1542895447.780801) can0 0CFDD634#01000100FF00F0C3
(1542895447.781483) can0 0CFDD633#01000100FF00F0C3
(1542895447.783834) can0 0CFDD734#0100FFFFFFFFFFFF
(1542895447.784497) can0 0CFDD733#0100FFFFFFFFFFFF
(1542895447.797836) can0 628#01820441D928061A
(1542895447.800798) can0 0CFDD634#01000100FF00F0C3
(1542895447.801456) can0 0CFDD633#01000100FF00F0C3
(1542895447.803790) can0 0CFDD734#0100FFFFFFFFFFFF
(1542895447.804454) can0 0CFDD733#0100FFFFFFFFFFFF
(1542895447.821750) can0 0CFDD634#01000100FF00F0C3
(1542895447.822375) can0 0CFDD633#01000100FF00F0C3
(1542895447.823786) can0 0CFDD734#0100FFFFFFFFFFFF
(1542895447.825442) can0 0CFDD733#0100FFFFFFFFFFFF
(1542895447.837834) can0 628#0138052FD910061A
(1542895447.841709) can0 0CFDD634#01000100FF00F0C3
(1542895447.843367) can0 0CFDD633#01000100FF00F0C3
(1542895447.844743) can0 0CFDD734#0100FFFFFFFFFFFF
(1542895447.845414) can0 0CFDD733#0100FFFFFFFFFFFF
(1542895447.862666) can0 0CFDD634#01000100FF00F0C3
(1542895447.863353) can0 0CFDD633#01000100FF00F0C3
(1542895447.865709) can0 0CFDD734#0100FFFFFFFFFFFF
(1542895447.866364) can0 0CFDD733#0100FFFFFFFFFFFF
(1542895447.877930) can0 628#01110548D927061A
(1542895447.882663) can0 0CFDD634#01000100FF00F0C3
(1542895447.883307) can0 0CFDD633#01000100FF00F0C3
(1542895447.885666) can0 0CFDD734#0100FFFFFFFFFFFF
(1542895447.887308) can0 0CFDD733#0100FFFFFFFFFFFF
(1542895447.903584) can0 0CFDD634#01000100FF00F0C3
(1542895447.904308) can0 0CFDD633#01000100FF00F0C3
(1542895447.905574) can0 0CFDD734#0100FFFFFFFFFFFF
(1542895447.907204) can0 0CFDD733#0100FFFFFFFFFFFF
(1542895447.917846) can0 628#01040668D917061A
(1542895447.923567) can0 0CFDD634#01000100FF00F0C3
(1542895447.924265) can0 0CFDD633#01000100FF00F0C3
(1542895447.925504) can0 0CFDD734#0100FFFFFFFFFFFF
(1542895447.928231) can0 0CFDD733#0100FFFFFFFFFFFF
(1542895447.944542) can0 0CFDD634#01000100FF00F0C3
(1542895447.945226) can0 0CFDD633#01000100FF00F0C3
(1542895447.946541) can0 0CFDD734#0100FFFFFFFFFFFF
(1542895447.948223) can0 0CFDD733#0100FFFFFFFFFFFF
(1542895447.957832) can0 628#0122064FD915061A
(1542895447.964484) can0 0CFDD634#01000100FF00F0C3
(1542895447.966147) can0 0CFDD633#01000100FF00F0C3
(1542895447.967527) can0 0CFDD734#0100FFFFFFFFFFFF
(1542895447.968194) can0 0CFDD733#0100FFFFFFFFFFFF
(1542895447.985447) can0 0CFDD634#01000100FF00F0C3
(1542895447.986148) can0 0CFDD633#01000100FF00F0C3
(1542895447.988481) can0 0CFDD734#0100FFFFFFFFFFFF
(1542895447.989110) can0 0CFDD733#0100FFFFFFFFFFFF
(1542895447.997884) can0 628#016B067CD92B061A
(1542895448.005443) can0 0CFDD634#01000100FF00F0C3
(1542895448.006101) can0 0CFDD633#01000100FF00F0C3
(1542895448.008432) can0 0CFDD734#0100FFFFFFFFFFFF
(1542895448.010088) can0 0CFDD733#0100FFFFFFFFFFFF
(1542895448.026399) can0 0CFDD634#01000100FF00F0C3
(1542895448.027081) can0 0CFDD633#01000100FF00F0C3
(1542895448.028362) can0 0CFDD734#0100FFFFFFFFFFFF
(1542895448.030096) can0 0CFDD733#0100FFFFFFFFFFFF
(1542895448.037974) can0 628#01390793D923061A
(1542895448.046351) can0 0CFDD634#01000100FF00F0C3
(1542895448.047041) can0 0CFDD633#01000100FF00F0C3
(1542895448.048344) can0 0CFDD734#0100FFFFFFFFFFFF
(1542895448.050010) can0 0CFDD733#0100FFFFFFFFFFFF
(1542895448.067320) can0 0CFDD634#01000100FF00F0C3
(1542895448.068002) can0 0CFDD633#01000100FF00F0C3
(1542895448.069368) can0 0CFDD734#0100FFFFFFFFFFFF
(1542895448.070008) can0 0CFDD733#0100FFFFFFFFFFFF
(1542895448.077870) can0 628#012F0781D91B061A
(1542895448.087276) can0 0CFDD634#01000100FF00F0C3
(1542895448.088962) can0 0CFDD633#01000100FF00F0C3
(1542895448.090310) can0 0CFDD734#0100FFFFFFFFFFFF
(1542895448.091000) can0 0CFDD733#0100FFFFFFFFFFFF
(1542895448.108232) can0 0CFDD634#01000100FF00F0C3
(1542895448.108964) can0 0CFDD633#01000100FF00F0C3
